1768416875.192722 can0 000 [2] 80 01
1768416875.193022 can0 000 [2] 80 02
1768416875.193023 can0 000 [2] 80 03
1768416875.193025 can0 000 [2] 80 04
1768416875.193291 can0 602 [8] 42 02 20 05 00 00 00 00
1768416875.193527 can0 582 [8] 42 02 20 05 43 00 00 00
1768416875.194597 can0 000 [2] 80 02
1768416875.194825 can0 602 [8] 42 00 14 01 00 00 00 00
1768416875.195100 can0 582 [8] 42 00 14 01 01 02 00 80
1768416875.195732 can0 602 [8] 23 00 14 01 01 02 00 80
1768416875.196059 can0 582 [8] 60 00 14 01 00 00 00 00
1768416875.196852 can0 602 [8] 42 01 14 01 00 00 00 00
1768416875.197117 can0 582 [8] 42 01 14 01 01 03 00 80
1768416875.197964 can0 602 [8] 23 01 14 01 01 03 00 80
1768416875.198293 can0 582 [8] 60 01 14 01 00 00 00 00
1768416875.199111 can0 602 [8] 42 02 14 01 00 00 00 00
1768416875.199365 can0 582 [8] 42 02 14 01 01 04 00 80
1768416875.200226 can0 602 [8] 23 02 14 01 01 04 00 80
1768416875.200579 can0 582 [8] 60 02 14 01 00 00 00 00
1768416875.201337 can0 602 [8] 42 03 14 01 00 00 00 00
1768416875.201603 can0 582 [8] 42 03 14 01 01 02 00 00
1768416875.202465 can0 602 [8] 23 03 14 01 01 02 00 80
1768416875.202902 can0 582 [8] 60 03 14 01 00 00 00 00
1768416875.203593 can0 602 [8] 42 04 14 01 00 00 00 00
1768416875.203902 can0 582 [8] 42 04 14 01 21 04 00 80
1768416875.204712 can0 602 [8] 23 04 14 01 21 04 00 80
1768416875.205108 can0 582 [8] 60 04 14 01 00 00 00 00
1768416875.205808 can0 602 [8] 42 14 14 01 00 00 00 00
1768416875.206110 can0 582 [8] 42 14 14 01 01 05 00 80
1768416875.206933 can0 602 [8] 23 14 14 01 01 05 00 80
1768416875.207257 can0 582 [8] 60 14 14 01 00 00 00 00
1768416875.208046 can0 602 [8] 42 15 14 01 00 00 00 00
1768416875.208312 can0 582 [8] 42 15 14 01 11 05 00 80
1768416875.209169 can0 602 [8] 23 15 14 01 11 05 00 80
1768416875.209581 can0 582 [8] 60 15 14 01 00 00 00 00
1768416875.210295 can0 602 [8] 42 16 14 01 00 00 00 00
1768416875.210596 can0 582 [8] 42 16 14 01 21 05 00 80
1768416875.211411 can0 602 [8] 23 16 14 01 21 05 00 80
1768416875.211760 can0 582 [8] 60 16 14 01 00 00 00 00
1768416875.212581 can0 602 [8] 42 17 14 01 00 00 00 00
1768416875.212806 can0 582 [8] 42 17 14 01 31 05 00 80
1768416875.213633 can0 602 [8] 23 17 14 01 31 05 00 80
1768416875.214002 can0 582 [8] 60 17 14 01 00 00 00 00
1768416875.214755 can0 602 [8] 42 19 14 01 00 00 00 00
1768416875.215014 can0 582 [8] 42 19 14 01 00 05 00 00
1768416875.215854 can0 602 [8] 23 19 14 01 00 05 00 80
1768416875.216207 can0 582 [8] 60 19 14 01 00 00 00 00
1768416875.216973 can0 602 [8] 42 20 14 01 00 00 00 00
1768416875.217225 can0 582 [8] 42 20 14 01 51 05 00 80
1768416875.218090 can0 602 [8] 23 20 14 01 51 05 00 80
1768416875.218581 can0 582 [8] 60 20 14 01 00 00 00 00
1768416875.219228 can0 602 [8] 42 21 14 01 00 00 00 00
1768416875.219582 can0 582 [8] 42 21 14 01 61 05 00 80
1768416875.220350 can0 602 [8] 23 21 14 01 61 05 00 80
1768416875.220757 can0 582 [8] 60 21 14 01 00 00 00 00
1768416875.221467 can0 602 [8] 42 CA 20 07 00 00 00 00
1768416875.221859 can0 582 [8] 42 CA 20 07 00 00 00 00
1768416875.222579 can0 602 [8] 42 CA 20 08 00 00 00 00
1768416875.222962 can0 582 [8] 42 CA 20 08 00 00 00 00
1768416875.223697 can0 602 [8] 42 CA 20 09 00 00 00 00
1768416875.224060 can0 582 [8] 42 CA 20 09 00 00 00 00
1768416875.224802 can0 602 [8] 42 CA 20 0A 00 00 00 00
1768416875.225164 can0 582 [8] 42 CA 20 0A 00 00 00 00
1768416875.225920 can0 602 [8] 42 D8 20 09 00 00 00 00
1768416875.226528 can0 582 [8] 42 D8 20 09 70 03 00 00
1768416875.227044 can0 602 [8] 42 0F 20 01 00 00 00 00
1768416875.227367 can0 582 [8] 42 0F 20 01 F3 1C 00 00
1768416875.228143 can0 602 [8] 42 D8 20 0C 00 00 00 00
1768416875.228807 can0 582 [8] 42 D8 20 0C C8 00 00 00
1768416875.229293 can0 602 [8] 42 D8 20 24 00 00 00 00
1768416875.229992 can0 582 [8] 42 D8 20 24 00 00 14 00
1768416875.230510 can0 602 [8] 21 3C 20 09 08 00 00 00
1768416875.230768 can0 582 [8] 60 3C 20 09 00 00 00 00
1768416875.231590 can0 602 [8] 00 FF 40 55 55 0D 00 00
1768416875.231827 can0 582 [8] 20 FF 40 55 00 00 00 00
1768416875.232746 can0 602 [8] 11 00 40 55 55 0D 00 00
1768416875.233370 can0 582 [8] 30 00 40 55 00 00 00 00
1768416875.233856 can0 602 [8] 40 3C 20 09 00 00 00 00
1768416875.234356 can0 582 [8] 40 3C 20 09 00 00 00 00
1768416875.234968 can0 602 [8] 60 3C 20 09 00 00 00 00
1768416875.235202 can0 582 [8] 00 FF 40 55 55 0D 00 00
1768416875.236083 can0 602 [8] 70 3C 20 09 00 00 00 00
1768416875.236405 can0 582 [8] 11 00 20 09 55 0D 00 00
1768416875.237207 can0 602 [8] 23 37 20 01 00 00 1E 00
1768416875.237577 can0 582 [8] 60 37 20 01 00 00 00 00
1768416875.238323 can0 602 [8] 23 37 20 02 11 11 00 00
1768416875.238703 can0 582 [8] 60 37 20 02 00 00 00 00
1768416875.239446 can0 602 [8] 23 37 20 03 11 11 00 00
1768416875.239806 can0 582 [8] 60 37 20 03 00 00 00 00
1768416875.240580 can0 602 [8] 23 37 20 04 55 55 00 00
1768416875.240956 can0 582 [8] 60 37 20 04 00 00 00 00
1768416875.241685 can0 602 [8] 23 37 20 05 AA AA 1A 00
1768416875.242012 can0 582 [8] 60 37 20 05 00 00 00 00
1768416875.242757 can0 602 [8] 23 37 20 06 56 55 E5 FF
1768416875.243115 can0 582 [8] 60 37 20 06 00 00 00 00
1768416875.243872 can0 602 [8] 23 37 20 07 00 00 00 00
1768416875.244203 can0 582 [8] 60 37 20 07 00 00 00 00
1768416875.244986 can0 602 [8] 23 39 20 01 00 00 00 00
1768416875.245411 can0 582 [8] 60 39 20 01 00 00 00 00
1768416875.246084 can0 602 [8] 23 39 20 02 00 00 00 00
1768416875.246497 can0 582 [8] 60 39 20 02 00 00 00 00
1768416875.247198 can0 602 [8] 23 39 20 03 00 00 00 40
1768416875.247646 can0 582 [8] 60 39 20 03 00 00 00 00
1768416875.248343 can0 602 [8] 23 39 20 04 00 00 00 80
1768416875.248751 can0 582 [8] 60 39 20 04 00 00 00 00
1768416875.249454 can0 602 [8] 23 39 20 05 64 00 00 00
1768416875.249806 can0 582 [8] 60 39 20 05 00 00 00 00
1768416875.250581 can0 602 [8] 23 39 20 06 64 00 00 00
1768416875.251004 can0 582 [8] 60 39 20 06 00 00 00 00
1768416875.251657 can0 602 [8] 23 39 20 07 A0 0F 00 00
1768416875.252063 can0 582 [8] 60 39 20 07 00 00 00 00
1768416875.252781 can0 602 [8] 23 39 20 08 00 00 00 40
1768416875.253196 can0 582 [8] 60 39 20 08 00 00 00 00
1768416875.253897 can0 602 [8] 23 39 20 09 00 00 00 80
1768416875.254301 can0 582 [8] 60 39 20 09 00 00 00 00
1768416875.254991 can0 602 [8] 23 39 20 0A 00 00 00 00
1768416875.255446 can0 582 [8] 60 39 20 0A 00 00 00 00
1768416875.256105 can0 602 [8] 23 39 20 0B 00 00 00 00
1768416875.256609 can0 582 [8] 60 39 20 0B 00 00 00 00
1768416875.257290 can0 602 [8] 42 03 14 01 00 00 00 00
1768416875.257603 can0 582 [8] 42 03 14 01 01 02 00 80
1768416875.258419 can0 602 [8] 23 03 14 01 02 05 00 80
1768416875.258800 can0 582 [8] 60 03 14 01 00 00 00 00
1768416875.259579 can0 602 [8] 23 03 14 01 02 05 00 00
1768416875.259895 can0 582 [8] 60 03 14 01 00 00 00 00
1768416875.260654 can0 602 [8] 2F 03 14 02 01 00 00 00
1768416875.260993 can0 582 [8] 60 03 14 02 00 00 00 00
1768416875.261769 can0 602 [8] 42 03 18 01 00 00 00 00
1768416875.262033 can0 582 [8] 42 03 18 01 81 01 00 00
1768416875.262881 can0 602 [8] 23 03 18 01 82 01 00 80
1768416875.263199 can0 582 [8] 60 03 18 01 00 00 00 00
1768416875.263986 can0 602 [8] 23 03 18 01 82 01 00 00
1768416875.264306 can0 582 [8] 60 03 18 01 00 00 00 00
1768416875.265103 can0 602 [8] 2F 03 18 02 01 00 00 00
1768416875.265398 can0 582 [8] 60 03 18 02 00 00 00 00
1768416875.266230 can0 602 [8] 42 14 18 01 00 00 00 00
1768416875.266481 can0 582 [8] 42 14 18 01 81 02 00 00
1768416875.267339 can0 602 [8] 23 14 18 01 82 02 00 80
1768416875.267710 can0 582 [8] 60 14 18 01 00 00 00 00
1768416875.268455 can0 602 [8] 23 14 18 01 82 02 00 00
1768416875.268809 can0 582 [8] 60 14 18 01 00 00 00 00
1768416875.269579 can0 602 [8] 2F 14 18 02 01 00 00 00
1768416875.269998 can0 582 [8] 60 14 18 02 00 00 00 00
1768416875.270693 can0 602 [8] 42 16 18 01 00 00 00 00
1768416875.270995 can0 582 [8] 42 16 18 01 D1 02 00 80
1768416875.271808 can0 602 [8] 23 16 18 01 82 03 00 80
1768416875.272202 can0 582 [8] 60 16 18 01 00 00 00 00
1768416875.272935 can0 602 [8] 23 16 18 01 82 03 00 00
1768416875.273300 can0 582 [8] 60 16 18 01 00 00 00 00
1768416875.274034 can0 602 [8] 2F 16 18 02 01 00 00 00
1768416875.274403 can0 582 [8] 60 16 18 02 00 00 00 00
1768416875.275231 can0 602 [8] 42 19 18 01 00 00 00 00
1768416875.275579 can0 582 [8] 42 19 18 01 81 04 00 00
1768416875.276447 can0 602 [8] 23 19 18 01 82 04 00 80
1768416875.276807 can0 582 [8] 60 19 18 01 00 00 00 00
1768416875.277589 can0 602 [8] 2F 19 1A 00 00 00 00 00
1768416875.277850 can0 582 [8] 60 19 1A 00 00 00 00 00
1768416875.278689 can0 602 [8] 23 19 1A 01 10 01 0F 20
1768416875.279061 can0 582 [8] 60 19 1A 01 00 00 00 00
1768416875.279838 can0 602 [8] 23 19 1A 02 10 02 02 20
1768416875.280252 can0 582 [8] 60 19 1A 02 00 00 00 00
1768416875.280967 can0 602 [8] 23 19 1A 03 10 03 02 20
1768416875.281300 can0 582 [8] 60 19 1A 03 00 00 00 00
1768416875.282077 can0 602 [8] 23 19 1A 04 10 05 02 20
1768416875.282429 can0 582 [8] 60 19 1A 04 00 00 00 00
1768416875.283196 can0 602 [8] 2F 19 1A 00 04 00 00 00
1768416875.283580 can0 582 [8] 60 19 1A 00 00 00 00 00
1768416875.284336 can0 602 [8] 23 19 18 01 82 04 00 00
1768416875.284690 can0 582 [8] 60 19 18 01 00 00 00 00
1768416875.285460 can0 602 [8] 2F 19 18 02 01 00 00 00
1768416875.285741 can0 582 [8] 60 19 18 02 00 00 00 00
1768416875.286593 can0 000 [2] 80 02
1768416875.286826 can0 602 [8] 2B 40 60 00 80 00 00 00
1768416875.287078 can0 582 [8] 60 40 60 00 00 00 00 00
1768416875.287738 can0 602 [8] 2F 60 60 00 03 00 00 00
1768416875.288004 can0 582 [8] 60 60 60 00 00 00 00 00
1768416875.288849 can0 602 [8] 23 FF 60 00 00 00 00 00
1768416875.289103 can0 582 [8] 60 FF 60 00 00 00 00 00
1768416875.290005 can0 602 [8] 23 83 60 00 00 00 00 00
1768416875.290234 can0 582 [8] 80 83 60 00 00 00 02 06
1768416875.292325 can0 602 [8] 2B 40 60 00 80 00 00 00
1768416875.292579 can0 582 [8] 60 40 60 00 00 00 00 00
1768416875.293455 can0 602 [8] 2B 40 60 00 06 00 00 00
1768416875.293754 can0 582 [8] 60 40 60 00 00 00 00 00
1768416875.294583 can0 602 [8] 2B 40 60 00 07 00 00 00
1768416875.294826 can0 582 [8] 60 40 60 00 00 00 00 00
1768416875.295689 can0 602 [8] 2B 40 60 00 0F 00 00 00
1768416875.295930 can0 582 [8] 60 40 60 00 00 00 00 00
1768416875.296758 can0 000 [2] 01 02
1768416875.296986 can0 602 [8] 2B 86 60 00 02 00 00 00
1768416875.297497 can0 582 [8] 60 86 60 00 00 00 00 00
1768416875.298075 can0 602 [8] 21 3C 20 01 06 00 00 00
1768416875.298353 can0 582 [8] 60 3C 20 01 00 00 00 00
1768416875.299188 can0 602 [8] 01 3E C3 AE 00 00 00 00
1768416875.299708 can0 582 [8] 20 3E C3 AE 00 00 00 00
1768416875.300349 can0 602 [8] 21 3C 20 02 06 00 00 00
1768416875.300600 can0 582 [8] 60 3C 20 02 00 00 00 00
1768416875.301431 can0 602 [8] 01 3E C3 AE 00 00 00 00
1768416875.301998 can0 582 [8] 20 3E C3 AE 00 00 00 00
1768416875.302599 can0 602 [8] 21 3C 20 03 06 00 00 00
1768416875.302851 can0 582 [8] 60 3C 20 03 00 00 00 00
1768416875.303695 can0 602 [8] 01 3E C3 AE 00 00 00 00
1768416875.304201 can0 582 [8] 20 3E C3 AE 00 00 00 00
1768416875.304794 can0 602 [8] 21 3C 20 04 06 00 00 00
1768416875.305106 can0 582 [8] 60 3C 20 04 00 00 00 00
1768416875.305906 can0 602 [8] 01 3E C3 AE 00 00 00 00
1768416875.306454 can0 582 [8] 20 3E C3 AE 00 00 00 00
1768416875.307031 can0 602 [8] 2B 0C 10 00 0A 00 00 00
1768416875.307273 can0 582 [8] 60 0C 10 00 00 00 00 00
1768416875.308140 can0 602 [8] 2F 0D 10 00 FA 00 00 00
1768416875.308458 can0 582 [8] 60 0D 10 00 00 00 00 00
1768416875.309234 can0 702 [0] 
1768416875.309494 can0 602 [8] 2B 5A 20 40 00 00 00 00
1768416875.309495 can0 702 [1] 05
1768416875.310602 can0 582 [8] 60 5A 20 40 00 00 00 00
1768416875.311496 can0 602 [8] 2B 5A 20 2E 01 00 00 00
1768416875.312591 can0 582 [8] 60 5A 20 2E 00 00 00 00
1768416875.313709 can0 602 [8] 2B 5A 20 01 00 00 00 00
1768416875.314799 can0 582 [8] 60 5A 20 01 00 00 00 00
1768416875.315908 can0 602 [8] 2B 65 20 2B 0A 00 00 00
1768416875.316702 can0 582 [8] 60 65 20 2B 00 00 00 00
1768416875.317035 can0 602 [8] 42 41 60 00 00 00 00 00
1768416875.317264 can0 582 [8] 42 41 60 00 37 06 00 00
1768416875.318237 can0 502 [6] 0F 00 00 00 00 00
1768416875.318238 can0 080 [0] 
1768416875.318659 can0 185 [8] 00 00 00 00 00 E0 6B EC
1768416875.318660 can0 182 [6] 37 06 00 00 00 00
1768416875.318660 can0 285 [8] 00 00 00 82 00 E0 6B EC
1768416875.319059 can0 382 [2] F9 FF
1768416875.319060 can0 282 [4] 02 00 00 00
1768416875.319060 can0 385 [8] 00 00 00 00 00 E0 6B EC
1768416875.319061 can0 482 [8] F1 1C 00 00 00 00 43 00
1768416875.319287 can0 485 [8] 00 00 00 00 00 E0 6B EC
1768416875.328296 can0 702 [0] 
1768416875.328578 can0 602 [8] 42 02 20 01 00 00 00 00
1768416875.328579 can0 702 [1] 85
1768416875.328810 can0 582 [8] 42 02 20 01 01 00 00 00
1768416875.329459 can0 602 [8] 42 02 20 02 00 00 00 00
1768416875.329852 can0 582 [8] 42 02 20 02 00 00 00 00
1768416875.330585 can0 602 [8] 42 02 20 03 00 00 00 00
1768416875.330850 can0 582 [8] 42 02 20 03 00 00 00 00
1768416875.331712 can0 602 [8] 42 02 20 04 00 00 00 00
1768416875.332006 can0 582 [8] 42 02 20 04 00 04 00 00
1768416875.332865 can0 602 [8] 42 02 20 05 00 00 00 00
1768416875.333152 can0 582 [8] 42 02 20 05 43 00 00 00
1768416875.333973 can0 602 [8] 42 02 20 06 00 00 00 00
1768416875.334342 can0 582 [8] 42 02 20 06 00 00 00 00
1768416875.335102 can0 602 [8] 42 02 20 07 00 00 00 00
1768416875.335512 can0 582 [8] 42 02 20 07 00 00 00 00
1768416875.337919 can0 602 [8] 2F 0D 10 00 14 00 00 00
1768416875.338153 can0 582 [8] 60 0D 10 00 00 00 00 00
1768416875.339118 can0 502 [6] 0F 00 67 66 FC FF
1768416875.339580 can0 080 [0] 
1768416875.339580 can0 702 [0] 
1768416875.339581 can0 182 [6] 37 06 00 00 00 00
1768416875.339581 can0 185 [8] 00 00 00 00 00 E8 AA 1F
1768416875.339582 can0 382 [2] F9 FF
1768416875.340060 can0 282 [4] 02 00 00 00
1768416875.340060 can0 285 [8] 00 00 00 82 00 E8 AA 1F
1768416875.340061 can0 482 [8] EE 1C 00 00 00 00 43 00
1768416875.340061 can0 385 [8] 00 00 00 00 00 E8 AA 1F
1768416875.340062 can0 702 [1] 05
1768416875.340287 can0 485 [8] 00 00 00 00 00 E8 AA 1F
1768416875.349291 can0 502 [6] 0F 00 67 66 FC FF
1768416875.349765 can0 080 [0] 
1768416875.349767 can0 702 [0] 
1768416875.349768 can0 182 [6] 37 02 FF FF FF FF
1768416875.349768 can0 185 [8] 00 00 00 00 00 EC C9 6A
1768416875.349769 can0 382 [2] 61 FC
1768416875.350239 can0 282 [4] 01 00 00 00
1768416875.350239 can0 285 [8] 00 00 00 82 00 EC C9 6A
1768416875.350239 can0 482 [8] EB 1C 00 00 00 00 61 00
1768416875.350240 can0 385 [8] 00 00 00 00 00 EC C9 6A
1768416875.350240 can0 702 [1] 85
1768416875.350479 can0 485 [8] 00 00 00 00 00 EC C9 6A
1768416875.359520 can0 502 [6] 0F 00 67 66 FC FF
1768416875.359997 can0 080 [0] 
1768416875.359997 can0 702 [0] 
1768416875.359998 can0 185 [8] 00 00 00 00 00 F0 E8 70
1768416875.359998 can0 182 [6] 37 02 C1 8A FF FF
1768416875.359999 can0 285 [8] 00 00 00 82 00 F0 E8 70
1768416875.360410 can0 382 [2] FD FE
1768416875.360410 can0 282 [4] F3 FF FF FF
1768416875.360411 can0 385 [8] 00 00 00 00 00 F0 E8 70
1768416875.360411 can0 482 [8] EA 1C 00 00 00 00 60 00
1768416875.360670 can0 485 [8] 00 00 00 00 00 F0 E8 70
1768416875.360671 can0 702 [1] 05
1768416875.369724 can0 502 [6] 0F 00 67 66 FC FF
1768416875.370151 can0 080 [0] 
1768416875.370152 can0 702 [0] 
1768416875.370152 can0 182 [6] 37 02 45 52 FF FF
1768416875.370152 can0 185 [8] 00 00 00 00 00 F5 07 01
1768416875.370153 can0 382 [2] 4E FE
1768416875.370633 can0 282 [4] BA FF FF FF
1768416875.370634 can0 285 [8] 00 00 00 82 00 F5 07 01
1768416875.370634 can0 482 [8] ED 1C 00 00 00 00 60 00
1768416875.370635 can0 385 [8] 00 00 00 00 00 F5 07 01
1768416875.370635 can0 702 [1] 85
1768416875.370858 can0 485 [8] 00 00 00 00 00 F5 07 01
1768416875.379878 can0 502 [6] 0F 00 67 66 FC FF
1768416875.379879 can0 080 [0] 
1768416875.380297 can0 702 [0] 
1768416875.380297 can0 185 [8] 00 00 00 00 00 F9 26 C0
1768416875.380298 can0 182 [6] 37 02 85 09 FF FF
1768416875.380789 can0 285 [8] 00 00 00 82 00 F9 26 C0
1768416875.380790 can0 382 [2] 61 FE
1768416875.380790 can0 282 [4] 66 FF FF FF
1768416875.380791 can0 385 [8] 00 00 00 00 00 F9 26 C0
1768416875.380791 can0 702 [1] 05
1768416875.380792 can0 482 [8] EB 1C 00 00 00 00 60 00
1768416875.381014 can0 485 [8] 00 00 00 00 00 F9 26 C0
1768416875.390082 can0 502 [6] 0F 00 67 66 FC FF
1768416875.390484 can0 080 [0] 
1768416875.390485 can0 702 [0] 
1768416875.390486 can0 185 [8] 00 00 00 00 00 FD 45 EA
1768416875.390487 can0 182 [6] 37 02 76 BD FE FF
1768416875.391007 can0 285 [8] 00 00 00 82 00 FD 45 EA
1768416875.391008 can0 382 [2] A9 FE
1768416875.391008 can0 282 [4] F4 FE FF FF
1768416875.391009 can0 385 [8] 00 00 00 00 00 FD 45 EA
1768416875.391010 can0 482 [8] EE 1C 00 00 00 00 20 00
1768416875.391206 can0 485 [8] 00 00 00 00 00 FD 45 EA
1768416875.391206 can0 702 [1] 85
1768416875.400253 can0 502 [6] 0F 00 67 66 FC FF
1768416875.400822 can0 080 [0] 
1768416875.400823 can0 702 [0] 
1768416875.400824 can0 185 [8] 00 00 00 00 00 01 64 83
1768416875.400825 can0 182 [6] 37 02 49 7D FE FF
1768416875.400825 can0 285 [8] 00 00 00 82 00 01 64 83
1768416875.400826 can0 382 [2] 63 FE
1768416875.401194 can0 282 [4] 67 FE FF FF
1768416875.401196 can0 385 [8] 00 00 00 00 00 01 64 83
1768416875.401196 can0 702 [1] 05
1768416875.401197 can0 482 [8] EC 1C 00 00 00 00 20 00
1768416875.401421 can0 485 [8] 00 00 00 00 00 01 64 83
1768416875.410454 can0 502 [6] 0F 00 67 66 FC FF
1768416875.410834 can0 080 [0] 
1768416875.410835 can0 185 [8] 00 00 00 00 00 05 83 D6
1768416875.410836 can0 182 [6] 37 02 AD 32 FE FF
1768416875.411248 can0 285 [8] 00 00 00 82 00 05 83 D6
1768416875.411249 can0 382 [2] BB FE
1768416875.411250 can0 282 [4] BD FD FF FF
1768416875.411251 can0 385 [8] 00 00 00 00 00 05 83 D6
1768416875.411582 can0 482 [8] EC 1C 00 00 00 00 20 00
1768416875.411583 can0 485 [8] 00 00 00 00 00 05 83 D6
1768416875.411585 can0 702 [0] 
1768416875.411585 can0 702 [1] 85
1768416875.420654 can0 502 [6] 0F 00 67 66 FC FF
1768416875.421097 can0 080 [0] 
1768416875.421098 can0 702 [0] 
1768416875.421099 can0 185 [8] 00 00 00 00 00 09 A3 57
1768416875.421100 can0 182 [6] 37 02 F6 F3 FD FF
1768416875.421582 can0 285 [8] 00 00 00 82 00 09 A3 57
1768416875.421583 can0 382 [2] 6A FE
1768416875.421583 can0 282 [4] FA FC FF FF
1768416875.421584 can0 385 [8] 00 00 00 00 00 09 A3 57
1768416875.421584 can0 482 [8] EB 1C 00 00 00 00 20 00
1768416875.421822 can0 485 [8] 00 00 00 00 00 09 A3 57
1768416875.421823 can0 702 [1] 05
1768416875.430818 can0 502 [6] 0F 00 67 66 FC FF
1768416875.431271 can0 080 [0] 
1768416875.431272 can0 702 [0] 
1768416875.431272 can0 185 [8] 00 00 00 00 00 0D C2 03
1768416875.431273 can0 182 [6] 37 02 7A B0 FD FF
1768416875.431745 can0 285 [8] 00 00 00 82 00 0D C2 03
1768416875.431746 can0 382 [2] 0F FE
1768416875.431746 can0 282 [4] 1A FC FF FF
1768416875.431747 can0 385 [8] 00 00 00 00 00 0D C2 03
1768416875.431747 can0 482 [8] E8 1C 00 00 00 00 20 00
1768416875.432005 can0 485 [8] 00 00 00 00 00 0D C2 03
1768416875.432010 can0 702 [1] 85
1768416875.441060 can0 502 [6] 0F 00 67 66 FC FF
1768416875.441061 can0 080 [0] 
1768416875.441439 can0 185 [8] 00 00 00 00 00 11 E1 18
1768416875.441439 can0 182 [6] 37 02 BD 6F FD FF
1768416875.441440 can0 285 [8] 00 00 00 82 00 11 E1 18
1768416875.441864 can0 382 [2] 12 FE
1768416875.441864 can0 282 [4] 1E FB FF FF
1768416875.441865 can0 385 [8] 00 00 00 00 00 11 E1 18
1768416875.441865 can0 482 [8] EB 1C 00 00 00 00 20 00
1768416875.442152 can0 485 [8] 00 00 00 00 00 11 E1 18
1768416875.442153 can0 702 [0] 
1768416875.442153 can0 702 [1] 05
1768416875.451166 can0 502 [6] 0F 00 67 66 FC FF
1768416875.451619 can0 080 [0] 
1768416875.451620 can0 702 [0] 
1768416875.451621 can0 185 [8] 00 00 00 00 00 16 00 3C
1768416875.451622 can0 182 [6] 37 02 37 20 FD FF
1768416875.452113 can0 285 [8] 00 00 00 82 00 16 00 3C
1768416875.452114 can0 382 [2] 8D FE
1768416875.452115 can0 282 [4] 09 FA FF FF
1768416875.452116 can0 385 [8] 00 00 00 00 00 16 00 3C
1768416875.452116 can0 702 [1] 85
1768416875.452117 can0 482 [8] E9 1C 00 00 00 00 20 00
1768416875.452330 can0 485 [8] 00 00 00 00 00 16 00 3C
1768416875.461363 can0 502 [6] 0F 00 67 66 FC FF
1768416875.461795 can0 080 [0] 
1768416875.461797 can0 702 [0] 
1768416875.461798 can0 185 [8] 00 00 00 00 00 1A 15 BC
1768416875.461798 can0 182 [6] 37 02 4D D7 FC FF
1768416875.462266 can0 285 [8] 00 00 00 82 00 1A 15 BC
1768416875.462266 can0 382 [2] 74 FE
1768416875.462267 can0 282 [4] D6 F8 FF FF
1768416875.462267 can0 385 [8] 00 00 00 00 00 1A 15 BC
1768416875.462267 can0 482 [8] EE 1C 00 00 00 00 20 00
1768416875.462576 can0 485 [8] 00 00 00 00 00 1A 15 BC
1768416875.462576 can0 702 [1] 05
1768416875.471589 can0 502 [6] 0F 00 67 66 FC FF
1768416875.472109 can0 080 [0] 
1768416875.472109 can0 702 [0] 
1768416875.472110 can0 185 [8] 00 00 00 00 00 1E 33 C1
1768416875.472111 can0 182 [6] 37 02 22 9B FC FF
1768416875.472111 can0 285 [8] 00 00 00 82 00 1E 33 C1
1768416875.472111 can0 382 [2] B0 FE
1768416875.472480 can0 282 [4] 87 F7 FF FF
1768416875.472480 can0 385 [8] 00 00 00 00 00 1E 33 C1
1768416875.472481 can0 702 [1] 85
1768416875.472481 can0 482 [8] E9 1C 00 00 00 00 20 00
1768416875.472749 can0 485 [8] 00 00 00 00 00 1E 33 C1
1768416875.481710 can0 502 [6] 0F 00 67 66 FC FF
1768416875.482145 can0 080 [0] 
1768416875.482145 can0 702 [0] 
1768416875.482146 can0 185 [8] 00 00 00 00 00 22 52 B5
1768416875.482147 can0 182 [6] 37 06 6D 76 FC FF
1768416875.482617 can0 285 [8] 00 00 00 82 00 22 52 B5
1768416875.482617 can0 382 [2] 11 FF
1768416875.482618 can0 282 [4] 21 F6 FF FF
1768416875.482618 can0 385 [8] 00 00 00 00 00 22 52 B5
1768416875.482619 can0 482 [8] EC 1C 00 00 00 00 02 00
1768416875.482874 can0 485 [8] 00 00 00 00 00 22 52 B5
1768416875.482875 can0 702 [1] 05
1768416875.491863 can0 502 [6] 0F 00 67 66 FC FF
1768416875.492353 can0 080 [0] 
1768416875.492354 can0 702 [0] 
1768416875.492355 can0 182 [6] 37 06 F6 71 FC FF
1768416875.492355 can0 185 [8] 00 00 00 00 00 26 73 9F
1768416875.492356 can0 382 [2] 41 FF
1768416875.492356 can0 282 [4] B9 F4 FF FF
1768416875.492763 can0 285 [8] 00 00 00 82 00 26 73 9F
1768416875.492764 can0 482 [8] EE 1C 00 00 00 00 02 00
1768416875.492765 can0 385 [8] 00 00 00 00 00 26 73 9F
1768416875.492766 can0 702 [1] 85
1768416875.492993 can0 485 [8] 00 00 00 00 00 26 73 9F
1768416875.502169 can0 502 [6] 0F 00 67 66 FC FF
1768416875.502170 can0 080 [0] 
1768416875.502688 can0 702 [0] 
1768416875.502689 can0 185 [8] 00 00 00 00 00 2A 92 A6
1768416875.502690 can0 182 [6] 37 06 25 74 FC FF
1768416875.502690 can0 285 [8] 00 00 00 82 00 2A 92 A6
1768416875.502691 can0 382 [2] 83 FF
1768416875.502691 can0 282 [4] 4B F3 FF FF
1768416875.503091 can0 385 [8] 00 00 00 00 00 2A 92 A6
1768416875.503092 can0 482 [8] F0 1C 00 00 00 00 02 00
1768416875.503092 can0 485 [8] 00 00 00 00 00 2A 92 A6
1768416875.503093 can0 702 [1] 05
1768416875.512290 can0 502 [6] 0F 00 67 66 FC FF
1768416875.512781 can0 080 [0] 
1768416875.512782 can0 702 [0] 
1768416875.512782 can0 182 [6] 37 06 75 78 FC FF
1768416875.512783 can0 185 [8] 00 00 00 00 00 32 D7 4D
1768416875.512783 can0 382 [2] 14 FF
1768416875.512784 can0 282 [4] E5 F1 FF FF
1768416875.513211 can0 285 [8] 00 00 00 82 00 32 D7 4D
1768416875.513211 can0 482 [8] EA 1C 00 00 00 00 02 00
1768416875.513212 can0 385 [8] 00 00 00 00 00 32 D7 4D
1768416875.513212 can0 702 [1] 85
1768416875.513443 can0 485 [8] 00 00 00 00 00 32 D7 4D
1768416875.522460 can0 502 [6] 0F 00 67 66 FC FF
1768416875.523090 can0 080 [0] 
1768416875.523091 can0 702 [0] 
1768416875.523092 can0 185 [8] 00 00 00 00 00 36 ED E2
1768416875.523092 can0 182 [6] 37 06 7C 79 FC FF
1768416875.523093 can0 285 [8] 00 00 00 82 00 36 ED E2
1768416875.523093 can0 382 [2] 05 FF
1768416875.523093 can0 282 [4] 79 F0 FF FF
1768416875.523483 can0 385 [8] 00 00 00 00 00 36 ED E2
1768416875.523483 can0 482 [8] F0 1C 00 00 00 00 02 00
1768416875.523483 can0 485 [8] 00 00 00 00 00 36 ED E2
1768416875.523484 can0 702 [1] 05
1768416875.532762 can0 502 [6] 0F 00 67 66 FC FF
1768416875.533166 can0 080 [0] 
1768416875.533167 can0 702 [0] 
1768416875.533168 can0 182 [6] 37 06 39 78 FC FF
1768416875.533169 can0 185 [8] 00 00 00 00 00 3B 0D 61
1768416875.533170 can0 382 [2] 2A FF
1768416875.533595 can0 282 [4] 14 EF FF FF
1768416875.533595 can0 285 [8] 00 00 00 82 00 3B 0D 61
1768416875.533595 can0 482 [8] EC 1C 00 00 00 00 02 00
1768416875.533596 can0 385 [8] 00 00 00 00 00 3B 0D 61
1768416875.533596 can0 702 [1] 85
1768416875.533826 can0 485 [8] 00 00 00 00 00 3B 0D 61
1768416875.542818 can0 502 [6] 0F 00 67 66 FC FF
1768416875.543230 can0 080 [0] 
1768416875.543230 can0 185 [8] 00 00 00 00 00 3F 2C 56
1768416875.543231 can0 702 [0] 
1768416875.543231 can0 182 [6] 37 06 40 78 FC FF
1768416875.543642 can0 285 [8] 00 00 00 82 00 3F 2C 56
1768416875.543643 can0 382 [2] 28 FF
1768416875.543643 can0 282 [4] A7 ED FF FF
1768416875.543643 can0 385 [8] 00 00 00 00 00 3F 2C 56
1768416875.543918 can0 482 [8] ED 1C 00 00 00 00 02 00
1768416875.543919 can0 485 [8] 00 00 00 00 00 3F 2C 56
1768416875.543919 can0 702 [1] 05
1768416875.552996 can0 502 [6] 0F 00 67 66 FC FF
1768416875.553489 can0 080 [0] 
1768416875.553490 can0 702 [0] 
1768416875.553490 can0 182 [6] 37 06 03 79 FC FF
1768416875.553491 can0 185 [8] 00 00 00 00 00 43 4B 0D
1768416875.553491 can0 382 [2] FB FE
1768416875.553492 can0 282 [4] 46 EC FF FF
1768416875.553940 can0 285 [8] 00 00 00 82 00 43 4B 0D
1768416875.553940 can0 482 [8] EF 1C 00 00 00 00 02 00
1768416875.553941 can0 385 [8] 00 00 00 00 00 43 4B 0D
1768416875.553941 can0 702 [1] 85
1768416875.554172 can0 485 [8] 00 00 00 00 00 43 4B 0D
1768416875.563229 can0 502 [6] 0F 00 67 66 FC FF
1768416875.563230 can0 080 [0] 
1768416875.563623 can0 702 [0] 
1768416875.563623 can0 185 [8] 00 00 00 00 00 47 6A BA
1768416875.563623 can0 285 [8] 00 00 00 82 00 47 6A BA
1768416875.564098 can0 182 [6] 37 06 BA 72 FC FF
1768416875.564099 can0 382 [2] 27 FF
1768416875.564099 can0 282 [4] D6 EA FF FF
1768416875.564100 can0 385 [8] 00 00 00 00 00 47 6A BA
1768416875.564100 can0 482 [8] F0 1C 00 00 00 00 02 00
1768416875.564353 can0 485 [8] 00 00 00 00 00 47 6A BA
1768416875.564353 can0 702 [1] 05
1768416875.573377 can0 502 [6] 0F 00 67 66 FC FF
1768416875.573378 can0 080 [0] 
1768416875.573773 can0 185 [8] 00 00 00 00 00 4B 89 7F
1768416875.573775 can0 182 [6] 37 06 AF 7A FC FF
1768416875.573776 can0 285 [8] 00 00 00 82 00 4B 89 7F
1768416875.574178 can0 382 [2] F4 FE
1768416875.574179 can0 282 [4] 75 E9 FF FF
1768416875.574180 can0 385 [8] 00 00 00 00 00 4B 89 7F
1768416875.574181 can0 482 [8] ED 1C 00 00 00 00 02 00
1768416875.574484 can0 485 [8] 00 00 00 00 00 4B 89 7F
1768416875.574485 can0 702 [0] 
1768416875.574485 can0 702 [1] 85
1768416875.583501 can0 502 [6] 0F 00 67 66 FC FF
1768416875.584070 can0 080 [0] 
1768416875.584071 can0 702 [0] 
1768416875.584071 can0 185 [8] 00 00 00 00 00 4F A8 84
1768416875.584072 can0 182 [6] 37 06 97 7A FC FF
1768416875.584073 can0 285 [8] 00 00 00 82 00 4F A8 84
1768416875.584073 can0 382 [2] 11 FF
1768416875.584581 can0 282 [4] 0D E8 FF FF
1768416875.584581 can0 385 [8] 00 00 00 00 00 4F A8 84
1768416875.584582 can0 482 [8] EE 1C 00 00 00 00 02 00
1768416875.584582 can0 485 [8] 00 00 00 00 00 4F A8 84
1768416875.584583 can0 702 [1] 05
1768416875.593743 can0 502 [6] 0F 00 67 66 FC FF
1768416875.594344 can0 080 [0] 
1768416875.594888 can0 702 [0] 
1768416875.594889 can0 185 [8] 00 00 00 00 00 53 C7 B8
1768416875.594890 can0 182 [6] 37 06 91 76 FC FF
1768416875.594890 can0 285 [8] 00 00 00 82 00 53 C7 B8
1768416875.594891 can0 382 [2] 20 FF
1768416875.595282 can0 282 [4] 93 E6 FF FF
1768416875.595283 can0 385 [8] 00 00 00 00 00 53 C7 B8
1768416875.595283 can0 702 [1] 85
1768416875.595284 can0 482 [8] EC 1C 00 00 00 00 02 00
1768416875.595284 can0 485 [8] 00 00 00 00 00 53 C7 B8
1768416875.604608 can0 502 [6] 0F 00 67 66 FC FF
1768416875.605093 can0 080 [0] 
1768416875.605093 can0 702 [0] 
1768416875.605094 can0 182 [6] 37 06 06 73 FC FF
1768416875.605094 can0 185 [8] 00 00 00 00 00 57 E6 CB
1768416875.605095 can0 382 [2] 4A FF
1768416875.605095 can0 282 [4] 25 E5 FF FF
1768416875.605577 can0 285 [8] 00 00 00 82 00 57 E6 CB
1768416875.605577 can0 482 [8] F2 1C 00 00 00 00 02 00
1768416875.605577 can0 385 [8] 00 00 00 00 00 57 E6 CB
1768416875.605578 can0 702 [1] 05
1768416875.605816 can0 485 [8] 00 00 00 00 00 57 E6 CB
1768416875.614805 can0 502 [6] 0F 00 67 66 FC FF
1768416875.615199 can0 080 [0] 
1768416875.615200 can0 185 [8] 00 00 00 00 00 5C 05 F1
1768416875.615201 can0 182 [6] 37 06 D8 73 FC FF
1768416875.615613 can0 285 [8] 00 00 00 82 00 5C 05 F1
1768416875.615613 can0 382 [2] 6E FF
1768416875.615613 can0 282 [4] B7 E3 FF FF
1768416875.615614 can0 385 [8] 00 00 00 00 00 5C 05 F1
1768416875.615936 can0 482 [8] F0 1C 00 00 00 00 02 00
1768416875.615936 can0 485 [8] 00 00 00 00 00 5C 05 F1
1768416875.615937 can0 702 [0] 
1768416875.615937 can0 702 [1] 85
1768416875.625124 can0 502 [6] 0F 00 67 66 FC FF
1768416875.625126 can0 080 [0] 
1768416875.625499 can0 185 [8] 00 00 00 00 00 60 25 49
1768416875.625500 can0 182 [6] 37 06 8F 76 FC FF
1768416875.625973 can0 285 [8] 00 00 00 82 00 60 25 49
1768416875.625975 can0 382 [2] 25 FF
1768416875.625976 can0 282 [4] 4D E2 FF FF
1768416875.625977 can0 385 [8] 00 00 00 00 00 60 25 49
1768416875.625977 can0 482 [8] F1 1C 00 00 00 00 02 00
1768416875.626225 can0 485 [8] 00 00 00 00 00 60 25 49
1768416875.626226 can0 702 [0] 
1768416875.626227 can0 702 [1] 05
1768416875.635264 can0 502 [6] 0F 00 67 66 FC FF
1768416875.635748 can0 080 [0] 
1768416875.635750 can0 702 [0] 
1768416875.635750 can0 185 [8] 00 00 00 00 00 64 44 10
1768416875.635751 can0 182 [6] 37 06 C7 77 FC FF
1768416875.636247 can0 285 [8] 00 00 00 82 00 64 44 10
1768416875.636248 can0 382 [2] 33 FF
1768416875.636248 can0 282 [4] E0 E0 FF FF
1768416875.636248 can0 385 [8] 00 00 00 00 00 64 44 10
1768416875.636249 can0 482 [8] ED 1C 00 00 00 00 02 00
1768416875.636490 can0 485 [8] 00 00 00 00 00 64 44 10
1768416875.636490 can0 702 [1] 85
1768416875.645620 can0 502 [6] 0F 00 67 66 FC FF
1768416875.645621 can0 080 [0] 
1768416875.646114 can0 702 [0] 
1768416875.646116 can0 182 [6] 37 06 3E 72 FC FF
1768416875.646116 can0 185 [8] 00 00 00 00 00 68 63 15
1768416875.646117 can0 382 [2] 43 FF
1768416875.646118 can0 282 [4] 7A DF FF FF
1768416875.646119 can0 285 [8] 00 00 00 82 00 68 63 15
1768416875.646490 can0 482 [8] ED 1C 00 00 00 00 02 00
1768416875.646491 can0 385 [8] 00 00 00 00 00 68 63 15
1768416875.646491 can0 702 [1] 05
1768416875.646492 can0 485 [8] 00 00 00 00 00 68 63 15
1768416875.655754 can0 502 [6] 0F 00 67 66 FC FF
1768416875.655755 can0 080 [0] 
1768416875.656259 can0 185 [8] 00 00 00 00 00 6C 81 AE
1768416875.656260 can0 702 [0] 
1768416875.656260 can0 182 [6] 37 06 A9 78 FC FF
1768416875.656261 can0 285 [8] 00 00 00 82 00 6C 81 AE
1768416875.656261 can0 382 [2] 35 FF
1768416875.656693 can0 282 [4] 0F DE FF FF
1768416875.656693 can0 385 [8] 00 00 00 00 00 6C 81 AE
1768416875.656694 can0 482 [8] ED 1C 00 00 00 00 02 00
1768416875.656694 can0 485 [8] 00 00 00 00 00 6C 81 AE
1768416875.656695 can0 702 [1] 85
1768416875.665960 can0 502 [6] 0F 00 67 66 FC FF
1768416875.665960 can0 080 [0] 
1768416875.666464 can0 702 [0] 
1768416875.666465 can0 182 [6] 37 06 EB 6E FC FF
1768416875.666466 can0 185 [8] 00 00 00 00 00 70 A1 50
1768416875.666466 can0 382 [2] 2A FF
1768416875.666467 can0 282 [4] A6 DC FF FF
1768416875.666929 can0 285 [8] 00 00 00 82 00 70 A1 50
1768416875.666930 can0 482 [8] EC 1C 00 00 00 00 02 00
1768416875.666930 can0 385 [8] 00 00 00 00 00 70 A1 50
1768416875.666931 can0 702 [1] 05
1768416875.666932 can0 485 [8] 00 00 00 00 00 70 A1 50
1768416875.676111 can0 502 [6] 0F 00 67 66 FC FF
1768416875.676593 can0 080 [0] 
1768416875.676595 can0 185 [8] 00 00 00 00 00 74 C0 68
1768416875.676595 can0 182 [6] 37 06 92 79 FC FF
1768416875.677040 can0 285 [8] 00 00 00 82 00 74 C0 68
1768416875.677041 can0 382 [2] F8 FE
1768416875.677042 can0 282 [4] 3D DB FF FF
1768416875.677042 can0 385 [8] 00 00 00 00 00 74 C0 68
1768416875.677044 can0 482 [8] EF 1C 00 00 00 00 02 00
1768416875.677311 can0 485 [8] 00 00 00 00 00 74 C0 68
1768416875.677311 can0 702 [0] 
1768416875.677311 can0 702 [1] 85
1768416875.686404 can0 502 [6] 0F 00 67 66 FC FF
1768416875.686868 can0 080 [0] 
1768416875.686869 can0 702 [0] 
1768416875.686870 can0 185 [8] 00 00 00 00 00 78 DF 6E
1768416875.686871 can0 182 [6] 37 06 1F 7A FC FF
1768416875.687310 can0 285 [8] 00 00 00 82 00 78 DF 6E
1768416875.687311 can0 382 [2] 18 FF
1768416875.687312 can0 282 [4] D0 D9 FF FF
1768416875.687313 can0 385 [8] 00 00 00 00 00 78 DF 6E
1768416875.687314 can0 482 [8] EF 1C 00 00 00 00 02 00
1768416875.687578 can0 485 [8] 00 00 00 00 00 78 DF 6E
1768416875.687579 can0 702 [1] 05
1768416875.696587 can0 502 [6] 0F 00 67 66 FC FF
1768416875.697030 can0 080 [0] 
1768416875.697031 can0 702 [0] 
1768416875.697031 can0 185 [8] 00 00 00 00 00 7C FE 3F
1768416875.697032 can0 182 [6] 37 06 8F 70 FC FF
1768416875.697581 can0 285 [8] 00 00 00 82 00 7C FE 3F
1768416875.697582 can0 382 [2] 59 FF
1768416875.697582 can0 282 [4] 6B D8 FF FF
1768416875.697583 can0 385 [8] 00 00 00 00 00 7C FE 3F
1768416875.697583 can0 702 [1] 85
1768416875.697584 can0 482 [8] ED 1C 00 00 00 00 02 00
1768416875.697818 can0 485 [8] 00 00 00 00 00 7C FE 3F
1768416875.706716 can0 502 [6] 0F 00 67 66 FC FF
1768416875.707127 can0 080 [0] 
1768416875.707127 can0 185 [8] 00 00 00 00 00 81 1D 7C
1768416875.707128 can0 182 [6] 37 06 2D 7A FC FF
1768416875.707500 can0 285 [8] 00 00 00 82 00 81 1D 7C
1768416875.707500 can0 382 [2] 07 FF
1768416875.707500 can0 282 [4] 01 D7 FF FF
1768416875.707501 can0 385 [8] 00 00 00 00 00 81 1D 7C
1768416875.707834 can0 482 [8] EE 1C 00 00 00 00 02 00
1768416875.707835 can0 485 [8] 00 00 00 00 00 81 1D 7C
1768416875.707835 can0 702 [0] 
1768416875.708063 can0 702 [1] 05
1768416875.716978 can0 502 [6] 0F 00 67 66 FC FF
1768416875.716979 can0 080 [0] 
1768416875.717389 can0 702 [0] 
1768416875.717390 can0 185 [8] 00 00 00 00 00 85 3C A1
1768416875.717390 can0 182 [6] 37 06 78 6F FC FF
1768416875.717872 can0 285 [8] 00 00 00 82 00 85 3C A1
1768416875.717873 can0 382 [2] 95 FF
1768416875.717873 can0 282 [4] 93 D5 FF FF
1768416875.717874 can0 385 [8] 00 00 00 00 00 85 3C A1
1768416875.717875 can0 482 [8] F1 1C 00 00 00 00 02 00
1768416875.718119 can0 485 [8] 00 00 00 00 00 85 3C A1
1768416875.718119 can0 702 [1] 85
1768416875.727123 can0 502 [6] 0F 00 67 66 FC FF
1768416875.727581 can0 080 [0] 
1768416875.727581 can0 702 [0] 
1768416875.727582 can0 185 [8] 00 00 00 00 00 89 51 10
1768416875.727582 can0 182 [6] 37 06 EC 72 FC FF
1768416875.728062 can0 285 [8] 00 00 00 82 00 89 51 10
1768416875.728063 can0 382 [2] 6E FF
1768416875.728063 can0 282 [4] 2C D4 FF FF
1768416875.728064 can0 385 [8] 00 00 00 00 00 89 51 10
1768416875.728064 can0 482 [8] EF 1C 00 00 00 00 02 00
1768416875.728316 can0 485 [8] 00 00 00 00 00 89 51 10
1768416875.728316 can0 702 [1] 05
1768416875.737296 can0 502 [6] 0F 00 67 66 FC FF
1768416875.737753 can0 080 [0] 
1768416875.737753 can0 702 [0] 
1768416875.737754 can0 185 [8] 00 00 00 00 00 8D 70 4E
1768416875.737754 can0 182 [6] 37 06 B8 6E FC FF
1768416875.738229 can0 285 [8] 00 00 00 82 00 8D 70 4E
1768416875.738229 can0 382 [2] 32 FF
1768416875.738230 can0 282 [4] C2 D2 FF FF
1768416875.738230 can0 385 [8] 00 00 00 00 00 8D 70 4E
1768416875.738230 can0 482 [8] EF 1C 00 00 00 00 02 00
1768416875.738481 can0 485 [8] 00 00 00 00 00 8D 70 4E
1768416875.738482 can0 702 [1] 85
1768416875.747494 can0 502 [6] 0F 00 67 66 FC FF
1768416875.747495 can0 080 [0] 
1768416875.748042 can0 702 [0] 
1768416875.748042 can0 185 [8] 00 00 00 00 00 91 8F 79
1768416875.748043 can0 182 [6] 37 06 13 7A FC FF
1768416875.748043 can0 285 [8] 00 00 00 82 00 91 8F 79
1768416875.748044 can0 382 [2] 0A FF
1768416875.748472 can0 282 [4] 5D D1 FF FF
1768416875.748472 can0 385 [8] 00 00 00 00 00 91 8F 79
1768416875.748473 can0 482 [8] EF 1C 00 00 00 00 02 00
1768416875.748473 can0 485 [8] 00 00 00 00 00 91 8F 79
1768416875.748473 can0 702 [1] 05
1768416875.757651 can0 502 [6] 0F 00 67 66 FC FF
1768416875.758108 can0 080 [0] 
1768416875.758109 can0 702 [0] 
1768416875.758110 can0 185 [8] 00 00 00 00 00 95 AE 5F
1768416875.758110 can0 285 [8] 00 00 00 82 00 95 AE 5F
1768416875.758582 can0 182 [6] 37 06 35 76 FC FF
1768416875.758583 can0 382 [2] 2E FF
1768416875.758583 can0 282 [4] F0 CF FF FF
1768416875.758584 can0 385 [8] 00 00 00 00 00 95 AE 5F
1768416875.758584 can0 482 [8] ED 1C 00 00 00 00 02 00
1768416875.758831 can0 485 [8] 00 00 00 00 00 95 AE 5F
1768416875.758831 can0 702 [1] 85
1768416875.767814 can0 502 [6] 0F 00 67 66 FC FF
1768416875.768274 can0 080 [0] 
1768416875.768275 can0 702 [0] 
1768416875.768275 can0 182 [6] 37 06 98 75 FC FF
1768416875.768275 can0 185 [8] 00 00 00 00 00 99 CD 2E
1768416875.768276 can0 382 [2] 53 FF
1768416875.768754 can0 282 [4] 8B CE FF FF
1768416875.768754 can0 285 [8] 00 00 00 82 00 99 CD 2E
1768416875.768754 can0 482 [8] E9 1C 00 00 00 00 02 00
1768416875.768755 can0 385 [8] 00 00 00 00 00 99 CD 2E
1768416875.768755 can0 702 [1] 05
1768416875.768982 can0 485 [8] 00 00 00 00 00 99 CD 2E
1768416875.778016 can0 502 [6] 0F 00 67 66 FC FF
1768416875.778486 can0 080 [0] 
1768416875.778487 can0 702 [0] 
1768416875.778488 can0 185 [8] 00 00 00 00 00 9D EC BF
1768416875.778488 can0 182 [6] 37 06 39 72 FC FF
1768416875.779009 can0 285 [8] 00 00 00 82 00 9D EC BF
1768416875.779009 can0 382 [2] 42 FF
1768416875.779010 can0 282 [4] 23 CD FF FF
1768416875.779010 can0 385 [8] 00 00 00 00 00 9D EC BF
1768416875.779011 can0 482 [8] EC 1C 00 00 00 00 02 00
1768416875.779207 can0 485 [8] 00 00 00 00 00 9D EC BF
1768416875.779208 can0 702 [1] 85
1768416875.788257 can0 502 [6] 0F 00 67 66 FC FF
1768416875.788258 can0 080 [0] 
1768416875.788759 can0 702 [0] 
1768416875.788760 can0 185 [8] 00 00 00 00 00 A2 0B 76
1768416875.788760 can0 182 [6] 37 06 75 79 FC FF
1768416875.788761 can0 285 [8] 00 00 00 82 00 A2 0B 76
1768416875.788761 can0 382 [2] F0 FE
1768416875.789199 can0 282 [4] BD CB FF FF
1768416875.789200 can0 385 [8] 00 00 00 00 00 A2 0B 76
1768416875.789201 can0 482 [8] EE 1C 00 00 00 00 02 00
1768416875.789201 can0 485 [8] 00 00 00 00 00 A2 0B 76
1768416875.789201 can0 702 [1] 05
1768416875.798415 can0 502 [6] 0F 00 67 66 FC FF
1768416875.798867 can0 080 [0] 
1768416875.798872 can0 702 [0] 
1768416875.798873 can0 185 [8] 00 00 00 00 00 A6 2A DA
1768416875.798873 can0 285 [8] 00 00 00 82 00 A6 2A DA
1768416875.799345 can0 182 [6] 37 06 69 78 FC FF
1768416875.799346 can0 382 [2] 3F FF
1768416875.799346 can0 282 [4] 49 CA FF FF
1768416875.799347 can0 385 [8] 00 00 00 00 00 A6 2A DA
1768416875.799348 can0 482 [8] EE 1C 00 00 00 00 02 00
1768416875.799598 can0 485 [8] 00 00 00 00 00 A6 2A DA
1768416875.799598 can0 702 [1] 85
1768416875.808615 can0 502 [6] 0F 00 67 66 FC FF
1768416875.809090 can0 080 [0] 
1768416875.809091 can0 702 [0] 
1768416875.809092 can0 185 [8] 00 00 00 00 00 AA 49 82
1768416875.809092 can0 182 [6] 37 06 AC 6F FC FF
1768416875.809580 can0 285 [8] 00 00 00 82 00 AA 49 82
1768416875.809580 can0 382 [2] 29 FF
1768416875.809581 can0 282 [4] E6 C8 FF FF
1768416875.809581 can0 385 [8] 00 00 00 00 00 AA 49 82
1768416875.809581 can0 482 [8] F0 1C 00 00 00 00 02 00
1768416875.809835 can0 485 [8] 00 00 00 00 00 AA 49 82
1768416875.809835 can0 702 [1] 05
1768416875.818798 can0 502 [6] 0F 00 67 66 FC FF
1768416875.819257 can0 080 [0] 
1768416875.819257 can0 702 [0] 
1768416875.819258 can0 185 [8] 00 00 00 00 00 AE 69 3C
1768416875.819258 can0 182 [6] 37 06 9C 78 FC FF
1768416875.819730 can0 285 [8] 00 00 00 82 00 AE 69 3C
1768416875.819730 can0 382 [2] 32 FF
1768416875.819731 can0 282 [4] 7C C7 FF FF
1768416875.819731 can0 385 [8] 00 00 00 00 00 AE 69 3C
1768416875.819731 can0 482 [8] EF 1C 00 00 00 00 02 00
1768416875.819983 can0 485 [8] 00 00 00 00 00 AE 69 3C
1768416875.819983 can0 702 [1] 85
1768416875.828930 can0 502 [6] 0F 00 67 66 FC FF
1768416875.829324 can0 080 [0] 
1768416875.829325 can0 185 [8] 00 00 00 00 00 B2 87 EC
1768416875.829326 can0 182 [6] 37 06 0D 71 FC FF
1768416875.829735 can0 285 [8] 00 00 00 82 00 B2 87 EC
1768416875.829736 can0 382 [2] 61 FF
1768416875.829736 can0 282 [4] 15 C6 FF FF
1768416875.829737 can0 385 [8] 00 00 00 00 00 B2 87 EC
1768416875.830054 can0 482 [8] F1 1C 00 00 00 00 02 00
1768416875.830055 can0 485 [8] 00 00 00 00 00 B2 87 EC
1768416875.830055 can0 702 [0] 
1768416875.830056 can0 702 [1] 05
1768416875.839153 can0 502 [6] 0F 00 67 66 FC FF
1768416875.839622 can0 080 [0] 
1768416875.839623 can0 702 [0] 
1768416875.839624 can0 182 [6] 37 06 C5 69 FC FF
1768416875.839625 can0 185 [8] 00 00 00 00 00 B6 A7 0F
1768416875.839625 can0 382 [2] 79 FF
1768416875.840096 can0 282 [4] AA C4 FF FF
1768416875.840097 can0 285 [8] 00 00 00 82 00 B6 A7 0F
1768416875.840098 can0 482 [8] ED 1C 00 00 00 00 02 00
1768416875.840099 can0 385 [8] 00 00 00 00 00 B6 A7 0F
1768416875.840099 can0 702 [1] 85
1768416875.840321 can0 485 [8] 00 00 00 00 00 B6 A7 0F
1768416875.849390 can0 502 [6] 0F 00 67 66 FC FF
1768416875.849391 can0 080 [0] 
1768416875.849804 can0 702 [0] 
1768416875.849805 can0 185 [8] 00 00 00 00 00 BA C5 C1
1768416875.849805 can0 182 [6] 37 06 04 77 FC FF
1768416875.850278 can0 285 [8] 00 00 00 82 00 BA C5 C1
1768416875.850278 can0 382 [2] 69 FF
1768416875.850279 can0 282 [4] 3F C3 FF FF
1768416875.850279 can0 385 [8] 00 00 00 00 00 BA C5 C1
1768416875.850280 can0 482 [8] EB 1C 00 00 00 00 02 00
1768416875.850581 can0 485 [8] 00 00 00 00 00 BA C5 C1
1768416875.850582 can0 702 [1] 05
1768416875.859588 can0 502 [6] 0F 00 67 66 FC FF
1768416875.860014 can0 080 [0] 
1768416875.860464 can0 185 [8] 00 00 00 00 00 BE E5 27
1768416875.860464 can0 182 [6] 37 06 E2 7D FC FF
1768416875.860465 can0 285 [8] 00 00 00 82 00 BE E5 27
1768416875.860465 can0 382 [2] C5 FE
1768416875.860954 can0 282 [4] C8 C1 FF FF
1768416875.860955 can0 385 [8] 00 00 00 00 00 BE E5 27
1768416875.860955 can0 482 [8] EC 1C 00 00 00 00 02 00
1768416875.860956 can0 485 [8] 00 00 00 00 00 BE E5 27
1768416875.860956 can0 702 [0] 
1768416875.861179 can0 702 [1] 85
1768416875.870226 can0 502 [6] 0F 00 67 66 FC FF
1768416875.870682 can0 080 [0] 
1768416875.870683 can0 185 [8] 00 00 00 00 00 C3 04 39
1768416875.870683 can0 702 [0] 
1768416875.870684 can0 182 [6] 37 06 07 7A FC FF
1768416875.871100 can0 285 [8] 00 00 00 82 00 C3 04 39
1768416875.871100 can0 382 [2] FB FE
1768416875.871101 can0 282 [4] 59 C0 FF FF
1768416875.871101 can0 385 [8] 00 00 00 00 00 C3 04 39
1768416875.871372 can0 482 [8] ED 1C 00 00 00 00 02 00
1768416875.871372 can0 485 [8] 00 00 00 00 00 C3 04 39
1768416875.871373 can0 702 [1] 05
1768416875.880424 can0 502 [6] 0F 00 67 66 FC FF
1768416875.880907 can0 080 [0] 
1768416875.880908 can0 185 [8] 00 00 00 00 00 C7 23 A4
1768416875.880908 can0 702 [0] 
1768416875.880909 can0 182 [6] 37 06 1C 78 FC FF
1768416875.881381 can0 285 [8] 00 00 00 82 00 C7 23 A4
1768416875.881382 can0 382 [2] 2A FF
1768416875.881382 can0 282 [4] F0 BE FF FF
1768416875.881382 can0 385 [8] 00 00 00 00 00 C7 23 A4
1768416875.881383 can0 482 [8] ED 1C 00 00 00 00 02 00
1768416875.881635 can0 485 [8] 00 00 00 00 00 C7 23 A4
1768416875.881636 can0 702 [1] 85
1768416875.890619 can0 502 [6] 0F 00 67 66 FC FF
1768416875.891055 can0 080 [0] 
1768416875.891055 can0 185 [8] 00 00 00 00 00 CB 42 B5
1768416875.891056 can0 182 [6] 37 06 8D 75 FC FF
1768416875.891583 can0 285 [8] 00 00 00 82 00 CB 42 B5
1768416875.891584 can0 382 [2] 3B FF
1768416875.891584 can0 282 [4] 8B BD FF FF
1768416875.891585 can0 385 [8] 00 00 00 00 00 CB 42 B5
1768416875.891585 can0 482 [8] E9 1C 00 00 00 00 02 00
1768416875.891853 can0 485 [8] 00 00 00 00 00 CB 42 B5
1768416875.891853 can0 702 [0] 
1768416875.891854 can0 702 [1] 05
1768416875.900841 can0 502 [6] 0F 00 67 66 FC FF
1768416875.901227 can0 080 [0] 
1768416875.901228 can0 185 [8] 00 00 00 00 00 CF 61 C9
1768416875.901229 can0 182 [6] 37 06 08 72 FC FF
1768416875.901635 can0 285 [8] 00 00 00 82 00 CF 61 C9
1768416875.901636 can0 382 [2] 42 FF
1768416875.901636 can0 282 [4] 1E BC FF FF
1768416875.901637 can0 385 [8] 00 00 00 00 00 CF 61 C9
1768416875.901962 can0 482 [8] F0 1C 00 00 00 00 02 00
1768416875.901962 can0 485 [8] 00 00 00 00 00 CF 61 C9
1768416875.901963 can0 702 [0] 
1768416875.901963 can0 702 [1] 85
1768416875.911030 can0 502 [6] 0F 00 67 66 FC FF
1768416875.911414 can0 080 [0] 
1768416875.911415 can0 185 [8] 00 00 00 00 00 D3 80 BD
1768416875.911416 can0 182 [6] 37 06 D1 77 FC FF
1768416875.911827 can0 285 [8] 00 00 00 82 00 D3 80 BD
1768416875.911828 can0 382 [2] 41 FF
1768416875.911829 can0 282 [4] B8 BA FF FF
1768416875.911829 can0 385 [8] 00 00 00 00 00 D3 80 BD
1768416875.912132 can0 482 [8] ED 1C 00 00 00 00 02 00
1768416875.912133 can0 485 [8] 00 00 00 00 00 D3 80 BD
1768416875.912133 can0 702 [0] 
1768416875.912364 can0 702 [1] 05
1768416875.921229 can0 502 [6] 0F 00 67 66 FC FF
1768416875.921661 can0 080 [0] 
1768416875.921662 can0 185 [8] 00 00 00 00 00 D7 9F C4
1768416875.921663 can0 702 [0] 
1768416875.921663 can0 285 [8] 00 00 00 82 00 D7 9F C4
1768416875.922069 can0 182 [6] 37 06 7B 6F FC FF
1768416875.922070 can0 382 [2] 56 FF
1768416875.922071 can0 282 [4] 4A B9 FF FF
1768416875.922071 can0 385 [8] 00 00 00 00 00 D7 9F C4
1768416875.922348 can0 482 [8] F0 1C 00 00 00 00 02 00
1768416875.922349 can0 485 [8] 00 00 00 00 00 D7 9F C4
1768416875.922349 can0 702 [1] 85
1768416875.931445 can0 502 [6] 0F 00 67 66 FC FF
1768416875.931933 can0 080 [0] 
1768416875.931934 can0 702 [0] 
1768416875.931935 can0 182 [6] 37 06 9A 76 FC FF
1768416875.931935 can0 185 [8] 00 00 00 00 00 DB C0 53
1768416875.931936 can0 382 [2] 2E FF
1768416875.931936 can0 282 [4] E4 B7 FF FF
1768416875.932365 can0 285 [8] 00 00 00 82 00 DB C0 53
1768416875.932365 can0 482 [8] EF 1C 00 00 00 00 02 00
1768416875.932366 can0 385 [8] 00 00 00 00 00 DB C0 53
1768416875.932366 can0 702 [1] 05
1768416875.932600 can0 485 [8] 00 00 00 00 00 DB C0 53
1768416875.941611 can0 502 [6] 0F 00 67 66 FC FF
1768416875.942071 can0 080 [0] 
1768416875.942072 can0 702 [0] 
1768416875.942072 can0 185 [8] 00 00 00 00 00 DF DE 48
1768416875.942073 can0 182 [6] 37 06 0A 70 FC FF
1768416875.942580 can0 285 [8] 00 00 00 82 00 DF DE 48
1768416875.942581 can0 382 [2] 72 FF
1768416875.942581 can0 282 [4] 7A B6 FF FF
1768416875.942582 can0 385 [8] 00 00 00 00 00 DF DE 48
1768416875.942582 can0 702 [1] 85
1768416875.942582 can0 482 [8] EE 1C 00 00 00 00 02 00
1768416875.942798 can0 485 [8] 00 00 00 00 00 DF DE 48
1768416875.952031 can0 502 [6] 0F 00 67 66 FC FF
1768416875.952032 can0 080 [0] 
1768416875.952227 can0 702 [0] 
1768416875.952228 can0 185 [8] 00 00 00 00 00 E3 FD E4
1768416875.952228 can0 182 [6] 37 06 7E 67 FC FF
1768416875.952704 can0 285 [8] 00 00 00 82 00 E3 FD E4
1768416875.952704 can0 382 [2] B8 FF
1768416875.952705 can0 282 [4] 0E B5 FF FF
1768416875.952705 can0 385 [8] 00 00 00 00 00 E3 FD E4
1768416875.952705 can0 482 [8] F0 1C 00 00 00 00 02 00
1768416875.952962 can0 485 [8] 00 00 00 00 00 E3 FD E4
1768416875.952963 can0 702 [1] 05
1768416875.961967 can0 502 [6] 0F 00 67 66 FC FF
1768416875.962423 can0 080 [0] 
1768416875.962424 can0 702 [0] 
1768416875.962424 can0 185 [8] 00 00 00 00 00 E8 1D 9D
1768416875.962425 can0 182 [6] 37 06 BE 71 FC FF
1768416875.962922 can0 285 [8] 00 00 00 82 00 E8 1D 9D
1768416875.962923 can0 382 [2] 87 FF
1768416875.962924 can0 282 [4] A7 B3 FF FF
1768416875.962925 can0 385 [8] 00 00 00 00 00 E8 1D 9D
1768416875.962926 can0 702 [1] 85
1768416875.962927 can0 482 [8] ED 1C 00 00 00 00 02 00
1768416875.963154 can0 485 [8] 00 00 00 00 00 E8 1D 9D
1768416875.972181 can0 502 [6] 0F 00 67 66 FC FF
1768416875.972181 can0 080 [0] 
1768416875.972594 can0 702 [0] 
1768416875.972595 can0 185 [8] 00 00 00 00 00 EC 3B A3
1768416875.972595 can0 182 [6] 37 06 0C 72 FC FF
1768416875.973092 can0 285 [8] 00 00 00 82 00 EC 3B A3
1768416875.973093 can0 382 [2] 1F FF
1768416875.973093 can0 282 [4] 3E B2 FF FF
1768416875.973094 can0 385 [8] 00 00 00 00 00 EC 3B A3
1768416875.973094 can0 702 [1] 05
1768416875.973095 can0 482 [8] EC 1C 00 00 00 00 02 00
1768416875.973317 can0 485 [8] 00 00 00 00 00 EC 3B A3
1768416875.982352 can0 502 [6] 0F 00 67 66 FC FF
1768416875.982353 can0 080 [0] 
1768416875.982768 can0 702 [0] 
1768416875.982769 can0 185 [8] 00 00 00 00 00 F4 7C 63
1768416875.982770 can0 182 [6] 37 06 F4 76 FC FF
1768416875.983246 can0 285 [8] 00 00 00 82 00 F4 7C 63
1768416875.983247 can0 382 [2] 23 FF
1768416875.983248 can0 282 [4] D5 B0 FF FF
1768416875.983248 can0 385 [8] 00 00 00 00 00 F4 7C 63
1768416875.983249 can0 702 [1] 85
1768416875.983491 can0 482 [8] EE 1C 00 00 00 00 02 00
1768416875.983492 can0 485 [8] 00 00 00 00 00 F4 7C 63
1768416875.992507 can0 502 [6] 0F 00 67 66 FC FF
1768416875.992945 can0 080 [0] 
1768416875.992945 can0 185 [8] 00 00 00 00 00 F8 8D C7
1768416875.992946 can0 182 [6] 37 06 08 7E FC FF
1768416875.993418 can0 285 [8] 00 00 00 82 00 F8 8D C7
1768416875.993419 can0 382 [2] C1 FE
1768416875.993419 can0 282 [4] 6D AF FF FF
1768416875.993420 can0 385 [8] 00 00 00 00 00 F8 8D C7
1768416875.993420 can0 482 [8] EF 1C 00 00 00 00 02 00
1768416875.993729 can0 485 [8] 00 00 00 00 00 F8 8D C7
1768416875.993729 can0 702 [0] 
1768416875.993730 can0 702 [1] 05
1768416876.002773 can0 502 [6] 0F 00 67 66 FC FF
1768416876.003221 can0 080 [0] 
1768416876.003222 can0 702 [0] 
1768416876.003223 can0 185 [8] 00 00 00 00 00 FC AC D4
1768416876.003223 can0 182 [6] 37 06 AE 7A FC FF
1768416876.003727 can0 285 [8] 00 00 00 82 00 FC AC D4
1768416876.003729 can0 382 [2] 09 FF
1768416876.003729 can0 282 [4] 04 AE FF FF
1768416876.003730 can0 385 [8] 00 00 00 00 00 FC AC D4
1768416876.003730 can0 702 [1] 85
1768416876.003731 can0 482 [8] EE 1C 00 00 00 00 02 00
1768416876.003955 can0 485 [8] 00 00 00 00 00 FC AC D4
1768416876.012927 can0 502 [6] 0F 00 67 66 FC FF
1768416876.013337 can0 080 [0] 
1768416876.013339 can0 185 [8] 00 00 00 00 00 00 CB D4
1768416876.013339 can0 182 [6] 37 06 A9 77 FC FF
1768416876.013806 can0 285 [8] 00 00 00 82 00 00 CB D4
1768416876.013807 can0 382 [2] 41 FF
1768416876.013808 can0 282 [4] 9B AC FF FF
1768416876.013808 can0 385 [8] 00 00 00 00 00 00 CB D4
1768416876.013809 can0 482 [8] EE 1C 00 00 00 00 02 00
1768416876.014115 can0 485 [8] 00 00 00 00 00 00 CB D4
1768416876.014116 can0 702 [0] 
1768416876.014117 can0 702 [1] 05
1768416876.023103 can0 502 [6] 0F 00 67 66 FC FF
1768416876.023487 can0 080 [0] 
1768416876.023488 can0 185 [8] 00 00 00 00 00 04 EB 23
1768416876.023489 can0 182 [6] 37 06 46 71 FC FF
1768416876.024004 can0 285 [8] 00 00 00 82 00 04 EB 23
1768416876.024005 can0 382 [2] 32 FF
1768416876.024006 can0 282 [4] 32 AB FF FF
1768416876.024007 can0 385 [8] 00 00 00 00 00 04 EB 23
1768416876.024007 can0 482 [8] EE 1C 00 00 00 00 02 00
1768416876.024302 can0 485 [8] 00 00 00 00 00 04 EB 23
1768416876.024302 can0 702 [0] 
1768416876.024303 can0 702 [1] 85
1768416876.033324 can0 502 [6] 0F 00 67 66 FC FF
1768416876.033778 can0 080 [0] 
1768416876.033779 can0 702 [0] 
1768416876.033779 can0 185 [8] 00 00 00 00 00 09 09 FC
1768416876.033780 can0 182 [6] 37 06 12 7E FC FF
1768416876.034280 can0 285 [8] 00 00 00 82 00 09 09 FC
1768416876.034281 can0 382 [2] A6 FE
1768416876.034281 can0 282 [4] C9 A9 FF FF
1768416876.034281 can0 385 [8] 00 00 00 00 00 09 09 FC
1768416876.034282 can0 702 [1] 05
1768416876.034282 can0 482 [8] F2 1C 00 00 08 00 02 00
1768416876.034584 can0 485 [8] 00 00 00 00 00 09 09 FC
1768416876.043594 can0 502 [6] 0F 00 67 66 FC FF
1768416876.043595 can0 080 [0] 
1768416876.044040 can0 185 [8] 00 00 00 00 00 0D 29 2D
1768416876.044041 can0 182 [6] 37 06 67 77 FC FF
1768416876.044041 can0 285 [8] 00 00 00 82 00 0D 29 2D
1768416876.044042 can0 382 [2] 15 FF
1768416876.044495 can0 282 [4] 60 A8 FF FF
1768416876.044495 can0 385 [8] 00 00 00 00 00 0D 29 2D
1768416876.044495 can0 482 [8] EE 1C 00 00 00 00 02 00
1768416876.044496 can0 485 [8] 00 00 00 00 00 0D 29 2D
1768416876.044496 can0 702 [0] 
1768416876.044765 can0 702 [1] 85
1768416876.053672 can0 502 [6] 0F 00 67 66 FC FF
1768416876.054105 can0 080 [0] 
1768416876.054105 can0 185 [8] 00 00 00 00 00 11 48 70
1768416876.054106 can0 182 [6] 37 06 55 6C FC FF
1768416876.054579 can0 285 [8] 00 00 00 82 00 11 48 70
1768416876.054580 can0 382 [2] 7F FF
1768416876.054580 can0 282 [4] F6 A6 FF FF
1768416876.054580 can0 385 [8] 00 00 00 00 00 11 48 70
1768416876.054581 can0 482 [8] EF 1C 00 00 00 00 02 00
1768416876.054898 can0 485 [8] 00 00 00 00 00 11 48 70
1768416876.054899 can0 702 [0] 
1768416876.054899 can0 702 [1] 05
1768416876.063909 can0 502 [6] 0F 00 67 66 FC FF
1768416876.063910 can0 080 [0] 
1768416876.064287 can0 702 [0] 
1768416876.064288 can0 185 [8] 00 00 00 00 00 15 67 5D
1768416876.064289 can0 285 [8] 00 00 00 82 00 15 67 5D
1768416876.064701 can0 182 [6] 37 06 0D 71 FC FF
1768416876.064702 can0 382 [2] 7B FF
1768416876.064703 can0 282 [4] 88 A5 FF FF
1768416876.064703 can0 385 [8] 00 00 00 00 00 15 67 5D
1768416876.064975 can0 482 [8] ED 1C 00 00 00 00 02 00
1768416876.064976 can0 485 [8] 00 00 00 00 00 15 67 5D
1768416876.064976 can0 702 [1] 85
1768416876.074107 can0 502 [6] 0F 00 67 66 FC FF
1768416876.074108 can0 080 [0] 
1768416876.074586 can0 702 [0] 
1768416876.074587 can0 185 [8] 00 00 00 00 00 19 86 7F
1768416876.074588 can0 182 [6] 37 06 E9 73 FC FF
1768416876.075011 can0 285 [8] 00 00 00 82 00 19 86 7F
1768416876.075011 can0 382 [2] 45 FF
1768416876.075012 can0 282 [4] 21 A4 FF FF
1768416876.075012 can0 385 [8] 00 00 00 00 00 19 86 7F
1768416876.075013 can0 482 [8] F2 1C 00 00 00 00 02 00
1768416876.075266 can0 485 [8] 00 00 00 00 00 19 86 7F
1768416876.075267 can0 702 [1] 05
1768416876.084286 can0 502 [6] 0F 00 67 66 FC FF
1768416876.084287 can0 080 [0] 
1768416876.084697 can0 702 [0] 
1768416876.084698 can0 185 [8] 00 00 00 00 00 1D A5 8F
1768416876.084698 can0 182 [6] 37 06 42 78 FC FF
1768416876.085172 can0 285 [8] 00 00 00 82 00 1D A5 8F
1768416876.085173 can0 382 [2] 3F FF
1768416876.085173 can0 282 [4] B8 A2 FF FF
1768416876.085174 can0 385 [8] 00 00 00 00 00 1D A5 8F
1768416876.085174 can0 482 [8] F2 1C 00 00 00 00 02 00
1768416876.085423 can0 485 [8] 00 00 00 00 00 1D A5 8F
1768416876.085423 can0 702 [1] 85
1768416876.094593 can0 502 [6] 0F 00 67 66 FC FF
1768416876.094594 can0 080 [0] 
1768416876.095120 can0 702 [0] 
1768416876.095121 can0 185 [8] 00 00 00 00 00 21 C4 68
1768416876.095121 can0 182 [6] 37 06 26 72 FC FF
1768416876.095122 can0 285 [8] 00 00 00 82 00 21 C4 68
1768416876.095122 can0 382 [2] 37 FF
1768416876.095123 can0 282 [4] 52 A1 FF FF
1768416876.095445 can0 385 [8] 00 00 00 00 00 21 C4 68
1768416876.095445 can0 702 [1] 05
1768416876.095446 can0 482 [8] F0 1C 00 00 00 00 02 00
1768416876.095446 can0 485 [8] 00 00 00 00 00 21 C4 68
1768416876.104692 can0 502 [6] 0F 00 67 66 FC FF
1768416876.104693 can0 080 [0] 
1768416876.105200 can0 702 [0] 
1768416876.105201 can0 185 [8] 00 00 00 00 00 25 E3 69
1768416876.105202 can0 285 [8] 00 00 00 82 00 25 E3 69
1768416876.105203 can0 182 [6] 37 06 51 77 FC FF
1768416876.105203 can0 382 [2] 3F FF
1768416876.105627 can0 282 [4] E3 9F FF FF
1768416876.105627 can0 385 [8] 00 00 00 00 00 25 E3 69
1768416876.105627 can0 482 [8] ED 1C 00 00 00 00 02 00
1768416876.105628 can0 485 [8] 00 00 00 00 00 25 E3 69
1768416876.105628 can0 702 [1] 85
1768416876.114788 can0 502 [6] 0F 00 67 66 FC FF
1768416876.115250 can0 080 [0] 
1768416876.115251 can0 702 [0] 
1768416876.115251 can0 182 [6] 37 06 3F 78 FC FF
1768416876.115252 can0 185 [8] 00 00 00 00 00 2A 02 B5
1768416876.115252 can0 382 [2] 1E FF
1768416876.115724 can0 282 [4] 84 9E FF FF
1768416876.115725 can0 285 [8] 00 00 00 82 00 2A 02 B5
1768416876.115725 can0 482 [8] EE 1C 00 00 00 00 02 00
1768416876.115726 can0 385 [8] 00 00 00 00 00 2A 02 B5
1768416876.115726 can0 702 [1] 05
1768416876.115952 can0 485 [8] 00 00 00 00 00 2A 02 B5
1768416876.125026 can0 502 [6] 0F 00 67 66 FC FF
1768416876.125408 can0 080 [0] 
1768416876.125409 can0 185 [8] 00 00 00 00 00 2E 21 BC
1768416876.125409 can0 182 [6] 37 06 11 78 FC FF
1768416876.125781 can0 285 [8] 00 00 00 82 00 2E 21 BC
1768416876.125781 can0 382 [2] 3B FF
1768416876.125782 can0 282 [4] 15 9D FF FF
1768416876.125782 can0 385 [8] 00 00 00 00 00 2E 21 BC
1768416876.126124 can0 482 [8] EB 1C 00 00 00 00 02 00
1768416876.126125 can0 485 [8] 00 00 00 00 00 2E 21 BC
1768416876.126126 can0 702 [0] 
1768416876.126354 can0 702 [1] 85
1768416876.135220 can0 502 [6] 0F 00 67 66 FC FF
1768416876.135607 can0 080 [0] 
1768416876.135608 can0 185 [8] 00 00 00 00 00 32 40 FB
1768416876.135608 can0 182 [6] 37 06 02 70 FC FF
1768416876.135985 can0 285 [8] 00 00 00 82 00 32 40 FB
1768416876.135986 can0 382 [2] 7D FF
1768416876.135986 can0 282 [4] AF 9B FF FF
1768416876.135987 can0 385 [8] 00 00 00 00 00 32 40 FB
1768416876.136347 can0 482 [8] F1 1C 00 00 00 00 02 00
1768416876.136348 can0 485 [8] 00 00 00 00 00 32 40 FB
1768416876.136348 can0 702 [0] 
1768416876.136349 can0 702 [1] 05
1768416876.145586 can0 502 [6] 0F 00 67 66 FC FF
1768416876.145587 can0 080 [0] 
1768416876.145587 can0 702 [0] 
1768416876.146044 can0 185 [8] 00 00 00 00 00 36 60 09
1768416876.146044 can0 182 [6] 37 06 8B 74 FC FF
1768416876.146045 can0 285 [8] 00 00 00 82 00 36 60 09
1768416876.146045 can0 382 [2] EF FE
1768416876.146045 can0 282 [4] 45 9A FF FF
1768416876.146420 can0 385 [8] 00 00 00 00 00 36 60 09
1768416876.146421 can0 482 [8] EF 1C 00 00 00 00 02 00
1768416876.146421 can0 485 [8] 00 00 00 00 00 36 60 09
1768416876.146421 can0 702 [1] 85
1768416876.155603 can0 502 [6] 0F 00 67 66 FC FF
1768416876.156062 can0 080 [0] 
1768416876.156063 can0 702 [0] 
1768416876.156063 can0 185 [8] 00 00 00 00 00 3A 7E B9
1768416876.156064 can0 182 [6] 37 06 77 77 FC FF
1768416876.156583 can0 285 [8] 00 00 00 82 00 3A 7E B9
1768416876.156583 can0 382 [2] 4B FF
1768416876.156583 can0 282 [4] DC 98 FF FF
1768416876.156584 can0 385 [8] 00 00 00 00 00 3A 7E B9
1768416876.156584 can0 482 [8] ED 1C 00 00 00 00 02 00
1768416876.156830 can0 485 [8] 00 00 00 00 00 3A 7E B9
1768416876.156830 can0 702 [1] 05
1768416876.165777 can0 502 [6] 0F 00 67 66 FC FF
1768416876.166250 can0 080 [0] 
1768416876.166251 can0 702 [0] 
1768416876.166251 can0 182 [6] 37 06 53 77 FC FF
1768416876.166252 can0 185 [8] 00 00 00 00 00 3E 9E 27
1768416876.166252 can0 382 [2] 03 FF
1768416876.166724 can0 282 [4] 75 97 FF FF
1768416876.166724 can0 285 [8] 00 00 00 82 00 3E 9E 27
1768416876.166725 can0 482 [8] EB 1C 00 00 00 00 02 00
1768416876.166725 can0 385 [8] 00 00 00 00 00 3E 9E 27
1768416876.166726 can0 702 [1] 85
1768416876.166954 can0 485 [8] 00 00 00 00 00 3E 9E 27
1768416876.175996 can0 502 [6] 0F 00 67 66 FC FF
1768416876.176454 can0 080 [0] 
1768416876.176455 can0 702 [0] 
1768416876.176455 can0 185 [8] 00 00 00 00 00 42 BD 08
1768416876.176456 can0 182 [6] 37 06 CC 6C FC FF
1768416876.176927 can0 285 [8] 00 00 00 82 00 42 BD 08
1768416876.176928 can0 382 [2] 98 FF
1768416876.176929 can0 282 [4] 06 96 FF FF
1768416876.176929 can0 385 [8] 00 00 00 00 00 42 BD 08
1768416876.176930 can0 482 [8] F2 1C 00 00 00 00 02 00
1768416876.177152 can0 485 [8] 00 00 00 00 00 42 BD 08
1768416876.177153 can0 702 [1] 05
1768416876.186188 can0 502 [6] 0F 00 67 66 FC FF
1768416876.186635 can0 080 [0] 
1768416876.186636 can0 702 [0] 
1768416876.186637 can0 182 [6] 37 06 A3 71 FC FF
1768416876.186638 can0 185 [8] 00 00 00 00 00 46 DC 70
1768416876.186638 can0 382 [2] 90 FF
1768416876.187091 can0 282 [4] 9F 94 FF FF
1768416876.187092 can0 285 [8] 00 00 00 82 00 46 DC 70
1768416876.187092 can0 482 [8] F1 1C 00 00 00 00 02 00
1768416876.187093 can0 385 [8] 00 00 00 00 00 46 DC 70
1768416876.187093 can0 702 [1] 85
1768416876.187323 can0 485 [8] 00 00 00 00 00 46 DC 70
1768416876.196384 can0 502 [6] 0F 00 67 66 FC FF
1768416876.196843 can0 080 [0] 
1768416876.196844 can0 702 [0] 
1768416876.196845 can0 185 [8] 00 00 00 00 00 4A FB 46
1768416876.196845 can0 182 [6] 37 06 64 7B FC FF
1768416876.197289 can0 285 [8] 00 00 00 82 00 4A FB 46
1768416876.197289 can0 382 [2] F1 FE
1768416876.197289 can0 282 [4] 36 93 FF FF
1768416876.197290 can0 385 [8] 00 00 00 00 00 4A FB 46
1768416876.197290 can0 482 [8] EF 1C 00 00 00 00 02 00
1768416876.197582 can0 485 [8] 00 00 00 00 00 4A FB 46
1768416876.197583 can0 702 [1] 05
1768416876.206588 can0 502 [6] 0F 00 67 66 FC FF
1768416876.207063 can0 080 [0] 
1768416876.207064 can0 702 [0] 
1768416876.207065 can0 185 [8] 00 00 00 00 00 4F 1A 47
1768416876.207066 can0 182 [6] 37 06 00 7B FC FF
1768416876.207067 can0 285 [8] 00 00 00 82 00 4F 1A 47
1768416876.207490 can0 382 [2] FD FE
1768416876.207491 can0 282 [4] CD 91 FF FF
1768416876.207491 can0 385 [8] 00 00 00 00 00 4F 1A 47
1768416876.207492 can0 702 [1] 85
1768416876.207493 can0 482 [8] ED 1C 00 00 00 00 02 00
1768416876.207761 can0 485 [8] 00 00 00 00 00 4F 1A 47
1768416876.216738 can0 502 [6] 0F 00 67 66 FC FF
1768416876.217205 can0 080 [0] 
1768416876.217206 can0 702 [0] 
1768416876.217206 can0 182 [6] 37 06 FD 78 FC FF
1768416876.217207 can0 185 [8] 00 00 00 00 00 53 39 7E
1768416876.217207 can0 382 [2] 00 FF
1768416876.217681 can0 282 [4] 64 90 FF FF
1768416876.217681 can0 285 [8] 00 00 00 82 00 53 39 7E
1768416876.217682 can0 482 [8] EA 1C 00 00 00 00 02 00
1768416876.217682 can0 385 [8] 00 00 00 00 00 53 39 7E
1768416876.217683 can0 702 [1] 05
1768416876.217909 can0 485 [8] 00 00 00 00 00 53 39 7E
1768416876.226942 can0 502 [6] 0F 00 67 66 FC FF
1768416876.226943 can0 080 [0] 
1768416876.227368 can0 702 [0] 
1768416876.227369 can0 185 [8] 00 00 00 00 00 57 58 5C
1768416876.227369 can0 182 [6] 37 06 C1 76 FC FF
1768416876.227866 can0 285 [8] 00 00 00 82 00 57 58 5C
1768416876.227867 can0 382 [2] 21 FF
1768416876.227870 can0 282 [4] FB 8E FF FF
1768416876.227876 can0 385 [8] 00 00 00 00 00 57 58 5C
1768416876.227880 can0 702 [1] 85
1768416876.227883 can0 482 [8] EE 1C 00 00 00 00 02 00
1768416876.228096 can0 485 [8] 00 00 00 00 00 57 58 5C
1768416876.237117 can0 502 [6] 0F 00 67 66 FC FF
1768416876.237581 can0 080 [0] 
1768416876.237581 can0 702 [0] 
1768416876.237582 can0 185 [8] 00 00 00 00 00 5B 77 9C
1768416876.237582 can0 182 [6] 37 06 93 6D FC FF
1768416876.238049 can0 285 [8] 00 00 00 82 00 5B 77 9C
1768416876.238049 can0 382 [2] 79 FF
1768416876.238049 can0 282 [4] 92 8D FF FF
1768416876.238049 can0 385 [8] 00 00 00 00 00 5B 77 9C
1768416876.238050 can0 482 [8] EE 1C 00 00 00 00 02 00
1768416876.238303 can0 485 [8] 00 00 00 00 00 5B 77 9C
1768416876.238303 can0 702 [1] 05
1768416876.247282 can0 502 [6] 0F 00 67 66 FC FF
1768416876.247670 can0 080 [0] 
1768416876.247671 can0 185 [8] 00 00 00 00 00 5F 96 A4
1768416876.247672 can0 182 [6] 37 06 D6 74 FC FF
1768416876.248081 can0 285 [8] 00 00 00 82 00 5F 96 A4
1768416876.248081 can0 382 [2] 34 FF
1768416876.248082 can0 282 [4] 29 8C FF FF
1768416876.248082 can0 385 [8] 00 00 00 00 00 5F 96 A4
1768416876.248403 can0 482 [8] EB 1C 00 00 00 00 02 00
1768416876.248403 can0 485 [8] 00 00 00 00 00 5F 96 A4
1768416876.248404 can0 702 [0] 
1768416876.248404 can0 702 [1] 85
1768416876.257591 can0 502 [6] 0F 00 67 66 FC FF
1768416876.257592 can0 080 [0] 
1768416876.258078 can0 702 [0] 
1768416876.258078 can0 182 [6] 37 06 3E 6B FC FF
1768416876.258079 can0 185 [8] 00 00 00 00 00 63 B5 A1
1768416876.258079 can0 382 [2] 9E FF
1768416876.258080 can0 282 [4] C2 8A FF FF
1768416876.258581 can0 285 [8] 00 00 00 82 00 63 B5 A1
1768416876.258581 can0 482 [8] F0 1C 00 00 00 00 02 00
1768416876.258581 can0 385 [8] 00 00 00 00 00 63 B5 A1
1768416876.258581 can0 702 [1] 05
1768416876.258582 can0 485 [8] 00 00 00 00 00 63 B5 A1
1768416876.267677 can0 502 [6] 0F 00 67 66 FC FF
1768416876.268090 can0 080 [0] 
1768416876.268091 can0 185 [8] 00 00 00 00 00 67 CA 55
1768416876.268092 can0 182 [6] 37 06 21 77 FC FF
1768416876.268577 can0 285 [8] 00 00 00 82 00 67 CA 55
1768416876.268578 can0 382 [2] 17 FF
1768416876.268578 can0 282 [4] 55 89 FF FF
1768416876.268579 can0 385 [8] 00 00 00 00 00 67 CA 55
1768416876.268579 can0 482 [8] F0 1C 00 00 00 00 02 00
1768416876.268859 can0 485 [8] 00 00 00 00 00 67 CA 55
1768416876.268860 can0 702 [0] 
1768416876.268860 can0 702 [1] 85
1768416876.277884 can0 502 [6] 0F 00 67 66 FC FF
1768416876.278337 can0 080 [0] 
1768416876.278338 can0 702 [0] 
1768416876.278339 can0 185 [8] 00 00 00 00 00 6B E9 47
1768416876.278339 can0 182 [6] 37 06 AA 71 FC FF
1768416876.278837 can0 285 [8] 00 00 00 82 00 6B E9 47
1768416876.278837 can0 382 [2] 93 FF
1768416876.278838 can0 282 [4] EB 87 FF FF
1768416876.278838 can0 385 [8] 00 00 00 00 00 6B E9 47
1768416876.278839 can0 702 [1] 05
1768416876.278839 can0 482 [8] EE 1C 00 00 00 00 02 00
1768416876.279065 can0 485 [8] 00 00 00 00 00 6B E9 47
1768416876.288085 can0 502 [6] 0F 00 67 66 FC FF
1768416876.288584 can0 080 [0] 
1768416876.288585 can0 702 [0] 
1768416876.288585 can0 185 [8] 00 00 00 00 00 70 08 30
1768416876.288586 can0 182 [6] 37 06 34 71 FC FF
1768416876.289038 can0 285 [8] 00 00 00 82 00 70 08 30
1768416876.289038 can0 382 [2] 84 FF
1768416876.289039 can0 282 [4] 84 86 FF FF
1768416876.289039 can0 385 [8] 00 00 00 00 00 70 08 30
1768416876.289040 can0 702 [1] 85
1768416876.289040 can0 482 [8] F0 1C 00 00 00 00 02 00
1768416876.289265 can0 485 [8] 00 00 00 00 00 70 08 30
1768416876.298359 can0 502 [6] 0F 00 67 66 FC FF
1768416876.298360 can0 080 [0] 
1768416876.298887 can0 702 [0] 
1768416876.298887 can0 185 [8] 00 00 00 00 00 74 27 98
1768416876.298888 can0 182 [6] 37 06 76 75 FC FF
1768416876.298888 can0 285 [8] 00 00 00 82 00 74 27 98
1768416876.298888 can0 382 [2] 45 FF
1768416876.298889 can0 282 [4] 15 85 FF FF
1768416876.299278 can0 385 [8] 00 00 00 00 00 74 27 98
1768416876.299279 can0 482 [8] EC 1C 00 00 00 00 02 00
1768416876.299279 can0 485 [8] 00 00 00 00 00 74 27 98
1768416876.299279 can0 702 [1] 05
1768416876.308512 can0 502 [6] 0F 00 67 66 FC FF
1768416876.309038 can0 080 [0] 
1768416876.309038 can0 702 [0] 
1768416876.309039 can0 182 [6] 37 06 E4 7B FC FF
1768416876.309040 can0 185 [8] 00 00 00 00 00 78 46 7A
1768416876.309040 can0 382 [2] EB FE
1768416876.309041 can0 282 [4] AB 83 FF FF
1768416876.309447 can0 285 [8] 00 00 00 82 00 78 46 7A
1768416876.309448 can0 482 [8] F1 1C 00 00 00 00 02 00
1768416876.309448 can0 385 [8] 00 00 00 00 00 78 46 7A
1768416876.309448 can0 702 [1] 85
1768416876.309680 can0 485 [8] 00 00 00 00 00 78 46 7A
1768416876.318730 can0 502 [6] 0F 00 67 66 FC FF
1768416876.318730 can0 080 [0] 
1768416876.319144 can0 702 [0] 
1768416876.319144 can0 185 [8] 00 00 00 00 00 7C 65 9D
1768416876.319144 can0 182 [6] 37 06 EF 79 FC FF
1768416876.319618 can0 285 [8] 00 00 00 82 00 7C 65 9D
1768416876.319619 can0 382 [2] 1C FF
1768416876.319619 can0 282 [4] 43 82 FF FF
1768416876.319619 can0 385 [8] 00 00 00 00 00 7C 65 9D
1768416876.319620 can0 482 [8] EC 1C 00 00 00 00 02 00
1768416876.319867 can0 485 [8] 00 00 00 00 00 7C 65 9D
1768416876.319867 can0 702 [1] 05
1768416876.328965 can0 502 [6] 0F 00 67 66 FC FF
1768416876.328966 can0 080 [0] 
1768416876.329462 can0 702 [0] 
1768416876.329463 can0 182 [6] 37 06 BE 7B FC FF
1768416876.329463 can0 185 [8] 00 00 00 00 00 80 84 B6
1768416876.329464 can0 382 [2] C8 FE
1768416876.329464 can0 282 [4] DE 80 FF FF
1768416876.329923 can0 285 [8] 00 00 00 82 00 80 84 B6
1768416876.329924 can0 482 [8] E9 1C 00 00 00 00 02 00
1768416876.329925 can0 385 [8] 00 00 00 00 00 80 84 B6
1768416876.329925 can0 702 [1] 85
1768416876.329926 can0 485 [8] 00 00 00 00 00 80 84 B6
1768416876.339097 can0 502 [6] 0F 00 67 66 FC FF
1768416876.339584 can0 080 [0] 
1768416876.339585 can0 702 [0] 
1768416876.339585 can0 185 [8] 00 00 00 00 00 84 A3 AD
1768416876.339586 can0 182 [6] 37 06 77 77 FC FF
1768416876.340070 can0 285 [8] 00 00 00 82 00 84 A3 AD
1768416876.340071 can0 382 [2] 0C FF
1768416876.340071 can0 282 [4] 71 7F FF FF
1768416876.340071 can0 385 [8] 00 00 00 00 00 84 A3 AD
1768416876.340072 can0 702 [1] 05
1768416876.340072 can0 482 [8] EC 1C 00 00 00 00 02 00
1768416876.340296 can0 485 [8] 00 00 00 00 00 84 A3 AD
1768416876.349303 can0 502 [6] 0F 00 67 66 FC FF
1768416876.349795 can0 080 [0] 
1768416876.349795 can0 702 [0] 
1768416876.349796 can0 182 [6] 37 06 A1 78 FC FF
1768416876.349796 can0 185 [8] 00 00 00 00 00 88 C2 BE
1768416876.349797 can0 382 [2] 2A FF
1768416876.349797 can0 282 [4] 0C 7E FF FF
1768416876.350220 can0 285 [8] 00 00 00 82 00 88 C2 BE
1768416876.350222 can0 482 [8] F3 1C 00 00 00 00 02 00
1768416876.350223 can0 385 [8] 00 00 00 00 00 88 C2 BE
1768416876.350224 can0 702 [1] 85
1768416876.350460 can0 485 [8] 00 00 00 00 00 88 C2 BE
1768416876.359489 can0 502 [6] 0F 00 67 66 FC FF
1768416876.360059 can0 080 [0] 
1768416876.360059 can0 702 [0] 
1768416876.360060 can0 185 [8] 00 00 00 00 00 8C E1 C0
1768416876.360060 can0 182 [6] 37 06 7B 71 FC FF
1768416876.360060 can0 285 [8] 00 00 00 82 00 8C E1 C0
1768416876.360061 can0 382 [2] 7E FF
1768416876.360433 can0 282 [4] 9F 7C FF FF
1768416876.360434 can0 385 [8] 00 00 00 00 00 8C E1 C0
1768416876.360435 can0 702 [1] 05
1768416876.360435 can0 482 [8] EC 1C 00 00 00 00 02 00
1768416876.360663 can0 485 [8] 00 00 00 00 00 8C E1 C0
1768416876.369656 can0 502 [6] 0F 00 67 66 FC FF
1768416876.370076 can0 080 [0] 
1768416876.370076 can0 185 [8] 00 00 00 00 00 91 01 3E
1768416876.370077 can0 182 [6] 37 06 22 73 FC FF
1768416876.370582 can0 285 [8] 00 00 00 82 00 91 01 3E
1768416876.370582 can0 382 [2] 54 FF
1768416876.370583 can0 282 [4] 38 7B FF FF
1768416876.370583 can0 385 [8] 00 00 00 00 00 91 01 3E
1768416876.370583 can0 482 [8] F1 1C 00 00 00 00 02 00
1768416876.370852 can0 485 [8] 00 00 00 00 00 91 01 3E
1768416876.370853 can0 702 [0] 
1768416876.370853 can0 702 [1] 85
1768416876.379812 can0 502 [6] 0F 00 67 66 FC FF
1768416876.380290 can0 080 [0] 
1768416876.380291 can0 185 [8] 00 00 00 00 00 95 20 6C
1768416876.380292 can0 702 [0] 
1768416876.380293 can0 285 [8] 00 00 00 82 00 95 20 6C
1768416876.380749 can0 182 [6] 37 06 E1 71 FC FF
1768416876.380750 can0 382 [2] 64 FF
1768416876.380750 can0 282 [4] CB 79 FF FF
1768416876.380751 can0 385 [8] 00 00 00 00 00 95 20 6C
1768416876.380751 can0 482 [8] EE 1C 00 00 00 00 02 00
1768416876.381007 can0 485 [8] 00 00 00 00 00 95 20 6C
1768416876.381007 can0 702 [1] 05
1768416876.390610 can0 502 [6] 0F 00 67 66 FC FF
1768416876.391053 can0 080 [0] 
1768416876.391053 can0 702 [0] 
1768416876.391054 can0 185 [8] 00 00 00 00 00 99 3F C8
1768416876.391055 can0 285 [8] 00 00 00 82 00 99 3F C8
1768416876.391584 can0 182 [6] 37 06 8C 72 FC FF
1768416876.391584 can0 382 [2] 6D FF
1768416876.391585 can0 282 [4] 4C 78 FF FF
1768416876.391585 can0 385 [8] 00 00 00 00 00 99 3F C8
1768416876.391585 can0 482 [8] F1 1C 00 00 00 00 02 00
1768416876.391825 can0 485 [8] 00 00 00 00 00 99 3F C8
1768416876.391826 can0 702 [1] 85
1768416876.400955 can0 502 [6] 0F 00 67 66 FC FF
1768416876.400955 can0 080 [0] 
1768416876.401487 can0 702 [0] 
1768416876.401488 can0 185 [8] 00 00 00 00 00 9D 5E 6D
1768416876.401488 can0 182 [6] 37 06 75 70 FC FF
1768416876.401489 can0 285 [8] 00 00 00 82 00 9D 5E 6D
1768416876.401489 can0 382 [2] 75 FF
1768416876.401490 can0 282 [4] E1 76 FF FF
1768416876.401905 can0 385 [8] 00 00 00 00 00 9D 5E 6D
1768416876.401906 can0 482 [8] ED 1C 00 00 00 00 02 00
1768416876.401907 can0 485 [8] 00 00 00 00 00 9D 5E 6D
1768416876.401908 can0 702 [1] 05
1768416876.411138 can0 502 [6] 0F 00 67 66 FC FF
1768416876.411139 can0 080 [0] 
1768416876.411589 can0 185 [8] 00 00 00 00 00 A1 7D 83
1768416876.411590 can0 182 [6] 37 06 95 69 FC FF
1768416876.412058 can0 285 [8] 00 00 00 82 00 A1 7D 83
1768416876.412059 can0 382 [2] 5B FF
1768416876.412059 can0 282 [4] 76 75 FF FF
1768416876.412060 can0 385 [8] 00 00 00 00 00 A1 7D 83
1768416876.412060 can0 482 [8] F0 1C 00 00 00 00 02 00
1768416876.412278 can0 485 [8] 00 00 00 00 00 A1 7D 83
1768416876.412278 can0 702 [0] 
1768416876.412279 can0 702 [1] 85
1768416876.421366 can0 502 [6] 0F 00 67 66 FC FF
1768416876.421812 can0 080 [0] 
1768416876.421814 can0 702 [0] 
1768416876.421815 can0 182 [6] 37 06 33 7E FC FF
1768416876.421817 can0 185 [8] 00 00 00 00 00 A5 9C C7
1768416876.421818 can0 382 [2] 77 FF
1768416876.422287 can0 282 [4] 0C 74 FF FF
1768416876.422289 can0 285 [8] 00 00 00 82 00 A5 9C C7
1768416876.422291 can0 482 [8] E9 1C 00 00 00 00 02 00
1768416876.422292 can0 385 [8] 00 00 00 00 00 A5 9C C7
1768416876.422294 can0 702 [1] 05
1768416876.422593 can0 485 [8] 00 00 00 00 00 A5 9C C7
1768416876.431646 can0 502 [6] 0F 00 67 66 FC FF
1768416876.431648 can0 080 [0] 
1768416876.432200 can0 702 [0] 
1768416876.432202 can0 185 [8] 00 00 00 00 00 A9 BD AB
1768416876.432203 can0 182 [6] 37 06 13 78 FC FF
1768416876.432205 can0 285 [8] 00 00 00 82 00 A9 BD AB
1768416876.432206 can0 382 [2] 2B FF
1768416876.432207 can0 282 [4] A4 72 FF FF
1768416876.432591 can0 385 [8] 00 00 00 00 00 A9 BD AB
1768416876.432593 can0 702 [1] 85
1768416876.432594 can0 482 [8] EC 1C 00 00 00 00 02 00
1768416876.432596 can0 485 [8] 00 00 00 00 00 A9 BD AB
1768416876.441765 can0 502 [6] 0F 00 67 66 FC FF
1768416876.442141 can0 080 [0] 
1768416876.442143 can0 185 [8] 00 00 00 00 00 AD DB 7A
1768416876.442145 can0 182 [6] 37 06 0C 77 FC FF
1768416876.442588 can0 285 [8] 00 00 00 82 00 AD DB 7A
1768416876.442590 can0 382 [2] 58 FF
1768416876.442592 can0 282 [4] 3B 71 FF FF
1768416876.442594 can0 385 [8] 00 00 00 00 00 AD DB 7A
1768416876.442924 can0 482 [8] EF 1C 00 00 00 00 02 00
1768416876.442926 can0 485 [8] 00 00 00 00 00 AD DB 7A
1768416876.442928 can0 702 [0] 
1768416876.443127 can0 702 [1] 05
1768416876.452106 can0 502 [6] 0F 00 67 66 FC FF
1768416876.452586 can0 080 [0] 
1768416876.452587 can0 702 [0] 
1768416876.452587 can0 185 [8] 00 00 00 00 00 B1 FA 05
1768416876.452588 can0 182 [6] 37 06 39 6F FC FF
1768416876.453079 can0 285 [8] 00 00 00 82 00 B1 FA 05
1768416876.453079 can0 382 [2] 5D FF
1768416876.453080 can0 282 [4] CB 6F FF FF
1768416876.453081 can0 385 [8] 00 00 00 00 00 B1 FA 05
1768416876.453081 can0 702 [1] 85
1768416876.453082 can0 482 [8] ED 1C 00 00 00 00 02 00
1768416876.453304 can0 485 [8] 00 00 00 00 00 B1 FA 05
1768416876.462337 can0 502 [6] 0F 00 67 66 FC FF
1768416876.462803 can0 080 [0] 
1768416876.462804 can0 702 [0] 
1768416876.462805 can0 182 [6] 37 06 4F 74 FC FF
1768416876.462805 can0 382 [2] 3B FF
1768416876.462806 can0 185 [8] 00 00 00 00 00 BA 37 DC
1768416876.463278 can0 282 [4] 62 6E FF FF
1768416876.463278 can0 285 [8] 00 00 00 82 00 BA 37 DC
1768416876.463279 can0 482 [8] EB 1C 00 00 00 00 02 00
1768416876.463279 can0 385 [8] 00 00 00 00 00 BA 37 DC
1768416876.463279 can0 702 [1] 05
1768416876.463502 can0 485 [8] 00 00 00 00 00 BA 37 DC
1768416876.472601 can0 502 [6] 0F 00 67 66 FC FF
1768416876.472603 can0 080 [0] 
1768416876.473010 can0 702 [0] 
1768416876.473012 can0 185 [8] 00 00 00 00 00 BE 56 D9
1768416876.473012 can0 182 [6] 37 06 18 78 FC FF
1768416876.473487 can0 285 [8] 00 00 00 82 00 BE 56 D9
1768416876.473488 can0 382 [2] 0E FF
1768416876.473488 can0 282 [4] F5 6C FF FF
1768416876.473489 can0 385 [8] 00 00 00 00 00 BE 56 D9
1768416876.473489 can0 482 [8] EF 1C 00 00 00 00 02 00
1768416876.473780 can0 485 [8] 00 00 00 00 00 BE 56 D9
1768416876.473781 can0 702 [1] 85
1768416876.482793 can0 502 [6] 0F 00 67 66 FC FF
1768416876.483198 can0 080 [0] 
1768416876.483200 can0 185 [8] 00 00 00 00 00 C2 76 0E
1768416876.483200 can0 702 [0] 
1768416876.483653 can0 285 [8] 00 00 00 82 00 C2 76 0E
1768416876.483654 can0 182 [6] 37 06 81 76 FC FF
1768416876.483654 can0 382 [2] 37 FF
1768416876.483654 can0 282 [4] 85 6B FF FF
1768416876.483655 can0 385 [8] 00 00 00 00 00 C2 76 0E
1768416876.483931 can0 482 [8] EF 1C 00 00 00 00 02 00
1768416876.483932 can0 485 [8] 00 00 00 00 00 C2 76 0E
1768416876.483932 can0 702 [1] 05
1768416876.493063 can0 502 [6] 0F 00 67 66 FC FF
1768416876.493589 can0 080 [0] 
1768416876.493590 can0 702 [0] 
1768416876.493591 can0 185 [8] 00 00 00 00 00 C6 95 1C
1768416876.493591 can0 182 [6] 37 06 59 76 FC FF
1768416876.494036 can0 285 [8] 00 00 00 82 00 C6 95 1C
1768416876.494037 can0 382 [2] 34 FF
1768416876.494037 can0 282 [4] 24 6A FF FF
1768416876.494038 can0 385 [8] 00 00 00 00 00 C6 95 1C
1768416876.494038 can0 702 [1] 85
1768416876.494039 can0 482 [8] EC 1C 00 00 00 00 02 00
1768416876.494257 can0 485 [8] 00 00 00 00 00 C6 95 1C
1768416876.503316 can0 502 [6] 0F 00 67 66 FC FF
1768416876.503318 can0 080 [0] 
1768416876.503671 can0 702 [0] 
1768416876.503672 can0 185 [8] 00 00 00 00 00 CA B4 39
1768416876.503673 can0 285 [8] 00 00 00 82 00 CA B4 39
1768416876.504084 can0 182 [6] 37 06 45 6D FC FF
1768416876.504084 can0 382 [2] 8F FF
1768416876.504085 can0 282 [4] B3 68 FF FF
1768416876.504085 can0 385 [8] 00 00 00 00 00 CA B4 39
1768416876.504358 can0 482 [8] EB 1C 00 00 00 00 02 00
1768416876.504359 can0 485 [8] 00 00 00 00 00 CA B4 39
1768416876.504359 can0 702 [1] 05
1768416876.513492 can0 502 [6] 0F 00 67 66 FC FF
1768416876.514058 can0 080 [0] 
1768416876.514059 can0 702 [0] 
1768416876.514059 can0 185 [8] 00 00 00 00 00 CE D3 30
1768416876.514060 can0 182 [6] 37 06 17 74 FC FF
1768416876.514060 can0 285 [8] 00 00 00 82 00 CE D3 30
1768416876.514061 can0 382 [2] 5F FF
1768416876.514433 can0 282 [4] 4C 67 FF FF
1768416876.514434 can0 385 [8] 00 00 00 00 00 CE D3 30
1768416876.514434 can0 702 [1] 85
1768416876.514435 can0 482 [8] EE 1C 00 00 00 00 02 00
1768416876.514663 can0 485 [8] 00 00 00 00 00 CE D3 30
1768416876.523683 can0 502 [6] 0F 00 67 66 FC FF
1768416876.524175 can0 080 [0] 
1768416876.524176 can0 185 [8] 00 00 00 00 00 D2 F2 A5
1768416876.524176 can0 702 [0] 
1768416876.524177 can0 182 [6] 37 06 A6 68 FC FF
1768416876.524651 can0 285 [8] 00 00 00 82 00 D2 F2 A5
1768416876.524651 can0 382 [2] 7B FF
1768416876.524652 can0 282 [4] DE 65 FF FF
1768416876.524652 can0 385 [8] 00 00 00 00 00 D2 F2 A5
1768416876.524652 can0 482 [8] EE 1C 00 00 00 00 02 00
1768416876.524899 can0 485 [8] 00 00 00 00 00 D2 F2 A5
1768416876.524899 can0 702 [1] 05
1768416876.533899 can0 502 [6] 0F 00 67 66 FC FF
1768416876.534307 can0 080 [0] 
1768416876.534307 can0 185 [8] 00 00 00 00 00 D7 06 FC
1768416876.534308 can0 182 [6] 37 06 45 78 FC FF
1768416876.534719 can0 285 [8] 00 00 00 82 00 D7 06 FC
1768416876.534720 can0 382 [2] E6 FE
1768416876.534720 can0 282 [4] 78 64 FF FF
1768416876.534721 can0 385 [8] 00 00 00 00 00 D7 06 FC
1768416876.535016 can0 482 [8] EF 1C 00 00 00 00 02 00
1768416876.535017 can0 485 [8] 00 00 00 00 00 D7 06 FC
1768416876.535017 can0 702 [0] 
1768416876.535252 can0 702 [1] 85
1768416876.544227 can0 502 [6] 0F 00 67 66 FC FF
1768416876.544228 can0 080 [0] 
1768416876.544733 can0 702 [0] 
1768416876.544733 can0 185 [8] 00 00 00 00 00 DB 25 BF
1768416876.544734 can0 182 [6] 37 06 43 7A FC FF
1768416876.544734 can0 285 [8] 00 00 00 82 00 DB 25 BF
1768416876.544735 can0 382 [2] 2C FF
1768416876.545173 can0 282 [4] 0C 63 FF FF
1768416876.545174 can0 385 [8] 00 00 00 00 00 DB 25 BF
1768416876.545175 can0 482 [8] EE 1C 00 00 00 00 02 00
1768416876.545176 can0 485 [8] 00 00 00 00 00 DB 25 BF
1768416876.545176 can0 702 [1] 05
1768416876.554393 can0 502 [6] 0F 00 67 66 FC FF
1768416876.554850 can0 080 [0] 
1768416876.554851 can0 702 [0] 
1768416876.554852 can0 182 [6] 37 06 8D 78 FC FF
1768416876.554852 can0 185 [8] 00 00 00 00 00 DF 44 A0
1768416876.554853 can0 382 [2] 2F FF
1768416876.555328 can0 282 [4] A3 61 FF FF
1768416876.555329 can0 285 [8] 00 00 00 82 00 DF 44 A0
1768416876.555329 can0 482 [8] ED 1C 00 00 00 00 02 00
1768416876.555330 can0 385 [8] 00 00 00 00 00 DF 44 A0
1768416876.555330 can0 702 [1] 85
1768416876.555583 can0 485 [8] 00 00 00 00 00 DF 44 A0
1768416876.564585 can0 502 [6] 0F 00 67 66 FC FF
1768416876.565011 can0 080 [0] 
1768416876.565012 can0 185 [8] 00 00 00 00 00 E3 64 0F
1768416876.565012 can0 702 [0] 
1768416876.565012 can0 182 [6] 37 06 DF 72 FC FF
1768416876.565423 can0 285 [8] 00 00 00 82 00 E3 64 0F
1768416876.565423 can0 382 [2] 65 FF
1768416876.565424 can0 282 [4] 37 60 FF FF
1768416876.565424 can0 385 [8] 00 00 00 00 00 E3 64 0F
1768416876.565704 can0 482 [8] EE 1C 00 00 00 00 02 00
1768416876.565705 can0 485 [8] 00 00 00 00 00 E3 64 0F
1768416876.565705 can0 702 [1] 05
1768416876.574847 can0 502 [6] 0F 00 67 66 FC FF
1768416876.575283 can0 080 [0] 
1768416876.575284 can0 702 [0] 
1768416876.575284 can0 185 [8] 00 00 00 00 00 E7 83 7F
1768416876.575285 can0 182 [6] 37 06 AB 74 FC FF
1768416876.575783 can0 285 [8] 00 00 00 82 00 E7 83 7F
1768416876.575784 can0 382 [2] 3F FF
1768416876.575784 can0 282 [4] D1 5E FF FF
1768416876.575785 can0 385 [8] 00 00 00 00 00 E7 83 7F
1768416876.575786 can0 702 [1] 85
1768416876.575787 can0 482 [8] EC 1C 00 00 00 00 02 00
1768416876.576012 can0 485 [8] 00 00 00 00 00 E7 83 7F
1768416876.585122 can0 502 [6] 0F 00 67 66 FC FF
1768416876.585584 can0 080 [0] 
1768416876.585585 can0 702 [0] 
1768416876.585586 can0 185 [8] 00 00 00 00 00 EB A2 4C
1768416876.585586 can0 182 [6] 37 06 AD 76 FC FF
1768416876.586053 can0 285 [8] 00 00 00 82 00 EB A2 4C
1768416876.586054 can0 382 [2] 2E FF
1768416876.586055 can0 282 [4] 65 5D FF FF
1768416876.586055 can0 385 [8] 00 00 00 00 00 EB A2 4C
1768416876.586056 can0 482 [8] F0 1C 00 00 00 00 02 00
1768416876.586311 can0 485 [8] 00 00 00 00 00 EB A2 4C
1768416876.586311 can0 702 [1] 05
1768416876.595445 can0 502 [6] 0F 00 67 66 FC FF
1768416876.595446 can0 080 [0] 
1768416876.595970 can0 702 [0] 
1768416876.595971 can0 185 [8] 00 00 00 00 00 EF C0 EC
1768416876.595971 can0 182 [6] 37 06 53 75 FC FF
1768416876.595972 can0 285 [8] 00 00 00 82 00 EF C0 EC
1768416876.595972 can0 382 [2] 70 FF
1768416876.595973 can0 282 [4] FB 5B FF FF
1768416876.596365 can0 385 [8] 00 00 00 00 00 EF C0 EC
1768416876.596366 can0 482 [8] EF 1C 00 00 00 00 02 00
1768416876.596366 can0 485 [8] 00 00 00 00 00 EF C0 EC
1768416876.596366 can0 702 [1] 85
1768416876.605665 can0 502 [6] 0F 00 67 66 FC FF
1768416876.605666 can0 080 [0] 
1768416876.606164 can0 702 [0] 
1768416876.606165 can0 185 [8] 00 00 00 00 00 F3 E0 56
1768416876.606166 can0 182 [6] 37 06 09 6C FC FF
1768416876.606166 can0 285 [8] 00 00 00 82 00 F3 E0 56
1768416876.606167 can0 382 [2] 5D FF
1768416876.606602 can0 282 [4] 8E 5A FF FF
1768416876.606602 can0 385 [8] 00 00 00 00 00 F3 E0 56
1768416876.606603 can0 482 [8] F0 1C 00 00 00 00 02 00
1768416876.606603 can0 485 [8] 00 00 00 00 00 F3 E0 56
1768416876.606603 can0 702 [1] 05
1768416876.615911 can0 502 [6] 0F 00 67 66 FC FF
1768416876.615912 can0 080 [0] 
1768416876.615913 can0 702 [0] 
1768416876.616376 can0 185 [8] 00 00 00 00 00 F7 FF 79
1768416876.616377 can0 182 [6] 37 06 82 72 FC FF
1768416876.616378 can0 285 [8] 00 00 00 82 00 F7 FF 79
1768416876.616378 can0 382 [2] 62 FF
1768416876.616808 can0 282 [4] 20 59 FF FF
1768416876.616809 can0 385 [8] 00 00 00 00 00 F7 FF 79
1768416876.616809 can0 482 [8] F1 1C 00 00 00 00 02 00
1768416876.616810 can0 485 [8] 00 00 00 00 00 F7 FF 79
1768416876.616810 can0 702 [1] 85
1768416876.626086 can0 502 [6] 0F 00 67 66 FC FF
1768416876.626087 can0 080 [0] 
1768416876.626473 can0 185 [8] 00 00 00 00 00 FC 1E 8A
1768416876.626474 can0 182 [6] 37 06 B4 71 FC FF
1768416876.627028 can0 285 [8] 00 00 00 82 00 FC 1E 8A
1768416876.627028 can0 382 [2] 60 FF
1768416876.627029 can0 282 [4] B9 57 FF FF
1768416876.627029 can0 385 [8] 00 00 00 00 00 FC 1E 8A
1768416876.627030 can0 482 [8] EF 1C 00 00 00 00 02 00
1768416876.627242 can0 485 [8] 00 00 00 00 00 FC 1E 8A
1768416876.627242 can0 702 [0] 
1768416876.627243 can0 702 [1] 05
1768416876.636310 can0 502 [6] 0F 00 67 66 FC FF
1768416876.636785 can0 080 [0] 
1768416876.636785 can0 702 [0] 
1768416876.636786 can0 185 [8] 00 00 00 00 00 00 3D A3
1768416876.636786 can0 285 [8] 00 00 00 82 00 00 3D A3
1768416876.637271 can0 182 [6] 37 06 01 72 FC FF
1768416876.637272 can0 382 [2] 9F FF
1768416876.637273 can0 282 [4] 44 56 FF FF
1768416876.637273 can0 385 [8] 00 00 00 00 00 00 3D A3
1768416876.637274 can0 482 [8] F0 1C 00 00 00 00 02 00
1768416876.637584 can0 485 [8] 00 00 00 00 00 00 3D A3
1768416876.637584 can0 702 [1] 85
1768416876.646593 can0 502 [6] 0F 00 67 66 FC FF
1768416876.647110 can0 080 [0] 
1768416876.647110 can0 702 [0] 
1768416876.647111 can0 182 [6] 37 06 68 76 FC FF
1768416876.647111 can0 185 [8] 00 00 00 00 00 04 5C C6
1768416876.647112 can0 382 [2] 2D FF
1768416876.647112 can0 282 [4] E1 54 FF FF
1768416876.647584 can0 285 [8] 00 00 00 82 00 04 5C C6
1768416876.647584 can0 482 [8] EE 1C 00 00 00 00 02 00
1768416876.647585 can0 385 [8] 00 00 00 00 00 04 5C C6
1768416876.647585 can0 702 [1] 05
1768416876.647586 can0 485 [8] 00 00 00 00 00 04 5C C6
1768416876.656839 can0 502 [6] 0F 00 67 66 FC FF
1768416876.657277 can0 080 [0] 
1768416876.657277 can0 702 [0] 
1768416876.657278 can0 185 [8] 00 00 00 00 00 08 7B 4F
1768416876.657279 can0 285 [8] 00 00 00 82 00 08 7B 4F
1768416876.657752 can0 182 [6] 37 06 47 77 FC FF
1768416876.657752 can0 382 [2] 25 FF
1768416876.657753 can0 282 [4] 70 53 FF FF
1768416876.657753 can0 385 [8] 00 00 00 00 00 08 7B 4F
1768416876.657753 can0 482 [8] EE 1C 00 00 00 00 02 00
1768416876.658000 can0 485 [8] 00 00 00 00 00 08 7B 4F
1768416876.658001 can0 702 [1] 85
1768416876.667078 can0 502 [6] 0F 00 67 66 FC FF
1768416876.667584 can0 080 [0] 
1768416876.667585 can0 702 [0] 
1768416876.667585 can0 185 [8] 00 00 00 00 00 0C 9A DE
1768416876.667586 can0 182 [6] 37 06 BF 7B FC FF
1768416876.668012 can0 285 [8] 00 00 00 82 00 0C 9A DE
1768416876.668012 can0 382 [2] 1A FF
1768416876.668013 can0 282 [4] 07 52 FF FF
1768416876.668013 can0 385 [8] 00 00 00 00 00 0C 9A DE
1768416876.668014 can0 482 [8] ED 1C 00 00 00 00 02 00
1768416876.668267 can0 485 [8] 00 00 00 00 00 0C 9A DE
1768416876.668268 can0 702 [1] 05
1768416876.678269 can0 502 [6] 0F 00 67 66 FC FF
1768416876.678733 can0 080 [0] 
1768416876.678733 can0 702 [0] 
1768416876.678734 can0 185 [8] 00 00 00 00 00 10 B9 DA
1768416876.678734 can0 182 [6] 37 06 E1 74 FC FF
1768416876.679206 can0 285 [8] 00 00 00 82 00 10 B9 DA
1768416876.679207 can0 382 [2] 50 FF
1768416876.679207 can0 282 [4] 7B 50 FF FF
1768416876.679207 can0 385 [8] 00 00 00 00 00 10 B9 DA
1768416876.679208 can0 482 [8] ED 1C 00 00 00 00 02 00
1768416876.679461 can0 485 [8] 00 00 00 00 00 10 B9 DA
1768416876.679462 can0 702 [1] 85
1768416876.688590 can0 502 [6] 0F 00 67 66 FC FF
1768416876.689040 can0 080 [0] 
1768416876.689041 can0 702 [0] 
1768416876.689041 can0 185 [8] 00 00 00 00 00 14 D8 FC
1768416876.689042 can0 182 [6] 37 06 3E 6F FC FF
1768416876.689585 can0 285 [8] 00 00 00 82 00 14 D8 FC
1768416876.689585 can0 382 [2] 51 FF
1768416876.689586 can0 282 [4] 0E 4F FF FF
1768416876.689586 can0 385 [8] 00 00 00 00 00 14 D8 FC
1768416876.689587 can0 702 [1] 05
1768416876.689587 can0 482 [8] ED 1C 00 00 00 00 02 00
1768416876.689813 can0 485 [8] 00 00 00 00 00 14 D8 FC
1768416876.698890 can0 502 [6] 0F 00 67 66 FC FF
1768416876.699342 can0 080 [0] 
1768416876.699342 can0 702 [0] 
1768416876.699342 can0 185 [8] 00 00 00 00 00 18 F8 14
1768416876.699343 can0 182 [6] 37 06 5F 76 FC FF
1768416876.699817 can0 285 [8] 00 00 00 82 00 18 F8 14
1768416876.699817 can0 382 [2] 1E FF
1768416876.699818 can0 282 [4] A1 4D FF FF
1768416876.699818 can0 385 [8] 00 00 00 00 00 18 F8 14
1768416876.699818 can0 482 [8] ED 1C 00 00 00 00 02 00
1768416876.700071 can0 485 [8] 00 00 00 00 00 18 F8 14
1768416876.700072 can0 702 [1] 85
1768416876.709148 can0 502 [6] 0F 00 67 66 FC FF
1768416876.709603 can0 080 [0] 
1768416876.709604 can0 702 [0] 
1768416876.709605 can0 185 [8] 00 00 00 00 00 1D 17 06
1768416876.709605 can0 182 [6] 37 06 52 73 FC FF
1768416876.710080 can0 285 [8] 00 00 00 82 00 1D 17 06
1768416876.710081 can0 382 [2] 74 FF
1768416876.710081 can0 282 [4] 34 4C FF FF
1768416876.710082 can0 385 [8] 00 00 00 00 00 1D 17 06
1768416876.710082 can0 482 [8] EB 1C 00 00 00 00 02 00
1768416876.710336 can0 485 [8] 00 00 00 00 00 1D 17 06
1768416876.710337 can0 702 [1] 05
1768416876.719499 can0 502 [6] 0F 00 67 66 FC FF
1768416876.720071 can0 080 [0] 
1768416876.720071 can0 702 [0] 
1768416876.720072 can0 185 [8] 00 00 00 00 00 21 36 66
1768416876.720072 can0 182 [6] 37 06 6E 6D FC FF
1768416876.720073 can0 285 [8] 00 00 00 82 00 21 36 66
1768416876.720073 can0 382 [2] 4E FF
1768416876.720445 can0 282 [4] C6 4A FF FF
1768416876.720445 can0 385 [8] 00 00 00 00 00 21 36 66
1768416876.720445 can0 702 [1] 85
1768416876.720446 can0 482 [8] F0 1C 00 00 00 00 02 00
1768416876.720675 can0 485 [8] 00 00 00 00 00 21 36 66
1768416876.729785 can0 502 [6] 0F 00 67 66 FC FF
1768416876.730221 can0 080 [0] 
1768416876.730222 can0 702 [0] 
1768416876.730222 can0 185 [8] 00 00 00 00 00 25 55 02
1768416876.730223 can0 182 [6] 37 06 0B 74 FC FF
1768416876.730634 can0 285 [8] 00 00 00 82 00 25 55 02
1768416876.730635 can0 382 [2] 3A FF
1768416876.730635 can0 282 [4] 58 49 FF FF
1768416876.730636 can0 385 [8] 00 00 00 00 00 25 55 02
1768416876.730909 can0 482 [8] EB 1C 00 00 00 00 02 00
1768416876.730909 can0 485 [8] 00 00 00 00 00 25 55 02
1768416876.730910 can0 702 [1] 05
1768416876.740044 can0 502 [6] 0F 00 67 66 FC FF
1768416876.740586 can0 080 [0] 
1768416876.740587 can0 702 [0] 
1768416876.740587 can0 182 [6] 37 06 DC 73 FC FF
1768416876.740588 can0 185 [8] 00 00 00 00 00 29 74 92
1768416876.740588 can0 382 [2] 55 FF
1768416876.740589 can0 282 [4] EC 47 FF FF
1768416876.740984 can0 285 [8] 00 00 00 82 00 29 74 92
1768416876.740984 can0 482 [8] EC 1C 00 00 00 00 02 00
1768416876.740985 can0 385 [8] 00 00 00 00 00 29 74 92
1768416876.740986 can0 702 [1] 85
1768416876.741215 can0 485 [8] 00 00 00 00 00 29 74 92
1768416876.750323 can0 502 [6] 0F 00 67 66 FC FF
1768416876.750324 can0 080 [0] 
1768416876.750826 can0 702 [0] 
1768416876.750827 can0 185 [8] 00 00 00 00 00 2D 93 E2
1768416876.750827 can0 182 [6] 37 06 1F 73 FC FF
1768416876.750828 can0 285 [8] 00 00 00 82 00 2D 93 E2
1768416876.750828 can0 382 [2] 54 FF
1768416876.751204 can0 282 [4] 81 46 FF FF
1768416876.751205 can0 385 [8] 00 00 00 00 00 2D 93 E2
1768416876.751205 can0 702 [1] 05
1768416876.751206 can0 482 [8] EB 1C 00 00 00 00 02 00
1768416876.751423 can0 485 [8] 00 00 00 00 00 2D 93 E2
1768416876.760506 can0 502 [6] 0F 00 67 66 FC FF
1768416876.761070 can0 080 [0] 
1768416876.761071 can0 702 [0] 
1768416876.761072 can0 185 [8] 00 00 00 00 00 31 B2 A7
1768416876.761072 can0 182 [6] 37 06 97 74 FC FF
1768416876.761073 can0 285 [8] 00 00 00 82 00 31 B2 A7
1768416876.761073 can0 382 [2] 49 FF
1768416876.761584 can0 282 [4] 14 45 FF FF
1768416876.761584 can0 385 [8] 00 00 00 00 00 31 B2 A7
1768416876.761584 can0 482 [8] ED 1C 00 00 00 00 02 00
1768416876.761585 can0 485 [8] 00 00 00 00 00 31 B2 A7
1768416876.761585 can0 702 [1] 85
1768416876.770835 can0 502 [6] 0F 00 67 66 FC FF
1768416876.771288 can0 080 [0] 
1768416876.771289 can0 702 [0] 
1768416876.771290 can0 185 [8] 00 00 00 00 00 35 D1 D0
1768416876.771290 can0 182 [6] 37 06 1F 72 FC FF
1768416876.771788 can0 285 [8] 00 00 00 82 00 35 D1 D0
1768416876.771789 can0 382 [2] 6C FF
1768416876.771790 can0 282 [4] A7 43 FF FF
1768416876.771790 can0 385 [8] 00 00 00 00 00 35 D1 D0
1768416876.771791 can0 702 [1] 05
1768416876.771791 can0 482 [8] ED 1C 00 00 00 00 02 00
1768416876.772019 can0 485 [8] 00 00 00 00 00 35 D1 D0
1768416876.781350 can0 502 [6] 0F 00 67 66 FC FF
1768416876.781750 can0 080 [0] 
1768416876.781751 can0 185 [8] 00 00 00 00 00 39 F1 19
1768416876.781751 can0 182 [6] 37 06 1B 75 FC FF
1768416876.782165 can0 285 [8] 00 00 00 82 00 39 F1 19
1768416876.782166 can0 382 [2] 3E FF
1768416876.782166 can0 282 [4] 30 42 FF FF
1768416876.782166 can0 385 [8] 00 00 00 00 00 39 F1 19
1768416876.782484 can0 482 [8] EB 1C 00 00 00 00 02 00
1768416876.782484 can0 485 [8] 00 00 00 00 00 39 F1 19
1768416876.782484 can0 702 [0] 
1768416876.782485 can0 702 [1] 85
1768416876.791664 can0 502 [6] 0F 00 67 66 FC FF
1768416876.792127 can0 080 [0] 
1768416876.792128 can0 702 [0] 
1768416876.792129 can0 185 [8] 00 00 00 00 00 3E 10 31
1768416876.792129 can0 182 [6] 37 06 2E 6E FC FF
1768416876.792621 can0 285 [8] 00 00 00 82 00 3E 10 31
1768416876.792622 can0 382 [2] 74 FF
1768416876.792622 can0 282 [4] C6 40 FF FF
1768416876.792622 can0 385 [8] 00 00 00 00 00 3E 10 31
1768416876.792623 can0 702 [1] 05
1768416876.792623 can0 482 [8] EE 1C 00 00 00 00 02 00
1768416876.792845 can0 485 [8] 00 00 00 00 00 3E 10 31
1768416876.801930 can0 502 [6] 0F 00 67 66 FC FF
1768416876.802377 can0 080 [0] 
1768416876.802378 can0 702 [0] 
1768416876.802378 can0 185 [8] 00 00 00 00 00 42 24 09
1768416876.802379 can0 182 [6] 37 06 AF 6F FC FF
1768416876.802884 can0 285 [8] 00 00 00 82 00 42 24 09
1768416876.802885 can0 382 [2] 28 FF
1768416876.802885 can0 282 [4] 5A 3F FF FF
1768416876.802886 can0 385 [8] 00 00 00 00 00 42 24 09
1768416876.802886 can0 702 [1] 85
1768416876.802887 can0 482 [8] EB 1C 00 00 00 00 02 00
1768416876.803105 can0 485 [8] 00 00 00 00 00 42 24 09
1768416876.812172 can0 502 [6] 0F 00 67 66 FC FF
1768416876.812620 can0 080 [0] 
1768416876.812620 can0 702 [0] 
1768416876.812621 can0 185 [8] 00 00 00 00 00 46 4D 6E
1768416876.812621 can0 285 [8] 00 00 00 82 00 46 4D 6E
1768416876.813092 can0 182 [6] 37 06 91 75 FC FF
1768416876.813093 can0 382 [2] 32 FF
1768416876.813093 can0 282 [4] E9 3D FF FF
1768416876.813094 can0 385 [8] 00 00 00 00 00 46 4D 6E
1768416876.813094 can0 482 [8] F0 1C 00 00 00 00 02 00
1768416876.813343 can0 485 [8] 00 00 00 00 00 46 4D 6E
1768416876.813344 can0 702 [1] 05
1768416876.822429 can0 502 [6] 0F 00 67 66 FC FF
1768416876.822869 can0 080 [0] 
1768416876.822870 can0 702 [0] 
1768416876.822871 can0 185 [8] 00 00 00 00 00 4E 82 AC
1768416876.822871 can0 182 [6] 37 06 52 6C FC FF
1768416876.823339 can0 285 [8] 00 00 00 82 00 4E 82 AC
1768416876.823339 can0 382 [2] 79 FF
1768416876.823340 can0 282 [4] 82 3C FF FF
1768416876.823340 can0 385 [8] 00 00 00 00 00 4E 82 AC
1768416876.823341 can0 482 [8] F0 1C 00 00 00 00 02 00
1768416876.823598 can0 485 [8] 00 00 00 00 00 4E 82 AC
1768416876.823599 can0 702 [1] 85
1768416876.832654 can0 502 [6] 0F 00 67 66 FC FF
1768416876.833058 can0 080 [0] 
1768416876.833059 can0 702 [0] 
1768416876.833059 can0 185 [8] 00 00 00 00 00 52 A0 93
1768416876.833060 can0 285 [8] 00 00 00 82 00 52 A0 93
1768416876.833467 can0 182 [6] 37 06 43 76 FC FF
1768416876.833468 can0 382 [2] 22 FF
1768416876.833468 can0 282 [4] 15 3B FF FF
1768416876.833469 can0 385 [8] 00 00 00 00 00 52 A0 93
1768416876.833805 can0 482 [8] EE 1C 00 00 00 00 02 00
1768416876.833805 can0 485 [8] 00 00 00 00 00 52 A0 93
1768416876.833806 can0 702 [1] 05
1768416876.842844 can0 502 [6] 0F 00 67 66 FC FF
1768416876.843333 can0 080 [0] 
1768416876.843333 can0 702 [0] 
1768416876.843334 can0 182 [6] 37 06 A7 72 FC FF
1768416876.843334 can0 185 [8] 00 00 00 00 00 56 BF D8
1768416876.843335 can0 382 [2] 24 FF
1768416876.843335 can0 282 [4] AE 39 FF FF
1768416876.843746 can0 285 [8] 00 00 00 82 00 56 BF D8
1768416876.843747 can0 482 [8] EE 1C 00 00 00 00 02 00
1768416876.843747 can0 385 [8] 00 00 00 00 00 56 BF D8
1768416876.843748 can0 702 [1] 85
1768416876.843984 can0 485 [8] 00 00 00 00 00 56 BF D8
1768416876.853028 can0 502 [6] 0F 00 67 66 FC FF
1768416876.853467 can0 080 [0] 
1768416876.853468 can0 702 [0] 
1768416876.853469 can0 185 [8] 00 00 00 00 00 5A DE 7B
1768416876.853469 can0 182 [6] 37 06 9F 6C FC FF
1768416876.854000 can0 285 [8] 00 00 00 82 00 5A DE 7B
1768416876.854001 can0 382 [2] A4 FF
1768416876.854001 can0 282 [4] 3F 38 FF FF
1768416876.854001 can0 385 [8] 00 00 00 00 00 5A DE 7B
1768416876.854002 can0 482 [8] ED 1C 00 00 00 00 02 00
1768416876.854203 can0 485 [8] 00 00 00 00 00 5A DE 7B
1768416876.854204 can0 702 [1] 05
1768416876.863257 can0 502 [6] 0F 00 67 66 FC FF
1768416876.863258 can0 080 [0] 
1768416876.863829 can0 702 [0] 
1768416876.863829 can0 185 [8] 00 00 00 00 00 5E FD C7
1768416876.863830 can0 182 [6] 37 06 A4 6E FC FF
1768416876.863831 can0 285 [8] 00 00 00 82 00 5E FD C7
1768416876.863831 can0 382 [2] B0 FF
1768416876.863832 can0 282 [4] D7 36 FF FF
1768416876.864210 can0 385 [8] 00 00 00 00 00 5E FD C7
1768416876.864211 can0 702 [1] 85
1768416876.864211 can0 482 [8] EE 1C 00 00 00 00 02 00
1768416876.864212 can0 485 [8] 00 00 00 00 00 5E FD C7
1768416876.873440 can0 502 [6] 0F 00 67 66 FC FF
1768416876.873441 can0 080 [0] 
1768416876.873940 can0 702 [0] 
1768416876.873941 can0 185 [8] 00 00 00 00 00 63 1C A5
1768416876.873941 can0 182 [6] 37 06 D1 76 FC FF
1768416876.873942 can0 285 [8] 00 00 00 82 00 63 1C A5
1768416876.873942 can0 382 [2] 21 FF
1768416876.874372 can0 282 [4] 6D 35 FF FF
1768416876.874373 can0 385 [8] 00 00 00 00 00 63 1C A5
1768416876.874373 can0 482 [8] EE 1C 00 00 00 00 02 00
1768416876.874373 can0 485 [8] 00 00 00 00 00 63 1C A5
1768416876.874374 can0 702 [1] 05
1768416876.883609 can0 502 [6] 0F 00 67 66 FC FF
1768416876.883610 can0 080 [0] 
1768416876.884080 can0 702 [0] 
1768416876.884080 can0 182 [6] 37 06 6E 73 FC FF
1768416876.884081 can0 185 [8] 00 00 00 00 00 67 3B F0
1768416876.884081 can0 382 [2] 6B FF
1768416876.884082 can0 282 [4] 08 34 FF FF
1768416876.884491 can0 285 [8] 00 00 00 82 00 67 3B F0
1768416876.884491 can0 482 [8] F0 1C 00 00 00 00 02 00
1768416876.884492 can0 385 [8] 00 00 00 00 00 67 3B F0
1768416876.884492 can0 702 [1] 85
1768416876.884759 can0 485 [8] 00 00 00 00 00 67 3B F0
1768416876.893777 can0 502 [6] 0F 00 67 66 FC FF
1768416876.894260 can0 080 [0] 
1768416876.894261 can0 702 [0] 
1768416876.894261 can0 185 [8] 00 00 00 00 00 6B 5B 29
1768416876.894262 can0 182 [6] 37 06 58 75 FC FF
1768416876.894733 can0 285 [8] 00 00 00 82 00 6B 5B 29
1768416876.894734 can0 382 [2] 4D FF
1768416876.894734 can0 282 [4] 98 32 FF FF
1768416876.894735 can0 385 [8] 00 00 00 00 00 6B 5B 29
1768416876.894735 can0 482 [8] F0 1C 00 00 00 00 02 00
1768416876.894987 can0 485 [8] 00 00 00 00 00 6B 5B 29
1768416876.894988 can0 702 [1] 05
1768416876.904063 can0 502 [6] 0F 00 67 66 FC FF
1768416876.904064 can0 080 [0] 
1768416876.904587 can0 702 [0] 
1768416876.904588 can0 182 [6] 37 06 E0 6D FC FF
1768416876.904588 can0 185 [8] 00 00 00 00 00 6F 7A 41
1768416876.904589 can0 382 [2] 2E FF
1768416876.904589 can0 282 [4] 32 31 FF FF
1768416876.905000 can0 285 [8] 00 00 00 82 00 6F 7A 41
1768416876.905000 can0 482 [8] EE 1C 00 00 00 00 02 00
1768416876.905001 can0 385 [8] 00 00 00 00 00 6F 7A 41
1768416876.905001 can0 702 [1] 85
1768416876.905002 can0 485 [8] 00 00 00 00 00 6F 7A 41
1768416876.914183 can0 502 [6] 0F 00 67 66 FC FF
1768416876.914643 can0 080 [0] 
1768416876.914644 can0 702 [0] 
1768416876.914645 can0 185 [8] 00 00 00 00 00 73 99 28
1768416876.914645 can0 182 [6] 37 06 D2 77 FC FF
1768416876.915119 can0 285 [8] 00 00 00 82 00 73 99 28
1768416876.915120 can0 382 [2] 13 FF
1768416876.915120 can0 282 [4] C6 2F FF FF
1768416876.915121 can0 385 [8] 00 00 00 00 00 73 99 28
1768416876.915122 can0 482 [8] F1 1C 00 00 00 00 02 00
1768416876.915371 can0 485 [8] 00 00 00 00 00 73 99 28
1768416876.915372 can0 702 [1] 05
1768416876.924428 can0 502 [6] 0F 00 67 66 FC FF
1768416876.924827 can0 080 [0] 
1768416876.924828 can0 185 [8] 00 00 00 00 00 77 B8 BB
1768416876.924829 can0 182 [6] 37 06 EE 79 FC FF
1768416876.925246 can0 285 [8] 00 00 00 82 00 77 B8 BB
1768416876.925246 can0 382 [2] 07 FF
1768416876.925247 can0 282 [4] 5D 2E FF FF
1768416876.925247 can0 385 [8] 00 00 00 00 00 77 B8 BB
1768416876.925579 can0 482 [8] EC 1C 00 00 00 00 02 00
1768416876.925579 can0 485 [8] 00 00 00 00 00 77 B8 BB
1768416876.925579 can0 702 [0] 
1768416876.925806 can0 702 [1] 85
1768416876.934644 can0 502 [6] 0F 00 67 66 FC FF
1768416876.935031 can0 080 [0] 
1768416876.935031 can0 185 [8] 00 00 00 00 00 7B D7 3C
1768416876.935032 can0 182 [6] 37 06 E4 77 FC FF
1768416876.935472 can0 285 [8] 00 00 00 82 00 7B D7 3C
1768416876.935472 can0 382 [2] 3F FF
1768416876.935472 can0 282 [4] F4 2C FF FF
1768416876.935473 can0 385 [8] 00 00 00 00 00 7B D7 3C
1768416876.935866 can0 482 [8] F0 1C 00 00 00 00 02 00
1768416876.935866 can0 485 [8] 00 00 00 00 00 7B D7 3C
1768416876.935866 can0 702 [0] 
