1768359336.865106 can0 000 [2] 80 00
1768359336.965839 can0 000 [2] 01 00
1768359337.066596 can0 601 [8] 2B 40 60 00 06 00 00 00
1768359337.067388 can0 581 [8] 60 40 60 00 00 00 00 00
1768359337.168508 can0 601 [8] 2F 60 60 00 03 00 00 00
1768359337.169380 can0 581 [8] 60 60 60 00 00 00 00 00
1768359337.270367 can0 601 [8] 2B 40 60 00 07 00 00 00
1768359337.270653 can0 581 [8] 60 40 60 00 00 00 00 00
1768359337.371633 can0 601 [8] 2B 40 60 00 0F 00 00 00
1768359337.372372 can0 581 [8] 60 40 60 00 00 00 00 00
1768359337.573025 can0 601 [8] 40 61 60 00 00 00 00 00
1768359337.573748 can0 581 [8] 42 61 60 00 03 00 00 00
1768359337.574147 can0 601 [8] 40 41 60 00 00 00 00 00
1768359337.575094 can0 581 [8] 42 41 60 00 28 06 00 00
1768359337.575525 can0 601 [8] 40 3F 60 00 00 00 00 00
1768359337.576384 can0 581 [8] 80 3F 60 00 00 00 02 06
1768359337.576758 can0 601 [8] 23 FF 60 00 14 17 FD FF
1768359337.577588 can0 581 [8] 60 FF 60 00 00 00 00 00
1768359337.577769 can0 601 [8] 40 64 60 00 00 00 00 00
1768359337.578606 can0 581 [8] 42 64 60 00 24 4B 07 00
1768359337.578795 can0 601 [8] 40 6C 60 00 00 00 00 00
1768359337.579680 can0 581 [8] 42 6C 60 00 FF FF FF FF
1768359337.579843 can0 601 [8] 40 64 60 00 00 00 00 00
1768359337.580612 can0 581 [8] 42 64 60 00 24 4B 07 00
1768359338.081246 can0 601 [8] 40 6C 60 00 00 00 00 00
1768359338.082003 can0 581 [8] 42 6C 60 00 FF FF FF FF
1768359338.082387 can0 601 [8] 40 64 60 00 00 00 00 00
1768359338.083281 can0 581 [8] 42 64 60 00 24 4B 07 00
1768359338.584416 can0 601 [8] 40 6C 60 00 00 00 00 00
1768359338.585172 can0 581 [8] 42 6C 60 00 FF FF FF FF
1768359338.585396 can0 601 [8] 40 64 60 00 00 00 00 00
1768359338.586192 can0 581 [8] 42 64 60 00 24 4B 07 00
1768359339.087130 can0 601 [8] 40 6C 60 00 00 00 00 00
1768359339.087860 can0 581 [8] 42 6C 60 00 FF FF FF FF
1768359339.088101 can0 601 [8] 40 64 60 00 00 00 00 00
1768359339.088922 can0 581 [8] 42 64 60 00 24 4B 07 00
1768359339.590293 can0 601 [8] 40 6C 60 00 00 00 00 00
1768359339.591022 can0 581 [8] 42 6C 60 00 FF FF FF FF
1768359339.591337 can0 601 [8] 40 64 60 00 00 00 00 00
1768359339.592189 can0 581 [8] 42 64 60 00 24 4B 07 00
1768359340.093145 can0 601 [8] 40 6C 60 00 00 00 00 00
1768359340.093884 can0 581 [8] 42 6C 60 00 FF FF FF FF
1768359340.094108 can0 601 [8] 40 64 60 00 00 00 00 00
1768359340.095157 can0 581 [8] 42 64 60 00 24 4B 07 00
1768359340.597276 can0 601 [8] 40 6C 60 00 00 00 00 00
1768359340.598000 can0 581 [8] 42 6C 60 00 FF FF FF FF
1768359340.598291 can0 601 [8] 40 64 60 00 00 00 00 00
1768359340.600658 can0 581 [8] 42 64 60 00 24 4B 07 00
1768359341.101690 can0 601 [8] 40 6C 60 00 00 00 00 00
1768359341.102494 can0 581 [8] 42 6C 60 00 FF FF FF FF
1768359341.102939 can0 601 [8] 40 64 60 00 00 00 00 00
1768359341.105214 can0 581 [8] 42 64 60 00 24 4B 07 00
1768359341.607191 can0 601 [8] 40 6C 60 00 00 00 00 00
1768359341.607949 can0 581 [8] 42 6C 60 00 FF FF FF FF
1768359341.608150 can0 601 [8] 40 64 60 00 00 00 00 00
1768359341.609071 can0 581 [8] 42 64 60 00 24 4B 07 00
1768359342.109586 can0 601 [8] 40 6C 60 00 00 00 00 00
1768359342.110318 can0 581 [8] 42 6C 60 00 FF FF FF FF
1768359342.110523 can0 601 [8] 40 64 60 00 00 00 00 00
1768359342.111472 can0 581 [8] 42 64 60 00 24 4B 07 00
1768359342.612580 can0 601 [8] 23 FF 60 00 00 00 00 00
1768359342.613438 can0 581 [8] 60 FF 60 00 00 00 00 00
1768359342.715185 can0 601 [8] 2B 40 60 00 07 00 00 00
1768359342.716018 can0 581 [8] 60 40 60 00 00 00 00 00
1768359342.767019 can0 601 [8] 2B 40 60 00 06 00 00 00
1768359342.767778 can0 581 [8] 60 40 60 00 00 00 00 00
1768359490.149681 can0 000 [2] 80 00
1768359490.249934 can0 000 [2] 01 00
1768359490.350666 can0 601 [8] 40 61 60 00 00 00 00 00
1768359490.351433 can0 581 [8] 42 61 60 00 03 00 00 00
1768359490.351844 can0 601 [8] 40 41 60 00 00 00 00 00
1768359490.352568 can0 581 [8] 42 41 60 00 28 06 00 00
1768359490.352843 can0 601 [8] 2B 40 60 00 80 00 00 00
1768359490.353661 can0 581 [8] 60 40 60 00 00 00 00 00
1768359490.554598 can0 601 [8] 40 41 60 00 00 00 00 00
1768359490.555422 can0 581 [8] 42 41 60 00 28 06 00 00
1768359490.656478 can0 601 [8] 40 41 60 00 00 00 00 00
1768359490.657209 can0 581 [8] 42 41 60 00 28 06 00 00
1768359490.757807 can0 601 [8] 40 41 60 00 00 00 00 00
1768359490.758529 can0 581 [8] 42 41 60 00 28 06 00 00
1768359490.858963 can0 601 [8] 40 41 60 00 00 00 00 00
1768359490.859710 can0 581 [8] 42 41 60 00 28 06 00 00
1768359490.960165 can0 601 [8] 40 41 60 00 00 00 00 00
1768359490.961009 can0 581 [8] 42 41 60 00 28 06 00 00
1768359491.061449 can0 601 [8] 40 41 60 00 00 00 00 00
1768359491.062172 can0 581 [8] 42 41 60 00 28 06 00 00
1768359491.162683 can0 601 [8] 40 41 60 00 00 00 00 00
1768359491.163420 can0 581 [8] 42 41 60 00 28 06 00 00
1768359491.263920 can0 601 [8] 40 41 60 00 00 00 00 00
1768359491.264666 can0 581 [8] 42 41 60 00 28 06 00 00
1768359491.365071 can0 601 [8] 40 41 60 00 00 00 00 00
1768359491.365807 can0 581 [8] 42 41 60 00 28 06 00 00
1768359491.466233 can0 601 [8] 40 41 60 00 00 00 00 00
1768359491.466988 can0 581 [8] 42 41 60 00 28 06 00 00
1768359491.567947 can0 601 [8] 40 41 60 00 00 00 00 00
1768359491.568722 can0 581 [8] 42 41 60 00 28 06 00 00
1768359491.669550 can0 601 [8] 40 41 60 00 00 00 00 00
1768359491.670409 can0 581 [8] 42 41 60 00 28 06 00 00
1768359491.771252 can0 601 [8] 40 41 60 00 00 00 00 00
1768359491.771984 can0 581 [8] 42 41 60 00 28 06 00 00
1768359491.872998 can0 601 [8] 40 41 60 00 00 00 00 00
1768359491.874054 can0 581 [8] 42 41 60 00 28 06 00 00
1768359491.974788 can0 601 [8] 40 41 60 00 00 00 00 00
1768359491.975468 can0 581 [8] 42 41 60 00 28 06 00 00
1768359492.075988 can0 601 [8] 40 41 60 00 00 00 00 00
1768359492.076727 can0 581 [8] 42 41 60 00 28 06 00 00
1768359492.177408 can0 601 [8] 40 41 60 00 00 00 00 00
1768359492.178148 can0 581 [8] 42 41 60 00 28 06 00 00
1768359492.278802 can0 601 [8] 40 41 60 00 00 00 00 00
1768359492.279514 can0 581 [8] 42 41 60 00 28 06 00 00
1768359492.380211 can0 601 [8] 40 41 60 00 00 00 00 00
1768359492.380962 can0 581 [8] 42 41 60 00 28 06 00 00
1768359492.482043 can0 601 [8] 40 41 60 00 00 00 00 00
1768359492.482769 can0 581 [8] 42 41 60 00 28 06 00 00
1768359492.583774 can0 601 [8] 23 FF 60 00 00 00 00 00
1768359492.584512 can0 581 [8] 60 FF 60 00 00 00 00 00
1768359492.685157 can0 601 [8] 2B 40 60 00 07 00 00 00
1768359492.685935 can0 581 [8] 60 40 60 00 00 00 00 00
1768359492.737128 can0 601 [8] 2B 40 60 00 06 00 00 00
1768359492.737962 can0 581 [8] 60 40 60 00 00 00 00 00
1768359510.680882 can0 601 [8] 40 41 60 00 00 00 00 00
1768359510.681572 can0 581 [8] 42 41 60 00 28 06 00 00
1768359510.731185 can0 000 [2] 82 01
1768359510.731844 can0 701 [1] 00
1768359511.731394 can0 000 [2] 01 01
1768359512.231599 can0 601 [8] 23 40 60 00 80 00 00 00
1768359512.232413 can0 581 [8] 60 40 60 00 00 00 00 00
1768359512.731756 can0 601 [8] 40 41 60 00 00 00 00 00
1768359512.732533 can0 581 [8] 42 41 60 00 60 06 00 00
1768359512.782484 can0 601 [8] 23 40 60 00 00 00 00 00
1768359512.782800 can0 581 [8] 60 40 60 00 00 00 00 00
1768359513.082878 can0 601 [8] 23 40 60 00 06 00 00 00
1768359513.083603 can0 581 [8] 60 40 60 00 00 00 00 00
1768359513.383061 can0 601 [8] 40 41 60 00 00 00 00 00
1768359513.383778 can0 581 [8] 42 41 60 00 21 06 00 00
1768359513.433510 can0 601 [8] 23 40 60 00 07 00 00 00
1768359513.434259 can0 581 [8] 60 40 60 00 00 00 00 00
1768359513.734312 can0 601 [8] 23 40 60 00 0F 00 00 00
1768359513.735048 can0 581 [8] 60 40 60 00 00 00 00 00
1768359514.034697 can0 601 [8] 40 41 60 00 00 00 00 00
1768359514.035434 can0 581 [8] 42 41 60 00 37 06 00 00
1768359555.383987 can0 601 [8] 40 41 60 00 00 00 00 00
1768359555.384821 can0 581 [8] 42 41 60 00 37 06 00 00
1768359555.434418 can0 000 [2] 82 01
1768359555.435171 can0 701 [1] 00
1768359556.434653 can0 000 [2] 01 01
1768359556.936207 can0 601 [8] 23 40 60 00 80 00 00 00
1768359556.936948 can0 581 [8] 60 40 60 00 00 00 00 00
1768359557.436460 can0 601 [8] 40 41 60 00 00 00 00 00
1768359557.437201 can0 581 [8] 42 41 60 00 37 06 00 00
1768359557.488352 can0 601 [8] 23 40 60 00 00 00 00 00
1768359557.489244 can0 581 [8] 60 40 60 00 00 00 00 00
1768359557.789139 can0 601 [8] 23 40 60 00 06 00 00 00
1768359557.789899 can0 581 [8] 60 40 60 00 00 00 00 00
1768359558.090593 can0 601 [8] 40 41 60 00 00 00 00 00
1768359558.091303 can0 581 [8] 42 41 60 00 21 06 00 00
1768359558.141610 can0 601 [8] 23 40 60 00 07 00 00 00
1768359558.142315 can0 581 [8] 60 40 60 00 00 00 00 00
1768359558.442379 can0 601 [8] 23 40 60 00 0F 00 00 00
1768359558.443143 can0 581 [8] 60 40 60 00 00 00 00 00
1768359558.743658 can0 601 [8] 40 41 60 00 00 00 00 00
1768359558.744419 can0 581 [8] 42 41 60 00 37 06 00 00
1768359569.030335 can0 000 [2] 80 00
1768359569.130552 can0 000 [2] 01 00
1768359569.231354 can0 601 [8] 40 61 60 00 00 00 00 00
1768359569.232110 can0 581 [8] 42 61 60 00 03 00 00 00
1768359569.232688 can0 601 [8] 2B 40 60 00 06 00 00 00
1768359569.233406 can0 581 [8] 60 40 60 00 00 00 00 00
1768359569.334430 can0 601 [8] 2F 60 60 00 03 00 00 00
1768359569.335149 can0 581 [8] 60 60 60 00 00 00 00 00
1768359569.435953 can0 601 [8] 2B 40 60 00 07 00 00 00
1768359569.436691 can0 581 [8] 60 40 60 00 00 00 00 00
1768359569.537660 can0 601 [8] 2B 40 60 00 0F 00 00 00
1768359569.538496 can0 581 [8] 60 40 60 00 00 00 00 00
1768359569.739523 can0 601 [8] 40 61 60 00 00 00 00 00
1768359569.740301 can0 581 [8] 42 61 60 00 03 00 00 00
1768359569.740799 can0 601 [8] 40 41 60 00 00 00 00 00
1768359569.741553 can0 581 [8] 42 41 60 00 37 06 00 00
1768359569.741853 can0 601 [8] 23 FF 60 00 00 00 00 00
1768359569.742678 can0 581 [8] 60 FF 60 00 00 00 00 00
1768359569.843318 can0 601 [8] 23 FF 60 00 68 C5 FF FF
1768359569.844593 can0 581 [8] 60 FF 60 00 00 00 00 00
1768359569.965622 can0 601 [8] 23 FF 60 00 D0 8A FF FF
1768359569.966529 can0 581 [8] 60 FF 60 00 00 00 00 00
1768359570.087106 can0 601 [8] 23 FF 60 00 38 50 FF FF
1768359570.087877 can0 581 [8] 60 FF 60 00 00 00 00 00
1768359570.208897 can0 601 [8] 23 FF 60 00 A0 15 FF FF
1768359570.209681 can0 581 [8] 60 FF 60 00 00 00 00 00
1768359570.330675 can0 601 [8] 23 FF 60 00 08 DB FE FF
1768359570.331477 can0 581 [8] 60 FF 60 00 00 00 00 00
1768359570.452512 can0 601 [8] 23 FF 60 00 70 A0 FE FF
1768359570.453344 can0 581 [8] 60 FF 60 00 00 00 00 00
1768359570.573745 can0 601 [8] 23 FF 60 00 D8 65 FE FF
1768359570.574521 can0 581 [8] 60 FF 60 00 00 00 00 00
1768359570.695391 can0 601 [8] 23 FF 60 00 40 2B FE FF
1768359570.696146 can0 581 [8] 60 FF 60 00 00 00 00 00
1768359570.816768 can0 601 [8] 23 FF 60 00 A8 F0 FD FF
1768359570.817534 can0 581 [8] 60 FF 60 00 00 00 00 00
1768359570.938204 can0 601 [8] 23 FF 60 00 10 B6 FD FF
1768359570.939071 can0 581 [8] 60 FF 60 00 00 00 00 00
1768359571.059621 can0 601 [8] 23 FF 60 00 78 7B FD FF
1768359571.060394 can0 581 [8] 60 FF 60 00 00 00 00 00
1768359571.181511 can0 601 [8] 23 FF 60 00 E0 40 FD FF
1768359571.182353 can0 581 [8] 60 FF 60 00 00 00 00 00
1768359571.303132 can0 601 [8] 23 FF 60 00 14 17 FD FF
1768359571.303914 can0 581 [8] 60 FF 60 00 00 00 00 00
1768359571.425550 can0 601 [8] 40 6C 60 00 00 00 00 00
1768359571.426617 can0 581 [8] 42 6C 60 00 FF 23 FD FF
1768359571.927582 can0 601 [8] 40 6C 60 00 00 00 00 00
1768359571.928415 can0 581 [8] 42 6C 60 00 32 1D FD FF
1768359572.428977 can0 601 [8] 40 6C 60 00 00 00 00 00
1768359572.429721 can0 581 [8] 42 6C 60 00 43 21 FD FF
1768359572.930707 can0 601 [8] 40 6C 60 00 00 00 00 00
1768359572.931491 can0 581 [8] 42 6C 60 00 A9 21 FD FF
1768359573.432643 can0 601 [8] 40 6C 60 00 00 00 00 00
1768359573.433500 can0 581 [8] 42 6C 60 00 33 22 FD FF
1768359573.934555 can0 601 [8] 40 6C 60 00 00 00 00 00
1768359573.935266 can0 581 [8] 42 6C 60 00 90 24 FD FF
1768359574.436126 can0 601 [8] 40 6C 60 00 00 00 00 00
1768359574.436861 can0 581 [8] 42 6C 60 00 CB 20 FD FF
1768359574.937912 can0 601 [8] 40 6C 60 00 00 00 00 00
1768359574.938662 can0 581 [8] 42 6C 60 00 3D 23 FD FF
1768359575.439670 can0 601 [8] 40 6C 60 00 00 00 00 00
1768359575.440377 can0 581 [8] 42 6C 60 00 01 20 FD FF
1768359575.941306 can0 601 [8] 40 6C 60 00 00 00 00 00
1768359575.942067 can0 581 [8] 42 6C 60 00 94 25 FD FF
1768359576.443579 can0 601 [8] 23 FF 60 00 AC 51 FD FF
1768359576.444483 can0 581 [8] 60 FF 60 00 00 00 00 00
1768359576.553567 can0 601 [8] 23 FF 60 00 44 8C FD FF
1768359576.554330 can0 581 [8] 60 FF 60 00 00 00 00 00
1768359576.663192 can0 601 [8] 23 FF 60 00 DC C6 FD FF
1768359576.663989 can0 581 [8] 60 FF 60 00 00 00 00 00
1768359576.773003 can0 601 [8] 23 FF 60 00 74 01 FE FF
1768359576.773757 can0 581 [8] 60 FF 60 00 00 00 00 00
1768359576.883005 can0 601 [8] 23 FF 60 00 0C 3C FE FF
1768359576.883798 can0 581 [8] 60 FF 60 00 00 00 00 00
1768359576.992198 can0 601 [8] 23 FF 60 00 A4 76 FE FF
1768359576.993005 can0 581 [8] 60 FF 60 00 00 00 00 00
1768359577.101462 can0 601 [8] 23 FF 60 00 3C B1 FE FF
1768359577.102288 can0 581 [8] 60 FF 60 00 00 00 00 00
1768359577.210735 can0 601 [8] 23 FF 60 00 D4 EB FE FF
1768359577.211590 can0 581 [8] 60 FF 60 00 00 00 00 00
1768359577.320056 can0 601 [8] 23 FF 60 00 6C 26 FF FF
1768359577.320820 can0 581 [8] 60 FF 60 00 00 00 00 00
1768359577.429170 can0 601 [8] 23 FF 60 00 04 61 FF FF
1768359577.429953 can0 581 [8] 60 FF 60 00 00 00 00 00
1768359577.538654 can0 601 [8] 23 FF 60 00 9C 9B FF FF
1768359577.539121 can0 581 [8] 60 FF 60 00 00 00 00 00
1768359577.647543 can0 601 [8] 23 FF 60 00 34 D6 FF FF
1768359577.648335 can0 581 [8] 60 FF 60 00 00 00 00 00
1768359577.756670 can0 601 [8] 23 FF 60 00 00 00 00 00
1768359577.757452 can0 581 [8] 60 FF 60 00 00 00 00 00
1768359577.866304 can0 601 [8] 23 FF 60 00 00 00 00 00
1768359577.867111 can0 581 [8] 60 FF 60 00 00 00 00 00
1768359577.968323 can0 601 [8] 2B 40 60 00 07 00 00 00
1768359577.969294 can0 581 [8] 60 40 60 00 00 00 00 00
1768359578.021337 can0 601 [8] 2B 40 60 00 06 00 00 00
1768359578.022206 can0 581 [8] 60 40 60 00 00 00 00 00
1768359643.631911 can0 200 [8] 00 08 00 00 00 00 60 00
