1768359214.727433 can0 000 [2] 80 01
1768359214.827689 can0 000 [2] 80 02
1768359214.928456 can0 000 [2] 80 03
1768359215.029152 can0 000 [2] 80 04
1768359215.629955 can0 601 [8] 42 02 20 05 00 00 00 00
1768359215.630767 can0 581 [8] 42 02 20 05 03 00 00 00
1768359215.631085 can0 601 [8] 42 00 14 01 00 00 00 00
1768359215.631846 can0 581 [8] 42 00 14 01 01 02 00 80
1768359215.632071 can0 601 [8] 23 00 14 01 01 02 00 80
1768359215.632944 can0 581 [8] 60 00 14 01 00 00 00 00
1768359215.633083 can0 601 [8] 42 01 14 01 00 00 00 00
1768359215.633849 can0 581 [8] 42 01 14 01 01 03 00 80
1768359215.633969 can0 601 [8] 23 01 14 01 01 03 00 80
1768359215.634855 can0 581 [8] 60 01 14 01 00 00 00 00
1768359215.635066 can0 601 [8] 42 02 14 01 00 00 00 00
1768359215.635858 can0 581 [8] 42 02 14 01 01 04 00 80
1768359215.636066 can0 601 [8] 23 02 14 01 01 05 00 80
1768359215.636954 can0 581 [8] 60 02 14 01 00 00 00 00
1768359215.637070 can0 601 [8] 42 03 14 01 00 00 00 00
1768359215.637898 can0 581 [8] 42 03 14 01 01 05 00 00
1768359215.638065 can0 601 [8] 23 03 14 01 01 05 00 80
1768359215.638913 can0 581 [8] 60 03 14 01 00 00 00 00
1768359215.639069 can0 601 [8] 42 04 14 01 00 00 00 00
1768359215.639844 can0 581 [8] 42 04 14 01 21 04 00 80
1768359215.639959 can0 601 [8] 23 04 14 01 21 04 00 80
1768359215.640866 can0 581 [8] 60 04 14 01 00 00 00 00
1768359215.641066 can0 601 [8] 42 14 14 01 00 00 00 00
1768359215.641852 can0 581 [8] 42 14 14 01 01 05 00 80
1768359215.642071 can0 601 [8] 23 14 14 01 01 05 00 80
1768359215.642959 can0 581 [8] 60 14 14 01 00 00 00 00
1768359215.643070 can0 601 [8] 42 15 14 01 00 00 00 00
1768359215.643951 can0 581 [8] 42 15 14 01 11 05 00 80
1768359215.644071 can0 601 [8] 23 15 14 01 11 05 00 80
1768359215.645070 can0 581 [8] 60 15 14 01 00 00 00 00
1768359215.645244 can0 601 [8] 42 16 14 01 00 00 00 00
1768359215.646068 can0 581 [8] 42 16 14 01 21 05 00 80
1768359215.646207 can0 601 [8] 23 16 14 01 21 05 00 80
1768359215.647146 can0 581 [8] 60 16 14 01 00 00 00 00
1768359215.647272 can0 601 [8] 42 17 14 01 00 00 00 00
1768359215.648153 can0 581 [8] 42 17 14 01 31 05 00 80
1768359215.648278 can0 601 [8] 23 17 14 01 31 05 00 80
1768359215.649257 can0 581 [8] 60 17 14 01 00 00 00 00
1768359215.649381 can0 601 [8] 42 19 14 01 00 00 00 00
1768359215.650283 can0 581 [8] 42 19 14 01 00 05 00 80
1768359215.650482 can0 601 [8] 23 19 14 01 00 05 00 80
1768359215.651392 can0 581 [8] 60 19 14 01 00 00 00 00
1768359215.651569 can0 601 [8] 42 20 14 01 00 00 00 00
1768359215.652394 can0 581 [8] 42 20 14 01 51 05 00 80
1768359215.652512 can0 601 [8] 23 20 14 01 51 05 00 80
1768359215.653489 can0 581 [8] 60 20 14 01 00 00 00 00
1768359215.653663 can0 601 [8] 42 21 14 01 00 00 00 00
1768359215.654543 can0 581 [8] 42 21 14 01 61 05 00 80
1768359215.654675 can0 601 [8] 23 21 14 01 61 05 00 80
1768359215.655660 can0 581 [8] 60 21 14 01 00 00 00 00
1768359215.655836 can0 601 [8] 42 CA 20 07 00 00 00 00
1768359215.656743 can0 581 [8] 42 CA 20 07 00 00 00 00
1768359215.656911 can0 601 [8] 42 CA 20 08 00 00 00 00
1768359215.657856 can0 581 [8] 42 CA 20 08 00 00 00 00
1768359215.658072 can0 601 [8] 42 CA 20 09 00 00 00 00
1768359215.658949 can0 581 [8] 42 CA 20 09 00 00 00 00
1768359215.659080 can0 601 [8] 42 CA 20 0A 00 00 00 00
1768359215.660068 can0 581 [8] 42 CA 20 0A 00 00 00 00
1768359215.660210 can0 601 [8] 42 D8 20 09 00 00 00 00
1768359215.661393 can0 581 [8] 42 D8 20 09 70 03 00 00
1768359215.661579 can0 601 [8] 42 0F 20 01 00 00 00 00
1768359215.662393 can0 581 [8] 42 0F 20 01 F0 1C 00 00
1768359215.662518 can0 601 [8] 42 D8 20 0C 00 00 00 00
1768359215.663697 can0 581 [8] 42 D8 20 0C C8 00 00 00
1768359215.663837 can0 601 [8] 42 D8 20 24 00 00 00 00
1768359215.665066 can0 581 [8] 42 D8 20 24 00 00 14 00
1768359215.665236 can0 601 [8] 21 3C 20 09 08 00 00 00
1768359215.666085 can0 581 [8] 60 3C 20 09 00 00 00 00
1768359215.666290 can0 601 [8] 00 FF 40 55 55 0D 00 00
1768359215.667066 can0 581 [8] 20 FF 40 55 00 00 00 00
1768359215.667180 can0 601 [8] 11 00 40 55 55 0D 00 00
1768359215.668251 can0 581 [8] 30 00 40 55 00 00 00 00
1768359215.668410 can0 601 [8] 40 3C 20 09 00 00 00 00
1768359215.669405 can0 581 [8] 40 3C 20 09 00 00 00 00
1768359215.669525 can0 601 [8] 60 3C 20 09 00 00 00 00
1768359215.670349 can0 581 [8] 00 FF 40 55 55 0D 00 00
1768359215.670469 can0 601 [8] 70 3C 20 09 00 00 00 00
1768359215.671293 can0 581 [8] 11 00 20 09 55 0D 00 00
1768359215.671425 can0 601 [8] 23 37 20 01 00 00 1E 00
1768359215.672391 can0 581 [8] 60 37 20 01 00 00 00 00
1768359215.672505 can0 601 [8] 23 37 20 02 11 11 00 00
1768359215.673483 can0 581 [8] 60 37 20 02 00 00 00 00
1768359215.673628 can0 601 [8] 23 37 20 03 11 11 00 00
1768359215.674606 can0 581 [8] 60 37 20 03 00 00 00 00
1768359215.674758 can0 601 [8] 23 37 20 04 55 55 00 00
1768359215.675697 can0 581 [8] 60 37 20 04 00 00 00 00
1768359215.675824 can0 601 [8] 23 37 20 05 AA AA 1A 00
1768359215.676798 can0 581 [8] 60 37 20 05 00 00 00 00
1768359215.676941 can0 601 [8] 23 37 20 06 56 55 E5 FF
1768359215.677891 can0 581 [8] 60 37 20 06 00 00 00 00
1768359215.678058 can0 601 [8] 23 37 20 07 00 00 00 00
1768359215.678955 can0 581 [8] 60 37 20 07 00 00 00 00
1768359215.679082 can0 601 [8] 23 39 20 01 00 00 00 00
1768359215.680108 can0 581 [8] 60 39 20 01 00 00 00 00
1768359215.680222 can0 601 [8] 23 39 20 02 00 00 00 00
1768359215.681256 can0 581 [8] 60 39 20 02 00 00 00 00
1768359215.681427 can0 601 [8] 23 39 20 03 00 00 00 40
1768359215.682410 can0 581 [8] 60 39 20 03 00 00 00 00
1768359215.682573 can0 601 [8] 23 39 20 04 00 00 00 80
1768359215.683552 can0 581 [8] 60 39 20 04 00 00 00 00
1768359215.683723 can0 601 [8] 23 39 20 05 64 00 00 00
1768359215.684702 can0 581 [8] 60 39 20 05 00 00 00 00
1768359215.684837 can0 601 [8] 23 39 20 06 64 00 00 00
1768359215.685848 can0 581 [8] 60 39 20 06 00 00 00 00
1768359215.686070 can0 601 [8] 23 39 20 07 A0 0F 00 00
1768359215.687066 can0 581 [8] 60 39 20 07 00 00 00 00
1768359215.687187 can0 601 [8] 23 39 20 08 00 00 00 40
1768359215.688154 can0 581 [8] 60 39 20 08 00 00 00 00
1768359215.688272 can0 601 [8] 23 39 20 09 00 00 00 80
1768359215.689294 can0 581 [8] 60 39 20 09 00 00 00 00
1768359215.689425 can0 601 [8] 23 39 20 0A 00 00 00 00
1768359215.690452 can0 581 [8] 60 39 20 0A 00 00 00 00
1768359215.690629 can0 601 [8] 23 39 20 0B 00 00 00 00
1768359215.691644 can0 581 [8] 60 39 20 0B 00 00 00 00
1768359215.691796 can0 601 [8] 42 03 14 01 00 00 00 00
1768359215.692638 can0 581 [8] 42 03 14 01 01 05 00 80
1768359215.692771 can0 601 [8] 23 03 14 01 01 05 00 80
1768359215.693731 can0 581 [8] 60 03 14 01 00 00 00 00
1768359215.693845 can0 601 [8] 23 03 14 01 01 05 00 00
1768359215.694808 can0 581 [8] 60 03 14 01 00 00 00 00
1768359215.695072 can0 601 [8] 2F 03 14 02 01 00 00 00
1768359215.695892 can0 581 [8] 60 03 14 02 00 00 00 00
1768359215.696069 can0 601 [8] 42 03 18 01 00 00 00 00
1768359215.696892 can0 581 [8] 42 03 18 01 81 01 00 00
1768359215.697070 can0 601 [8] 23 03 18 01 81 01 00 80
1768359215.697953 can0 581 [8] 60 03 18 01 00 00 00 00
1768359215.698071 can0 601 [8] 23 03 18 01 81 01 00 00
1768359215.699067 can0 581 [8] 60 03 18 01 00 00 00 00
1768359215.699215 can0 601 [8] 2F 03 18 02 01 00 00 00
1768359215.700062 can0 581 [8] 60 03 18 02 00 00 00 00
1768359215.700205 can0 601 [8] 42 14 18 01 00 00 00 00
1768359215.701066 can0 581 [8] 42 14 18 01 81 02 00 00
1768359215.701231 can0 601 [8] 23 14 18 01 81 02 00 80
1768359215.702109 can0 581 [8] 60 14 18 01 00 00 00 00
1768359215.702224 can0 601 [8] 23 14 18 01 81 02 00 00
1768359215.703211 can0 581 [8] 60 14 18 01 00 00 00 00
1768359215.703336 can0 601 [8] 2F 14 18 02 01 00 00 00
1768359215.704243 can0 581 [8] 60 14 18 02 00 00 00 00
1768359215.704363 can0 601 [8] 42 16 18 01 00 00 00 00
1768359215.705254 can0 581 [8] 42 16 18 01 81 03 00 00
1768359215.705381 can0 601 [8] 23 16 18 01 81 03 00 80
1768359215.706344 can0 581 [8] 60 16 18 01 00 00 00 00
1768359215.706467 can0 601 [8] 23 16 18 01 81 03 00 00
1768359215.707442 can0 581 [8] 60 16 18 01 00 00 00 00
1768359215.707610 can0 601 [8] 2F 16 18 02 01 00 00 00
1768359215.708549 can0 581 [8] 60 16 18 02 00 00 00 00
1768359215.708666 can0 601 [8] 42 19 18 01 00 00 00 00
1768359215.709555 can0 581 [8] 42 19 18 01 81 04 00 00
1768359215.709726 can0 601 [8] 23 19 18 01 81 04 00 80
1768359215.710649 can0 581 [8] 60 19 18 01 00 00 00 00
1768359215.710806 can0 601 [8] 2F 19 1A 00 00 00 00 00
1768359215.711694 can0 581 [8] 60 19 1A 00 00 00 00 00
1768359215.711817 can0 601 [8] 23 19 1A 01 10 01 0F 20
1768359215.712745 can0 581 [8] 60 19 1A 01 00 00 00 00
1768359215.712929 can0 601 [8] 23 19 1A 02 10 02 02 20
1768359215.713797 can0 581 [8] 60 19 1A 02 00 00 00 00
1768359215.713922 can0 601 [8] 23 19 1A 03 10 03 02 20
1768359215.714850 can0 581 [8] 60 19 1A 03 00 00 00 00
1768359215.715071 can0 601 [8] 23 19 1A 04 10 05 02 20
1768359215.715892 can0 581 [8] 60 19 1A 04 00 00 00 00
1768359215.716069 can0 601 [8] 2F 19 1A 00 04 00 00 00
1768359215.716942 can0 581 [8] 60 19 1A 00 00 00 00 00
1768359215.717070 can0 601 [8] 23 19 18 01 81 04 00 00
1768359215.718065 can0 581 [8] 60 19 18 01 00 00 00 00
1768359215.718184 can0 601 [8] 2F 19 18 02 01 00 00 00
1768359215.719096 can0 581 [8] 60 19 18 02 00 00 00 00
1768359215.719233 can0 000 [2] 80 01
1768359216.021675 can0 601 [8] 2B 40 60 00 80 00 00 00
1768359216.022485 can0 581 [8] 60 40 60 00 00 00 00 00
1768359216.123721 can0 601 [8] 2F 60 60 00 03 00 00 00
1768359216.124520 can0 581 [8] 60 60 60 00 00 00 00 00
1768359216.225756 can0 601 [8] 23 FF 60 00 00 00 00 00
1768359216.226530 can0 581 [8] 60 FF 60 00 00 00 00 00
1768359216.328027 can0 601 [8] 23 83 60 00 00 00 00 00
1768359216.328741 can0 581 [8] 80 83 60 00 00 00 02 06
1768359216.429318 can0 601 [8] 2B 40 60 00 80 00 00 00
1768359216.430207 can0 581 [8] 60 40 60 00 00 00 00 00
1768359216.530685 can0 601 [8] 2B 40 60 00 06 00 00 00
1768359216.531505 can0 581 [8] 60 40 60 00 00 00 00 00
1768359216.632099 can0 601 [8] 2B 40 60 00 07 00 00 00
1768359216.632824 can0 581 [8] 60 40 60 00 00 00 00 00
1768359216.733801 can0 601 [8] 2B 40 60 00 0F 00 00 00
1768359216.734518 can0 581 [8] 60 40 60 00 00 00 00 00
1768359216.835125 can0 000 [2] 01 01
1768359217.436968 can0 601 [8] 2B 86 60 00 02 00 00 00
1768359217.437701 can0 581 [8] 60 86 60 00 00 00 00 00
1768359217.438044 can0 601 [8] 21 3C 20 01 06 00 00 00
1768359217.438793 can0 581 [8] 60 3C 20 01 00 00 00 00
1768359217.439036 can0 601 [8] 01 3E C3 AE 00 00 00 00
1768359217.440094 can0 581 [8] 20 3E C3 AE 00 00 00 00
1768359217.440267 can0 601 [8] 21 3C 20 02 06 00 00 00
1768359217.441045 can0 581 [8] 60 3C 20 02 00 00 00 00
1768359217.441226 can0 601 [8] 01 3E C3 AE 00 00 00 00
1768359217.442282 can0 581 [8] 20 3E C3 AE 00 00 00 00
1768359217.442400 can0 601 [8] 21 3C 20 03 06 00 00 00
1768359217.443191 can0 581 [8] 60 3C 20 03 00 00 00 00
1768359217.443474 can0 601 [8] 01 3E C3 AE 00 00 00 00
1768359217.444530 can0 581 [8] 20 3E C3 AE 00 00 00 00
1768359217.444708 can0 601 [8] 21 3C 20 04 06 00 00 00
1768359217.445506 can0 581 [8] 60 3C 20 04 00 00 00 00
1768359217.445682 can0 601 [8] 01 3E C3 AE 00 00 00 00
1768359217.446736 can0 581 [8] 20 3E C3 AE 00 00 00 00
1768359217.446876 can0 601 [8] 2B 0C 10 00 0A 00 00 00
1768359217.447637 can0 581 [8] 60 0C 10 00 00 00 00 00
1768359217.447757 can0 601 [8] 2F 0D 10 00 FA 00 00 00
1768359217.448536 can0 581 [8] 60 0D 10 00 00 00 00 00
1768359217.448837 can0 601 [8] 2B 5A 20 40 00 00 00 00
1768359217.450437 can0 581 [8] 60 5A 20 40 00 00 00 00
1768359217.450596 can0 601 [8] 2B 5A 20 2E 01 00 00 00
1768359217.452188 can0 581 [8] 60 5A 20 2E 00 00 00 00
1768359217.452346 can0 601 [8] 2B 5A 20 01 00 00 00 00
1768359217.453937 can0 581 [8] 60 5A 20 01 00 00 00 00
1768359217.454070 can0 601 [8] 2B 65 20 2B 0A 00 00 00
1768359217.455374 can0 581 [8] 60 65 20 2B 00 00 00 00
1768359217.455507 can0 601 [8] 42 41 60 00 00 00 00 00
1768359217.456287 can0 581 [8] 42 41 60 00 28 06 00 00
1768359217.656949 can0 501 [8] 80 00 00 00 00 00 00 00
1768359217.660175 can0 080 [0] 
1768359217.660904 can0 181 [6] 28 06 FF FF FF FF
1768359217.660906 can0 381 [2] 0B 00
1768359217.661160 can0 281 [4] 24 4B 07 00
1768359217.661403 can0 481 [8] EC 1C 00 00 00 04 03 00
1768359217.668360 can0 501 [8] 06 00 00 00 00 00 00 00
1768359217.670499 can0 080 [0] 
1768359217.671223 can0 181 [6] 28 06 FF FF FF FF
1768359217.671224 can0 381 [2] F9 FF
1768359217.671513 can0 281 [4] 24 4B 07 00
1768359217.671513 can0 481 [8] F1 1C 00 00 00 04 03 00
1768359217.678614 can0 501 [8] 06 00 00 00 00 00 00 00
1768359217.680755 can0 080 [0] 
1768359217.681504 can0 181 [6] 28 06 FF FF FF FF
1768359217.681504 can0 381 [2] 09 00
1768359217.681789 can0 281 [4] 24 4B 07 00
1768359217.681789 can0 481 [8] F2 1C 00 00 00 04 03 00
1768359217.688871 can0 501 [8] 06 00 00 00 00 00 00 00
1768359217.691067 can0 080 [0] 
1768359217.691756 can0 181 [6] 28 06 FF FF FF FF
1768359217.691756 can0 381 [2] 1F 00
1768359217.692030 can0 281 [4] 24 4B 07 00
1768359217.692260 can0 481 [8] F3 1C 00 00 00 04 03 00
1768359217.699086 can0 501 [8] 06 00 00 00 00 00 00 00
1768359217.701183 can0 080 [0] 
1768359217.702033 can0 181 [6] 28 06 FF FF FF FF
1768359217.702034 can0 381 [2] F9 FF
1768359217.702317 can0 281 [4] 24 4B 07 00
1768359217.702318 can0 481 [8] EE 1C 00 00 00 04 03 00
1768359217.709333 can0 501 [8] 06 00 00 00 00 00 00 00
1768359217.711428 can0 080 [0] 
1768359217.712199 can0 181 [6] 28 06 FF FF FF FF
1768359217.712200 can0 381 [2] FA FF
1768359217.712434 can0 281 [4] 24 4B 07 00
1768359217.712669 can0 481 [8] F0 1C 00 00 00 04 03 00
1768359217.719541 can0 501 [8] 07 00 00 00 00 00 00 00
1768359217.721622 can0 080 [0] 
1768359217.722366 can0 181 [6] 28 06 FF FF FF FF
1768359217.722367 can0 381 [2] 13 00
1768359217.722629 can0 281 [4] 24 4B 07 00
1768359217.722867 can0 481 [8] F0 1C 00 00 00 04 03 00
1768359217.729748 can0 501 [8] 07 00 00 00 00 00 00 00
1768359217.731833 can0 080 [0] 
1768359217.732566 can0 181 [6] 28 06 FF FF FF FF
1768359217.732567 can0 381 [2] F9 FF
1768359217.732833 can0 281 [4] 24 4B 07 00
1768359217.733058 can0 481 [8] F2 1C 00 00 00 04 03 00
1768359217.740067 can0 501 [8] 07 00 00 00 00 00 00 00
1768359217.742056 can0 080 [0] 
1768359217.742818 can0 181 [6] 28 06 FF FF FF FF
1768359217.742819 can0 381 [2] 02 00
1768359217.743104 can0 281 [4] 24 4B 07 00
1768359217.743304 can0 481 [8] F3 1C 00 00 00 04 03 00
1768359217.750218 can0 501 [8] 07 00 00 00 00 00 00 00
1768359217.752290 can0 080 [0] 
1768359217.753062 can0 181 [6] 28 06 FF FF FF FF
1768359217.753063 can0 381 [2] 02 00
1768359217.753313 can0 281 [4] 24 4B 07 00
1768359217.753314 can0 481 [8] F2 1C 00 00 00 04 03 00
1768359217.760422 can0 501 [8] 07 00 00 00 00 00 00 00
1768359217.762526 can0 080 [0] 
1768359217.763358 can0 181 [6] 28 06 FF FF FF FF
1768359217.763359 can0 381 [2] FC FF
1768359217.763648 can0 281 [4] 24 4B 07 00
1768359217.763649 can0 481 [8] F0 1C 00 00 00 04 03 00
1768359217.770696 can0 501 [8] 0F 00 00 00 00 00 00 00
1768359217.772760 can0 080 [0] 
1768359217.773560 can0 181 [6] 28 06 FF FF FF FF
1768359217.773561 can0 381 [2] 11 00
1768359217.773829 can0 281 [4] 24 4B 07 00
1768359217.774091 can0 481 [8] EC 1C 00 00 00 04 03 00
1768359217.780863 can0 501 [8] 0F 00 00 00 00 00 00 00
1768359217.783045 can0 080 [0] 
1768359217.783853 can0 181 [6] 28 06 FF FF FF FF
1768359217.783854 can0 381 [2] FC FF
1768359217.784117 can0 281 [4] 24 4B 07 00
1768359217.784350 can0 481 [8] EF 1C 00 00 00 04 03 00
1768359217.791100 can0 501 [8] 0F 00 00 00 00 00 00 00
1768359217.793173 can0 080 [0] 
1768359217.793906 can0 181 [6] 28 06 FF FF FF FF
1768359217.793907 can0 381 [2] 17 00
1768359217.794260 can0 281 [4] 24 4B 07 00
1768359217.794261 can0 481 [8] EE 1C 00 00 00 04 03 00
1768359217.801273 can0 501 [8] 0F 00 00 00 00 00 00 00
1768359217.803377 can0 080 [0] 
1768359217.804115 can0 181 [6] 28 06 FF FF FF FF
1768359217.804116 can0 381 [2] 0A 00
1768359217.804380 can0 281 [4] 24 4B 07 00
1768359217.804612 can0 481 [8] EF 1C 00 00 00 04 03 00
1768359217.811567 can0 501 [8] 0F 00 00 00 00 00 00 00
1768359217.813713 can0 080 [0] 
1768359217.814458 can0 181 [6] 28 06 FF FF FF FF
1768359217.814459 can0 381 [2] FA FF
1768359217.814744 can0 281 [4] 24 4B 07 00
1768359217.814744 can0 481 [8] F0 1C 00 00 00 04 03 00
1768359217.821867 can0 501 [8] 0F 00 00 00 00 00 00 00
1768359217.824031 can0 080 [0] 
1768359217.824808 can0 181 [6] 28 06 FF FF FF FF
1768359217.824809 can0 381 [2] 05 00
1768359217.825095 can0 281 [4] 24 4B 07 00
1768359217.825095 can0 481 [8] EE 1C 00 00 00 04 03 00
1768359217.832186 can0 501 [8] 0F 00 00 00 00 00 00 00
1768359217.834311 can0 080 [0] 
1768359217.835106 can0 181 [6] 28 06 FF FF FF FF
1768359217.835107 can0 381 [2] 14 00
1768359217.835393 can0 281 [4] 24 4B 07 00
1768359217.835394 can0 481 [8] EF 1C 00 00 00 04 03 00
1768359217.842492 can0 501 [8] 0F 00 00 00 00 00 00 00
1768359217.844656 can0 080 [0] 
1768359217.845363 can0 181 [6] 28 06 FF FF FF FF
1768359217.845364 can0 381 [2] F5 FF
1768359217.845619 can0 281 [4] 24 4B 07 00
1768359217.845848 can0 481 [8] ED 1C 00 00 00 04 03 00
1768359217.852817 can0 501 [8] 0F 00 00 00 00 00 00 00
1768359217.855029 can0 080 [0] 
1768359217.855763 can0 181 [6] 28 06 FF FF FF FF
1768359217.855765 can0 381 [2] FA FF
1768359217.856028 can0 281 [4] 24 4B 07 00
1768359217.856256 can0 481 [8] F1 1C 00 00 00 04 03 00
1768359217.863209 can0 501 [8] 0F 00 00 00 00 00 00 00
1768359217.865398 can0 080 [0] 
1768359217.866214 can0 181 [6] 28 06 FF FF FF FF
1768359217.866215 can0 381 [2] 0B 00
1768359217.866470 can0 281 [4] 24 4B 07 00
1768359217.866698 can0 481 [8] EB 1C 00 00 00 04 03 00
1768359218.874570 can0 501 [8] 0F 00 99 99 03 00 00 00
1768359218.878090 can0 080 [0] 
1768359218.878858 can0 181 [6] 28 06 FF FF FF FF
1768359218.878860 can0 381 [2] F1 FF
1768359218.879140 can0 281 [4] 24 4B 07 00
1768359218.879142 can0 481 [8] ED 1C 00 00 00 04 03 00
1768359218.886358 can0 501 [8] 0F 00 99 99 03 00 00 00
1768359218.888482 can0 080 [0] 
1768359218.889223 can0 181 [6] 28 02 FF FF FF FF
1768359218.889225 can0 381 [2] 05 00
1768359218.889492 can0 281 [4] 24 4B 07 00
1768359218.889696 can0 481 [8] F1 1C 00 00 00 04 05 00
1768359218.896592 can0 501 [8] 0F 00 99 99 03 00 00 00
1768359218.898716 can0 080 [0] 
1768359218.899519 can0 181 [6] 28 02 FF FF FF FF
1768359218.899520 can0 381 [2] 0B 00
1768359218.899781 can0 281 [4] 24 4B 07 00
1768359218.900008 can0 481 [8] F3 1C 00 00 00 04 05 00
1768359218.906865 can0 501 [8] 0F 00 99 99 03 00 00 00
1768359218.909014 can0 080 [0] 
1768359218.909822 can0 181 [6] 28 02 FF FF FF FF
1768359218.909822 can0 381 [2] F5 FF
1768359218.910105 can0 281 [4] 24 4B 07 00
1768359218.910106 can0 481 [8] F2 1C 00 00 00 04 05 00
1768359218.917102 can0 501 [8] 0F 00 99 99 03 00 00 00
1768359218.919242 can0 080 [0] 
1768359218.920011 can0 181 [6] 28 02 FF FF FF FF
1768359218.920011 can0 381 [2] F9 FF
1768359218.920300 can0 281 [4] 24 4B 07 00
1768359218.920301 can0 481 [8] EF 1C 00 00 00 04 05 00
1768359218.927356 can0 501 [8] 0F 00 99 99 03 00 00 00
1768359218.929449 can0 080 [0] 
1768359218.930178 can0 181 [6] 28 02 FF FF FF FF
1768359218.930179 can0 381 [2] 04 00
1768359218.930446 can0 281 [4] 24 4B 07 00
1768359218.930675 can0 481 [8] EE 1C 00 00 00 04 05 00
1768359218.937589 can0 501 [8] 0F 00 99 99 03 00 00 00
1768359218.939694 can0 080 [0] 
1768359218.940420 can0 181 [6] 28 02 FF FF FF FF
1768359218.940420 can0 381 [2] 08 00
1768359218.940683 can0 281 [4] 24 4B 07 00
1768359218.940915 can0 481 [8] F1 1C 00 00 00 04 05 00
1768359218.947834 can0 501 [8] 0F 00 99 99 03 00 00 00
1768359218.950046 can0 080 [0] 
1768359218.950761 can0 181 [6] 28 02 FF FF FF FF
1768359218.950762 can0 381 [2] F8 FF
1768359218.951051 can0 281 [4] 24 4B 07 00
1768359218.951051 can0 481 [8] F2 1C 00 00 00 04 05 00
1768359218.958095 can0 501 [8] 0F 00 99 99 03 00 00 00
1768359218.960215 can0 080 [0] 
1768359218.961061 can0 181 [6] 28 02 FF FF FF FF
1768359218.961062 can0 381 [2] E2 FF
1768359218.961343 can0 281 [4] 24 4B 07 00
1768359218.961343 can0 481 [8] F4 1C 00 00 00 04 05 00
1768359218.968379 can0 501 [8] 0F 00 99 99 03 00 00 00
1768359218.970516 can0 080 [0] 
1768359218.971257 can0 181 [6] 28 02 FF FF FF FF
1768359218.971257 can0 381 [2] 03 00
1768359218.971550 can0 281 [4] 24 4B 07 00
1768359218.971551 can0 481 [8] F4 1C 00 00 00 04 05 00
1768359218.978680 can0 501 [8] 0F 00 99 99 03 00 00 00
1768359218.980807 can0 080 [0] 
1768359218.981583 can0 181 [6] 28 02 FF FF FF FF
1768359218.981584 can0 381 [2] 09 00
1768359218.981856 can0 281 [4] 24 4B 07 00
1768359218.981857 can0 481 [8] F0 1C 00 00 00 04 05 00
1768359218.989018 can0 501 [8] 0F 00 99 99 03 00 00 00
1768359218.991042 can0 080 [0] 
1768359218.991816 can0 181 [6] 28 02 FF FF FF FF
1768359218.991817 can0 381 [2] F4 FF
1768359218.992106 can0 281 [4] 24 4B 07 00
1768359218.992107 can0 481 [8] F2 1C 00 00 00 04 05 00
1768359218.999177 can0 501 [8] 0F 00 99 99 03 00 00 00
1768359219.001286 can0 080 [0] 
1768359219.002019 can0 181 [6] 28 02 FF FF FF FF
1768359219.002020 can0 381 [2] FF FF
1768359219.002284 can0 281 [4] 24 4B 07 00
1768359219.002517 can0 481 [8] EF 1C 00 00 00 04 05 00
1768359219.009439 can0 501 [8] 0F 00 99 99 03 00 00 00
1768359219.011534 can0 080 [0] 
1768359219.012356 can0 181 [6] 28 02 FF FF FF FF
1768359219.012356 can0 381 [2] 0A 00
1768359219.012658 can0 281 [4] 24 4B 07 00
1768359219.012659 can0 481 [8] EE 1C 00 00 00 04 05 00
1768359219.019666 can0 501 [8] 0F 00 99 99 03 00 00 00
1768359219.021792 can0 080 [0] 
1768359219.022562 can0 181 [6] 28 02 FF FF FF FF
1768359219.022563 can0 381 [2] 0F 00
1768359219.022852 can0 281 [4] 24 4B 07 00
1768359219.022853 can0 481 [8] F2 1C 00 00 00 04 05 00
1768359219.030011 can0 501 [8] 0F 00 99 99 03 00 00 00
1768359219.032043 can0 080 [0] 
1768359219.032857 can0 181 [6] 28 02 FF FF FF FF
1768359219.032858 can0 381 [2] FB FF
1768359219.033143 can0 281 [4] 24 4B 07 00
1768359219.033144 can0 481 [8] EF 1C 00 00 00 04 05 00
1768359219.040229 can0 501 [8] 0F 00 99 99 03 00 00 00
1768359219.042324 can0 080 [0] 
1768359219.043073 can0 181 [6] 28 02 FF FF FF FF
1768359219.043074 can0 381 [2] F3 FF
1768359219.043336 can0 281 [4] 24 4B 07 00
1768359219.043563 can0 481 [8] F3 1C 00 00 00 04 05 00
1768359219.050446 can0 501 [8] 0F 00 99 99 03 00 00 00
1768359219.052536 can0 080 [0] 
1768359219.053267 can0 181 [6] 28 02 FF FF FF FF
1768359219.053268 can0 381 [2] 03 00
1768359219.053526 can0 281 [4] 24 4B 07 00
1768359219.053765 can0 481 [8] F3 1C 00 00 00 04 05 00
1768359219.060671 can0 501 [8] 0F 00 99 99 03 00 00 00
1768359219.062751 can0 080 [0] 
1768359219.063558 can0 181 [6] 28 02 FF FF FF FF
1768359219.063559 can0 381 [2] F3 FF
1768359219.063826 can0 281 [4] 24 4B 07 00
1768359219.064056 can0 481 [8] F3 1C 00 00 00 04 05 00
1768359219.070868 can0 501 [8] 0F 00 99 99 03 00 00 00
1768359219.073014 can0 080 [0] 
1768359219.073766 can0 181 [6] 28 02 FF FF FF FF
1768359219.073767 can0 381 [2] 11 00
1768359219.074056 can0 281 [4] 24 4B 07 00
1768359219.074056 can0 481 [8] EF 1C 00 00 00 04 05 00
1768359219.081122 can0 501 [8] 0F 00 99 99 03 00 00 00
1768359219.083205 can0 080 [0] 
1768359219.084066 can0 181 [6] 28 02 FF FF FF FF
1768359219.084067 can0 381 [2] DF FF
1768359219.084352 can0 281 [4] 24 4B 07 00
1768359219.084352 can0 481 [8] F0 1C 00 00 00 04 05 00
1768359219.091388 can0 501 [8] 0F 00 99 99 03 00 00 00
1768359219.093479 can0 080 [0] 
1768359219.094217 can0 181 [6] 28 02 FF FF FF FF
1768359219.094217 can0 381 [2] 08 00
1768359219.094491 can0 281 [4] 24 4B 07 00
1768359219.094714 can0 481 [8] F1 1C 00 00 00 04 05 00
1768359219.101605 can0 501 [8] 0F 00 99 99 03 00 00 00
1768359219.103684 can0 080 [0] 
1768359219.104451 can0 181 [6] 28 02 FF FF FF FF
1768359219.104452 can0 381 [2] FF FF
1768359219.104743 can0 281 [4] 24 4B 07 00
1768359219.104744 can0 481 [8] EF 1C 00 00 00 04 05 00
1768359219.111840 can0 501 [8] 0F 00 99 99 03 00 00 00
1768359219.114012 can0 080 [0] 
1768359219.114707 can0 181 [6] 28 02 FF FF FF FF
1768359219.114707 can0 381 [2] EC FF
1768359219.115005 can0 281 [4] 24 4B 07 00
1768359219.115228 can0 481 [8] EE 1C 00 00 00 04 05 00
1768359219.122105 can0 501 [8] 0F 00 99 99 03 00 00 00
1768359219.124254 can0 080 [0] 
1768359219.125008 can0 181 [6] 28 02 FF FF FF FF
1768359219.125008 can0 381 [2] DD FF
1768359219.125292 can0 281 [4] 24 4B 07 00
1768359219.125292 can0 481 [8] EF 1C 00 00 00 04 05 00
1768359219.132363 can0 501 [8] 0F 00 99 99 03 00 00 00
1768359219.134485 can0 080 [0] 
1768359219.135226 can0 181 [6] 28 02 FF FF FF FF
1768359219.135227 can0 381 [2] FB FF
1768359219.135507 can0 281 [4] 24 4B 07 00
1768359219.135508 can0 481 [8] EF 1C 00 00 00 04 05 00
1768359219.142614 can0 501 [8] 0F 00 99 99 03 00 00 00
1768359219.144722 can0 080 [0] 
1768359219.145561 can0 181 [6] 28 02 FF FF FF FF
1768359219.145562 can0 381 [2] 03 00
1768359219.145855 can0 281 [4] 24 4B 07 00
1768359219.145857 can0 481 [8] F0 1C 00 00 00 04 05 00
1768359219.152858 can0 501 [8] 0F 00 99 99 03 00 00 00
1768359219.155036 can0 080 [0] 
1768359219.155853 can0 181 [6] 28 02 FF FF FF FF
1768359219.155854 can0 381 [2] FD FF
1768359219.156148 can0 281 [4] 24 4B 07 00
1768359219.156149 can0 481 [8] ED 1C 00 00 00 04 05 00
1768359219.163114 can0 501 [8] 0F 00 99 99 03 00 00 00
1768359219.165259 can0 080 [0] 
1768359219.166038 can0 181 [6] 28 02 FF FF FF FF
1768359219.166039 can0 381 [2] 03 00
1768359219.166298 can0 281 [4] 24 4B 07 00
1768359219.166300 can0 481 [8] F1 1C 00 00 00 04 05 00
1768359219.173369 can0 501 [8] 0F 00 99 99 03 00 00 00
1768359219.175475 can0 080 [0] 
1768359219.176210 can0 181 [6] 28 02 FF FF FF FF
1768359219.176211 can0 381 [2] FA FF
1768359219.176473 can0 281 [4] 24 4B 07 00
1768359219.176697 can0 481 [8] F0 1C 00 00 00 04 05 00
1768359219.183598 can0 501 [8] 0F 00 99 99 03 00 00 00
1768359219.185708 can0 080 [0] 
1768359219.186448 can0 181 [6] 28 02 FF FF FF FF
1768359219.186449 can0 381 [2] F2 FF
1768359219.186740 can0 281 [4] 24 4B 07 00
1768359219.186741 can0 481 [8] ED 1C 00 00 00 04 05 00
1768359219.193839 can0 501 [8] 0F 00 99 99 03 00 00 00
1768359219.196011 can0 080 [0] 
1768359219.196773 can0 181 [6] 28 02 FF FF FF FF
1768359219.196774 can0 381 [2] F7 FF
1768359219.197060 can0 281 [4] 24 4B 07 00
1768359219.197060 can0 481 [8] F0 1C 00 00 00 04 05 00
1768359219.204078 can0 501 [8] 0F 00 99 99 03 00 00 00
1768359219.206199 can0 080 [0] 
1768359219.207007 can0 181 [6] 28 02 FF FF FF FF
1768359219.207008 can0 381 [2] 10 00
1768359219.207288 can0 281 [4] 24 4B 07 00
1768359219.207289 can0 481 [8] EE 1C 00 00 00 04 05 00
1768359219.214332 can0 501 [8] 0F 00 99 99 03 00 00 00
1768359219.216445 can0 080 [0] 
1768359219.217166 can0 181 [6] 28 02 FF FF FF FF
1768359219.217167 can0 381 [2] FA FF
1768359219.217430 can0 281 [4] 24 4B 07 00
1768359219.217664 can0 481 [8] ED 1C 00 00 00 04 05 00
1768359219.224557 can0 501 [8] 0F 00 99 99 03 00 00 00
1768359219.226649 can0 080 [0] 
1768359219.227367 can0 181 [6] 28 02 FF FF FF FF
1768359219.227368 can0 381 [2] 22 00
1768359219.227626 can0 281 [4] 24 4B 07 00
1768359219.227871 can0 481 [8] EA 1C 00 00 00 04 05 00
1768359219.234792 can0 501 [8] 0F 00 99 99 03 00 00 00
1768359219.236887 can0 080 [0] 
1768359219.237658 can0 181 [6] 28 02 FF FF FF FF
1768359219.237658 can0 381 [2] F6 FF
1768359219.237920 can0 281 [4] 24 4B 07 00
1768359219.238172 can0 481 [8] EE 1C 00 00 00 04 05 00
1768359219.245043 can0 501 [8] 0F 00 99 99 03 00 00 00
1768359219.247138 can0 080 [0] 
1768359219.247864 can0 181 [6] 28 02 FF FF FF FF
1768359219.247864 can0 381 [2] FB FF
1768359219.248154 can0 281 [4] 24 4B 07 00
1768359219.248154 can0 481 [8] EE 1C 00 00 00 04 05 00
1768359219.255264 can0 501 [8] 0F 00 99 99 03 00 00 00
1768359219.257354 can0 080 [0] 
1768359219.258118 can0 181 [6] 28 02 FF FF FF FF
1768359219.258119 can0 381 [2] F3 FF
1768359219.258383 can0 281 [4] 24 4B 07 00
1768359219.258610 can0 481 [8] ED 1C 00 00 00 04 05 00
1768359219.265475 can0 501 [8] 0F 00 99 99 03 00 00 00
1768359219.267575 can0 080 [0] 
1768359219.268407 can0 181 [6] 28 02 FF FF FF FF
1768359219.268407 can0 381 [2] 00 00
1768359219.268689 can0 281 [4] 24 4B 07 00
1768359219.268689 can0 481 [8] EE 1C 00 00 00 04 05 00
1768359219.275809 can0 501 [8] 0F 00 99 99 03 00 00 00
1768359219.277912 can0 080 [0] 
1768359219.278658 can0 181 [6] 28 02 FF FF FF FF
1768359219.278659 can0 381 [2] 01 00
1768359219.278927 can0 281 [4] 24 4B 07 00
1768359219.279172 can0 481 [8] EE 1C 00 00 00 04 05 00
1768359219.286075 can0 501 [8] 0F 00 99 99 03 00 00 00
1768359219.288187 can0 080 [0] 
1768359219.288918 can0 181 [6] 28 02 FF FF FF FF
1768359219.288918 can0 381 [2] EB FF
1768359219.289247 can0 281 [4] 24 4B 07 00
1768359219.289247 can0 481 [8] F1 1C 00 00 00 04 05 00
1768359219.296349 can0 501 [8] 0F 00 99 99 03 00 00 00
1768359219.298437 can0 080 [0] 
1768359219.299178 can0 181 [6] 28 02 FF FF FF FF
1768359219.299180 can0 381 [2] 01 00
1768359219.299443 can0 281 [4] 24 4B 07 00
1768359219.299678 can0 481 [8] F0 1C 00 00 00 04 05 00
1768359219.306578 can0 501 [8] 0F 00 99 99 03 00 00 00
1768359219.308678 can0 080 [0] 
1768359219.309411 can0 181 [6] 28 02 FF FF FF FF
1768359219.309412 can0 381 [2] 01 00
1768359219.309668 can0 281 [4] 24 4B 07 00
1768359219.309896 can0 481 [8] F5 1C 00 00 00 04 05 00
1768359219.316807 can0 501 [8] 0F 00 99 99 03 00 00 00
1768359219.318888 can0 080 [0] 
1768359219.319609 can0 181 [6] 28 02 FF FF FF FF
1768359219.319609 can0 381 [2] FB FF
1768359219.319894 can0 281 [4] 24 4B 07 00
1768359219.319895 can0 481 [8] F4 1C 00 00 00 04 05 00
1768359219.327068 can0 501 [8] 0F 00 99 99 03 00 00 00
1768359219.329176 can0 080 [0] 
1768359219.330006 can0 181 [6] 28 02 FF FF FF FF
1768359219.330007 can0 381 [2] EC FF
1768359219.330280 can0 281 [4] 24 4B 07 00
1768359219.330281 can0 481 [8] F0 1C 00 00 00 04 05 00
1768359219.337306 can0 501 [8] 0F 00 99 99 03 00 00 00
1768359219.339413 can0 080 [0] 
1768359219.340160 can0 181 [6] 28 02 FF FF FF FF
1768359219.340161 can0 381 [2] F1 FF
1768359219.340425 can0 281 [4] 24 4B 07 00
1768359219.340653 can0 481 [8] ED 1C 00 00 00 04 05 00
1768359219.347608 can0 501 [8] 0F 00 99 99 03 00 00 00
1768359219.349710 can0 080 [0] 
1768359219.350447 can0 181 [6] 28 02 FF FF FF FF
1768359219.350448 can0 381 [2] EE FF
1768359219.350720 can0 281 [4] 24 4B 07 00
1768359219.351002 can0 481 [8] F1 1C 00 00 00 04 05 00
1768359219.357828 can0 501 [8] 0F 00 99 99 03 00 00 00
1768359219.360006 can0 080 [0] 
1768359219.360701 can0 181 [6] 28 02 FF FF FF FF
1768359219.360702 can0 381 [2] 05 00
1768359219.361001 can0 281 [4] 24 4B 07 00
1768359219.361224 can0 481 [8] EF 1C 00 00 00 04 05 00
1768359219.368058 can0 501 [8] 0F 00 99 99 03 00 00 00
1768359219.370164 can0 080 [0] 
1768359219.370908 can0 181 [6] 28 02 FF FF FF FF
1768359219.370909 can0 381 [2] 15 00
1768359219.371245 can0 281 [4] 24 4B 07 00
1768359219.371246 can0 481 [8] F1 1C 00 00 00 04 05 00
1768359219.378287 can0 501 [8] 0F 00 99 99 03 00 00 00
1768359219.380386 can0 080 [0] 
1768359219.381106 can0 181 [6] 28 02 FF FF FF FF
1768359219.381107 can0 381 [2] F1 FF
1768359219.381378 can0 281 [4] 24 4B 07 00
1768359219.381606 can0 481 [8] F0 1C 00 00 00 04 05 00
1768359219.388510 can0 501 [8] 0F 00 99 99 03 00 00 00
1768359219.390625 can0 080 [0] 
1768359219.391407 can0 181 [6] 28 02 FF FF FF FF
1768359219.391408 can0 381 [2] E9 FF
1768359219.391693 can0 281 [4] 24 4B 07 00
1768359219.391694 can0 481 [8] F1 1C 00 00 00 04 05 00
1768359219.398753 can0 501 [8] 0F 00 99 99 03 00 00 00
1768359219.400859 can0 080 [0] 
1768359219.401648 can0 181 [6] 28 02 FF FF FF FF
1768359219.401649 can0 381 [2] FD FF
1768359219.402000 can0 281 [4] 24 4B 07 00
1768359219.402000 can0 481 [8] F2 1C 00 00 00 04 05 00
1768359219.409008 can0 501 [8] 0F 00 99 99 03 00 00 00
1768359219.411078 can0 080 [0] 
1768359219.411901 can0 181 [6] 28 02 FF FF FF FF
1768359219.411902 can0 381 [2] FB FF
1768359219.412233 can0 281 [4] 24 4B 07 00
1768359219.412234 can0 481 [8] F0 1C 00 00 00 04 05 00
1768359219.419194 can0 501 [8] 0F 00 99 99 03 00 00 00
1768359219.421298 can0 080 [0] 
1768359219.422052 can0 181 [6] 28 02 FF FF FF FF
1768359219.422052 can0 381 [2] 14 00
1768359219.422321 can0 281 [4] 24 4B 07 00
1768359219.422549 can0 481 [8] EE 1C 00 00 00 04 05 00
1768359219.429414 can0 501 [8] 0F 00 99 99 03 00 00 00
1768359219.431524 can0 080 [0] 
1768359219.432249 can0 181 [6] 28 02 FF FF FF FF
1768359219.432250 can0 381 [2] 08 00
1768359219.432518 can0 281 [4] 24 4B 07 00
1768359219.432746 can0 481 [8] F3 1C 00 00 00 04 05 00
1768359219.439747 can0 501 [8] 0F 00 99 99 03 00 00 00
1768359219.441811 can0 080 [0] 
1768359219.442603 can0 181 [6] 28 02 FF FF FF FF
1768359219.442604 can0 381 [2] 15 00
1768359219.442860 can0 281 [4] 24 4B 07 00
1768359219.443091 can0 481 [8] EE 1C 00 00 00 04 05 00
1768359219.450006 can0 501 [8] 0F 00 99 99 03 00 00 00
1768359219.452027 can0 080 [0] 
1768359219.452814 can0 181 [6] 28 02 FF FF FF FF
1768359219.452815 can0 381 [2] 0B 00
1768359219.453098 can0 281 [4] 24 4B 07 00
1768359219.453098 can0 481 [8] EA 1C 00 00 00 04 05 00
1768359219.460262 can0 501 [8] 0F 00 99 99 03 00 00 00
1768359219.462306 can0 080 [0] 
1768359219.463147 can0 181 [6] 28 02 FF FF FF FF
1768359219.463148 can0 381 [2] 08 00
1768359219.463436 can0 281 [4] 24 4B 07 00
1768359219.463437 can0 481 [8] F1 1C 00 00 00 04 05 00
1768359219.470417 can0 501 [8] 0F 00 99 99 03 00 00 00
1768359219.472506 can0 080 [0] 
1768359219.473210 can0 181 [6] 28 02 FF FF FF FF
1768359219.473211 can0 381 [2] 15 00
1768359219.473510 can0 281 [4] 24 4B 07 00
1768359219.473736 can0 481 [8] ED 1C 00 00 00 04 05 00
1768359219.480627 can0 501 [8] 0F 00 99 99 03 00 00 00
1768359219.482689 can0 080 [0] 
1768359219.483454 can0 181 [6] 28 02 FF FF FF FF
1768359219.483455 can0 381 [2] E5 FF
1768359219.483739 can0 281 [4] 24 4B 07 00
1768359219.483740 can0 481 [8] F2 1C 00 00 00 04 05 00
1768359219.490823 can0 501 [8] 0F 00 99 99 03 00 00 00
1768359219.492908 can0 080 [0] 
1768359219.493708 can0 181 [6] 28 02 FF FF FF FF
1768359219.493709 can0 381 [2] 01 00
1768359219.493993 can0 281 [4] 24 4B 07 00
1768359219.493994 can0 481 [8] F1 1C 00 00 00 04 05 00
1768359219.501014 can0 501 [8] 0F 00 99 99 03 00 00 00
1768359219.503133 can0 080 [0] 
1768359219.503853 can0 181 [6] 28 02 FF FF FF FF
1768359219.503854 can0 381 [2] 06 00
1768359219.504116 can0 281 [4] 24 4B 07 00
1768359219.504350 can0 481 [8] ED 1C 00 00 00 04 05 00
1768359219.511259 can0 501 [8] 0F 00 99 99 03 00 00 00
1768359219.513353 can0 080 [0] 
1768359219.514147 can0 181 [6] 28 02 FF FF FF FF
1768359219.514149 can0 381 [2] 12 00
1768359219.514435 can0 281 [4] 24 4B 07 00
1768359219.514436 can0 481 [8] EF 1C 00 00 00 04 05 00
1768359219.521466 can0 501 [8] 0F 00 99 99 03 00 00 00
1768359219.523585 can0 080 [0] 
1768359219.524305 can0 181 [6] 28 02 FF FF FF FF
1768359219.524306 can0 381 [2] 09 00
1768359219.524568 can0 281 [4] 24 4B 07 00
1768359219.524790 can0 481 [8] EE 1C 00 00 00 04 05 00
1768359219.531703 can0 501 [8] 0F 00 99 99 03 00 00 00
1768359219.533787 can0 080 [0] 
1768359219.534647 can0 181 [6] 28 02 FF FF FF FF
1768359219.534648 can0 381 [2] DD FF
1768359219.534917 can0 281 [4] 24 4B 07 00
1768359219.535186 can0 481 [8] F2 1C 00 00 00 04 05 00
1768359219.542001 can0 501 [8] 0F 00 99 99 03 00 00 00
1768359219.544020 can0 080 [0] 
1768359219.544750 can0 181 [6] 28 02 FF FF FF FF
1768359219.544751 can0 381 [2] FD FF
1768359219.545010 can0 281 [4] 24 4B 07 00
1768359219.545245 can0 481 [8] F0 1C 00 00 00 04 05 00
1768359219.552139 can0 501 [8] 0F 00 99 99 03 00 00 00
1768359219.554241 can0 080 [0] 
1768359219.554999 can0 181 [6] 28 02 FF FF FF FF
1768359219.555000 can0 381 [2] 16 00
1768359219.555258 can0 281 [4] 24 4B 07 00
1768359219.555486 can0 481 [8] F4 1C 00 00 00 04 05 00
1768359219.562365 can0 501 [8] 0F 00 99 99 03 00 00 00
1768359219.564473 can0 080 [0] 
1768359219.565203 can0 181 [6] 28 02 FF FF FF FF
1768359219.565204 can0 381 [2] 1E 00
1768359219.565468 can0 281 [4] 24 4B 07 00
1768359219.565701 can0 481 [8] F0 1C 00 00 00 04 05 00
1768359219.572582 can0 501 [8] 0F 00 99 99 03 00 00 00
1768359219.574673 can0 080 [0] 
1768359219.575402 can0 181 [6] 28 02 FF FF FF FF
1768359219.575403 can0 381 [2] 15 00
1768359219.575666 can0 281 [4] 24 4B 07 00
1768359219.575898 can0 481 [8] EC 1C 00 00 00 04 05 00
1768359219.582797 can0 501 [8] 0F 00 99 99 03 00 00 00
1768359219.584892 can0 080 [0] 
1768359219.585699 can0 181 [6] 28 02 FF FF FF FF
1768359219.585700 can0 381 [2] FB FF
1768359219.585996 can0 281 [4] 24 4B 07 00
1768359219.585996 can0 481 [8] F2 1C 00 00 00 04 05 00
1768359219.593004 can0 501 [8] 0F 00 99 99 03 00 00 00
1768359219.595092 can0 080 [0] 
1768359219.595893 can0 181 [6] 28 02 FF FF FF FF
1768359219.595894 can0 381 [2] 07 00
1768359219.596242 can0 281 [4] 24 4B 07 00
1768359219.596242 can0 481 [8] EC 1C 00 00 00 04 05 00
1768359219.603209 can0 501 [8] 0F 00 99 99 03 00 00 00
1768359219.605316 can0 080 [0] 
1768359219.606055 can0 181 [6] 28 02 FF FF FF FF
1768359219.606055 can0 381 [2] E9 FF
1768359219.606318 can0 281 [4] 24 4B 07 00
1768359219.606545 can0 481 [8] EF 1C 00 00 00 04 05 00
1768359219.613438 can0 501 [8] 0F 00 99 99 03 00 00 00
1768359219.615543 can0 080 [0] 
1768359219.616404 can0 181 [6] 28 02 FF FF FF FF
1768359219.616405 can0 381 [2] 12 00
1768359219.616668 can0 281 [4] 24 4B 07 00
1768359219.616897 can0 481 [8] F3 1C 00 00 00 04 05 00
1768359219.623663 can0 501 [8] 0F 00 99 99 03 00 00 00
1768359219.625762 can0 080 [0] 
1768359219.626503 can0 181 [6] 28 02 FF FF FF FF
1768359219.626504 can0 381 [2] 12 00
1768359219.626770 can0 281 [4] 24 4B 07 00
1768359219.627002 can0 481 [8] F0 1C 00 00 00 04 05 00
1768359219.633887 can0 501 [8] 0F 00 99 99 03 00 00 00
1768359219.635993 can0 080 [0] 
1768359219.636754 can0 181 [6] 28 02 FF FF FF FF
1768359219.636755 can0 381 [2] 04 00
1768359219.637012 can0 281 [4] 24 4B 07 00
1768359219.637249 can0 481 [8] F2 1C 00 00 00 04 05 00
1768359219.644108 can0 501 [8] 0F 00 99 99 03 00 00 00
1768359219.646215 can0 080 [0] 
1768359219.646998 can0 181 [6] 28 02 FF FF FF FF
1768359219.646999 can0 381 [2] FD FF
1768359219.647273 can0 281 [4] 24 4B 07 00
1768359219.647274 can0 481 [8] F3 1C 00 00 00 04 05 00
1768359219.654335 can0 501 [8] 0F 00 99 99 03 00 00 00
1768359219.656427 can0 080 [0] 
1768359219.657149 can0 181 [6] 28 02 FF FF FF FF
1768359219.657150 can0 381 [2] DE FF
1768359219.657410 can0 281 [4] 24 4B 07 00
1768359219.657639 can0 481 [8] F4 1C 00 00 00 04 05 00
1768359219.664558 can0 501 [8] 0F 00 99 99 03 00 00 00
1768359219.666654 can0 080 [0] 
1768359219.667493 can0 181 [6] 28 02 FF FF FF FF
1768359219.667494 can0 381 [2] 18 00
1768359219.667786 can0 281 [4] 24 4B 07 00
1768359219.667787 can0 481 [8] F0 1C 00 00 00 04 05 00
1768359219.674798 can0 501 [8] 0F 00 99 99 03 00 00 00
1768359219.676890 can0 080 [0] 
1768359219.677689 can0 181 [6] 28 02 FF FF FF FF
1768359219.677690 can0 381 [2] 1F 00
1768359219.677995 can0 281 [4] 24 4B 07 00
1768359219.677996 can0 481 [8] EF 1C 00 00 00 04 05 00
1768359219.685057 can0 501 [8] 0F 00 99 99 03 00 00 00
1768359219.687140 can0 080 [0] 
1768359219.687998 can0 181 [6] 28 02 FF FF FF FF
1768359219.687998 can0 381 [2] FA FF
1768359219.688280 can0 281 [4] 24 4B 07 00
1768359219.688281 can0 481 [8] F4 1C 00 00 00 04 05 00
1768359219.695288 can0 501 [8] 0F 00 99 99 03 00 00 00
1768359219.697391 can0 080 [0] 
1768359219.698153 can0 181 [6] 28 02 FF FF FF FF
1768359219.698154 can0 381 [2] 06 00
1768359219.698415 can0 281 [4] 24 4B 07 00
1768359219.698643 can0 481 [8] F2 1C 00 00 00 04 05 00
1768359219.705540 can0 501 [8] 0F 00 99 99 03 00 00 00
1768359219.707621 can0 080 [0] 
1768359219.708377 can0 181 [6] 28 02 FF FF FF FF
1768359219.708378 can0 381 [2] ED FF
1768359219.708673 can0 281 [4] 24 4B 07 00
1768359219.708673 can0 481 [8] F3 1C 00 00 00 04 05 00
1768359219.715715 can0 501 [8] 0F 00 99 99 03 00 00 00
1768359219.717794 can0 080 [0] 
1768359219.718537 can0 181 [6] 28 02 FF FF FF FF
1768359219.718537 can0 381 [2] DE FF
1768359219.718802 can0 281 [4] 24 4B 07 00
1768359219.719032 can0 481 [8] F1 1C 00 00 00 04 05 00
1768359219.725882 can0 501 [8] 0F 00 99 99 03 00 00 00
1768359219.728000 can0 080 [0] 
1768359219.728731 can0 181 [6] 28 02 FF FF FF FF
1768359219.728731 can0 381 [2] FD FF
1768359219.729027 can0 281 [4] 24 4B 07 00
1768359219.729028 can0 481 [8] F2 1C 00 00 00 04 05 00
1768359219.736039 can0 501 [8] 0F 00 99 99 03 00 00 00
1768359219.738120 can0 080 [0] 
1768359219.738843 can0 181 [6] 28 02 FF FF FF FF
1768359219.738844 can0 381 [2] 00 00
1768359219.739111 can0 281 [4] 24 4B 07 00
1768359219.739340 can0 481 [8] F4 1C 00 00 00 04 05 00
1768359219.746225 can0 501 [8] 0F 00 99 99 03 00 00 00
1768359219.748323 can0 080 [0] 
1768359219.749040 can0 181 [6] 28 02 FF FF FF FF
1768359219.749041 can0 381 [2] 0B 00
1768359219.749307 can0 281 [4] 24 4B 07 00
1768359219.749538 can0 481 [8] F2 1C 00 00 00 04 05 00
1768359219.756440 can0 501 [8] 0F 00 99 99 03 00 00 00
1768359219.758560 can0 080 [0] 
1768359219.759393 can0 181 [6] 28 02 FF FF FF FF
1768359219.759394 can0 381 [2] EB FF
1768359219.759680 can0 281 [4] 24 4B 07 00
1768359219.759681 can0 481 [8] F3 1C 00 00 00 04 05 00
1768359219.766692 can0 501 [8] 0F 00 99 99 03 00 00 00
1768359219.768766 can0 080 [0] 
1768359219.769580 can0 181 [6] 28 02 FF FF FF FF
1768359219.769580 can0 381 [2] 0F 00
1768359219.769870 can0 281 [4] 24 4B 07 00
1768359219.769871 can0 481 [8] EF 1C 00 00 00 04 05 00
1768359219.776892 can0 501 [8] 0F 00 99 99 03 00 00 00
1768359219.778988 can0 080 [0] 
1768359219.779752 can0 181 [6] 28 02 FF FF FF FF
1768359219.779752 can0 381 [2] 05 00
1768359219.780042 can0 281 [4] 24 4B 07 00
1768359219.780043 can0 481 [8] F1 1C 00 00 00 04 05 00
1768359219.787077 can0 501 [8] 0F 00 99 99 03 00 00 00
1768359219.789157 can0 080 [0] 
1768359219.789891 can0 181 [6] 28 02 FF FF FF FF
1768359219.789891 can0 381 [2] 0B 00
1768359219.790226 can0 281 [4] 24 4B 07 00
1768359219.790226 can0 481 [8] F4 1C 00 00 00 04 05 00
1768359219.797258 can0 501 [8] 0F 00 99 99 03 00 00 00
1768359219.799356 can0 080 [0] 
1768359219.800096 can0 181 [6] 28 02 FF FF FF FF
1768359219.800097 can0 381 [2] FB FF
1768359219.800383 can0 281 [4] 24 4B 07 00
1768359219.800384 can0 481 [8] EF 1C 00 00 00 04 05 00
1768359219.807490 can0 501 [8] 0F 00 99 99 03 00 00 00
1768359219.809594 can0 080 [0] 
1768359219.810345 can0 181 [6] 28 02 FF FF FF FF
1768359219.810346 can0 381 [2] F6 FF
1768359219.810634 can0 281 [4] 24 4B 07 00
1768359219.810635 can0 481 [8] EE 1C 00 00 00 04 05 00
1768359219.817711 can0 501 [8] 0F 00 99 99 03 00 00 00
1768359219.819819 can0 080 [0] 
1768359219.820643 can0 181 [6] 28 02 FF FF FF FF
1768359219.820644 can0 381 [2] 21 00
1768359219.820904 can0 281 [4] 24 4B 07 00
1768359219.821174 can0 481 [8] EC 1C 00 00 00 04 05 00
1768359219.827997 can0 501 [8] 0F 00 99 99 03 00 00 00
1768359219.830023 can0 080 [0] 
1768359219.830836 can0 181 [6] 28 02 FF FF FF FF
1768359219.830837 can0 381 [2] 0D 00
1768359219.831097 can0 281 [4] 24 4B 07 00
1768359219.831331 can0 481 [8] F0 1C 00 00 00 04 05 00
1768359219.838116 can0 501 [8] 0F 00 99 99 03 00 00 00
1768359219.840195 can0 080 [0] 
1768359219.840989 can0 181 [6] 28 02 FF FF FF FF
1768359219.840990 can0 381 [2] 0C 00
1768359219.841284 can0 281 [4] 24 4B 07 00
1768359219.841284 can0 481 [8] F3 1C 00 00 00 04 05 00
1768359219.848294 can0 501 [8] 0F 00 99 99 03 00 00 00
1768359219.850371 can0 080 [0] 
1768359219.851093 can0 181 [6] 28 02 FF FF FF FF
1768359219.851093 can0 381 [2] 08 00
1768359219.851357 can0 281 [4] 24 4B 07 00
1768359219.851586 can0 481 [8] F0 1C 00 00 00 04 05 00
1768359219.858457 can0 501 [8] 0F 00 99 99 03 00 00 00
1768359219.860578 can0 080 [0] 
1768359219.861431 can0 181 [6] 28 02 FF FF FF FF
1768359219.861432 can0 381 [2] F8 FF
1768359219.861723 can0 281 [4] 24 4B 07 00
1768359219.861724 can0 481 [8] F3 1C 00 00 00 04 05 00
1768359219.868750 can0 501 [8] 0F 00 99 99 03 00 00 00
1768359219.870864 can0 080 [0] 
1768359219.871600 can0 181 [6] 28 02 FF FF FF FF
1768359219.871601 can0 381 [2] F9 FF
1768359219.871886 can0 281 [4] 24 4B 07 00
1768359219.871887 can0 481 [8] F1 1C 00 00 00 04 05 00
1768359219.879006 can0 501 [8] 0F 00 99 99 03 00 00 00
1768359219.881116 can0 080 [0] 
1768359219.881878 can0 181 [6] 28 02 FF FF FF FF
1768359219.881879 can0 381 [2] 0D 00
1768359219.882215 can0 281 [4] 24 4B 07 00
1768359219.882216 can0 481 [8] EE 1C 00 00 00 04 05 00
1768359219.889295 can0 501 [8] 0F 00 99 99 03 00 00 00
1768359219.891408 can0 080 [0] 
1768359219.892171 can0 181 [6] 28 02 FF FF FF FF
1768359219.892172 can0 381 [2] 02 00
1768359219.892460 can0 281 [4] 24 4B 07 00
1768359219.892461 can0 481 [8] F0 1C 00 00 00 04 05 00
1768359219.899537 can0 501 [8] 0F 00 99 99 03 00 00 00
1768359219.901626 can0 080 [0] 
1768359219.902430 can0 181 [6] 28 02 FF FF FF FF
1768359219.902431 can0 381 [2] EE FF
1768359219.902730 can0 281 [4] 24 4B 07 00
1768359219.902730 can0 481 [8] F5 1C 00 00 00 04 05 00
1768359219.909836 can0 501 [8] 0F 00 99 99 03 00 00 00
1768359219.911998 can0 080 [0] 
1768359219.912740 can0 181 [6] 28 02 FF FF FF FF
1768359219.912740 can0 381 [2] 18 00
1768359219.913002 can0 281 [4] 24 4B 07 00
1768359219.913236 can0 481 [8] F2 1C 00 00 00 04 05 00
1768359219.920103 can0 501 [8] 0F 00 99 99 03 00 00 00
1768359219.922294 can0 080 [0] 
1768359219.923042 can0 181 [6] 28 02 FF FF FF FF
1768359219.923043 can0 381 [2] FD FF
1768359219.923335 can0 281 [4] 24 4B 07 00
1768359219.923336 can0 481 [8] F5 1C 00 00 00 04 05 00
1768359219.930438 can0 501 [8] 0F 00 99 99 03 00 00 00
1768359219.932536 can0 080 [0] 
1768359219.933294 can0 181 [6] 28 02 FF FF FF FF
1768359219.933295 can0 381 [2] FD FF
1768359219.933583 can0 281 [4] 24 4B 07 00
1768359219.933583 can0 481 [8] F1 1C 00 00 00 04 05 00
1768359219.940669 can0 501 [8] 0F 00 99 99 03 00 00 00
1768359219.942742 can0 080 [0] 
1768359219.943578 can0 181 [6] 28 02 FF FF FF FF
1768359219.943579 can0 381 [2] 17 00
1768359219.943867 can0 281 [4] 24 4B 07 00
1768359219.943868 can0 481 [8] F5 1C 00 00 00 04 05 00
1768359219.950866 can0 501 [8] 0F 00 99 99 03 00 00 00
1768359219.952994 can0 080 [0] 
1768359219.953788 can0 181 [6] 28 02 FF FF FF FF
1768359219.953788 can0 381 [2] 02 00
1768359219.954072 can0 281 [4] 24 4B 07 00
1768359219.954072 can0 481 [8] EE 1C 00 00 00 04 05 00
1768359219.961095 can0 501 [8] 0F 00 99 99 03 00 00 00
1768359219.963209 can0 080 [0] 
1768359219.963993 can0 181 [6] 28 02 FF FF FF FF
1768359219.963994 can0 381 [2] FC FF
1768359219.964288 can0 281 [4] 24 4B 07 00
1768359219.964288 can0 481 [8] F6 1C 00 00 00 04 05 00
1768359219.971344 can0 501 [8] 0F 00 99 99 03 00 00 00
1768359219.973438 can0 080 [0] 
1768359219.974233 can0 181 [6] 28 02 FF FF FF FF
1768359219.974234 can0 381 [2] F1 FF
1768359219.974523 can0 281 [4] 24 4B 07 00
1768359219.974524 can0 481 [8] F4 1C 00 00 00 04 05 00
1768359219.981569 can0 501 [8] 0F 00 99 99 03 00 00 00
1768359219.983663 can0 080 [0] 
1768359219.984388 can0 181 [6] 28 02 FF FF FF FF
1768359219.984389 can0 381 [2] F5 FF
1768359219.984674 can0 281 [4] 24 4B 07 00
1768359219.984674 can0 481 [8] F4 1C 00 00 00 04 05 00
1768359219.991791 can0 501 [8] 0F 00 99 99 03 00 00 00
1768359219.993886 can0 080 [0] 
1768359219.994638 can0 181 [6] 28 02 FF FF FF FF
1768359219.994639 can0 381 [2] 11 00
1768359219.994898 can0 281 [4] 24 4B 07 00
1768359219.995171 can0 481 [8] F2 1C 00 00 00 04 05 00
1768359220.002012 can0 501 [8] 0F 00 99 99 03 00 00 00
1768359220.004120 can0 080 [0] 
1768359220.004842 can0 181 [6] 28 02 FF FF FF FF
1768359220.004843 can0 381 [2] EB FF
1768359220.005132 can0 281 [4] 24 4B 07 00
1768359220.005133 can0 481 [8] F5 1C 00 00 00 04 05 00
1768359220.012254 can0 501 [8] 0F 00 99 99 03 00 00 00
1768359220.014346 can0 080 [0] 
1768359220.015127 can0 181 [6] 28 02 FF FF FF FF
1768359220.015128 can0 381 [2] FD FF
1768359220.015412 can0 281 [4] 24 4B 07 00
1768359220.015412 can0 481 [8] F3 1C 00 00 00 04 05 00
1768359220.022460 can0 501 [8] 0F 00 99 99 03 00 00 00
1768359220.024542 can0 080 [0] 
1768359220.025372 can0 181 [6] 28 02 FF FF FF FF
1768359220.025373 can0 381 [2] F5 FF
1768359220.025668 can0 281 [4] 24 4B 07 00
1768359220.025668 can0 481 [8] F5 1C 00 00 00 04 05 00
1768359220.032662 can0 501 [8] 0F 00 99 99 03 00 00 00
1768359220.034760 can0 080 [0] 
1768359220.035579 can0 181 [6] 28 02 FF FF FF FF
1768359220.035580 can0 381 [2] 00 00
1768359220.035864 can0 281 [4] 24 4B 07 00
1768359220.035864 can0 481 [8] F1 1C 00 00 00 04 05 00
1768359220.042873 can0 501 [8] 0F 00 99 99 03 00 00 00
1768359220.044985 can0 080 [0] 
1768359220.045735 can0 181 [6] 28 02 FF FF FF FF
1768359220.045736 can0 381 [2] E9 FF
1768359220.045994 can0 281 [4] 24 4B 07 00
1768359220.046228 can0 481 [8] FA 1C 00 00 00 04 05 00
1768359220.053113 can0 501 [8] 0F 00 99 99 03 00 00 00
1768359220.055196 can0 080 [0] 
1768359220.055991 can0 181 [6] 28 02 FF FF FF FF
1768359220.055992 can0 381 [2] F4 FF
1768359220.056280 can0 281 [4] 24 4B 07 00
1768359220.056281 can0 481 [8] F1 1C 00 00 00 04 05 00
1768359220.063336 can0 501 [8] 0F 00 99 99 03 00 00 00
1768359220.065437 can0 080 [0] 
1768359220.066183 can0 181 [6] 28 02 FF FF FF FF
1768359220.066183 can0 381 [2] 0D 00
1768359220.066443 can0 281 [4] 24 4B 07 00
1768359220.066672 can0 481 [8] EF 1C 00 00 00 04 05 00
1768359220.073561 can0 501 [8] 0F 00 99 99 03 00 00 00
1768359220.075650 can0 080 [0] 
1768359220.076384 can0 181 [6] 28 02 FF FF FF FF
1768359220.076385 can0 381 [2] F8 FF
1768359220.076643 can0 281 [4] 24 4B 07 00
1768359220.076871 can0 481 [8] F4 1C 00 00 00 04 05 00
1768359220.083813 can0 501 [8] 0F 00 99 99 03 00 00 00
1768359220.085994 can0 080 [0] 
1768359220.086776 can0 181 [6] 28 02 FF FF FF FF
1768359220.086777 can0 381 [2] EC FF
1768359220.087063 can0 281 [4] 24 4B 07 00
1768359220.087063 can0 481 [8] F4 1C 00 00 00 04 05 00
1768359220.094070 can0 501 [8] 0F 00 99 99 03 00 00 00
