1768352415.010361 can0 601 [8] 40 61 60 00 00 00 00 00
1768352415.011138 can0 581 [8] 42 61 60 00 03 00 00 00
1768352415.011421 can0 601 [8] 40 41 60 00 00 00 00 00
1768352415.012246 can0 581 [8] 42 41 60 00 37 06 00 00
1768352415.012414 can0 601 [8] 2B 40 60 00 06 00 00 00
1768352415.013148 can0 581 [8] 60 40 60 00 00 00 00 00
1768352415.113521 can0 601 [8] 2F 60 60 00 03 00 00 00
1768352415.114300 can0 581 [8] 60 60 60 00 00 00 00 00
1768352415.214785 can0 601 [8] 2B 40 60 00 07 00 00 00
1768352415.215550 can0 581 [8] 60 40 60 00 00 00 00 00
1768352415.316248 can0 601 [8] 2B 40 60 00 0F 00 00 00
1768352415.316695 can0 581 [8] 60 40 60 00 00 00 00 00
1768352415.517117 can0 601 [8] 40 41 60 00 00 00 00 00
1768352415.517991 can0 581 [8] 42 41 60 00 37 06 00 00
1768352415.518170 can0 601 [8] 40 80 60 00 00 00 00 00
1768352415.518933 can0 581 [8] 80 80 60 00 00 00 02 06
1768352415.519127 can0 601 [8] 40 81 60 00 00 00 00 00
1768352415.519893 can0 581 [8] 80 81 60 00 00 00 02 06
1768352415.520079 can0 601 [8] 40 83 60 00 00 00 00 00
1768352415.520833 can0 581 [8] 80 83 60 00 00 00 02 06
1768352415.520959 can0 601 [8] 40 84 60 00 00 00 00 00
1768352415.521791 can0 581 [8] 80 84 60 00 00 00 02 06
1768352415.522002 can0 601 [8] 40 85 60 00 00 00 00 00
1768352415.522780 can0 581 [8] 80 85 60 00 00 00 02 06
1768352415.522974 can0 601 [8] 40 72 60 00 00 00 00 00
1768352415.523737 can0 581 [8] 80 72 60 00 00 00 02 06
1768352415.523926 can0 601 [8] 23 FF 60 00 64 00 00 00
1768352415.524736 can0 581 [8] 60 FF 60 00 00 00 00 00
1768352416.025087 can0 601 [8] 40 41 60 00 00 00 00 00
1768352416.025856 can0 581 [8] 42 41 60 00 37 06 00 00
1768352416.026356 can0 601 [8] 40 6C 60 00 00 00 00 00
1768352416.027183 can0 581 [8] 42 6C 60 00 FF FF FF FF
1768352416.027348 can0 601 [8] 23 FF 60 00 F4 01 00 00
1768352416.028224 can0 581 [8] 60 FF 60 00 00 00 00 00
1768352416.528774 can0 601 [8] 40 41 60 00 00 00 00 00
1768352416.529497 can0 581 [8] 42 41 60 00 37 06 00 00
1768352416.529749 can0 601 [8] 40 6C 60 00 00 00 00 00
1768352416.530488 can0 581 [8] 42 6C 60 00 FF FF FF FF
1768352416.530827 can0 601 [8] 23 FF 60 00 E8 03 00 00
1768352416.531598 can0 581 [8] 60 FF 60 00 00 00 00 00
1768352417.032013 can0 601 [8] 40 41 60 00 00 00 00 00
1768352417.032787 can0 581 [8] 42 41 60 00 37 06 00 00
1768352417.033108 can0 601 [8] 40 6C 60 00 00 00 00 00
1768352417.033849 can0 581 [8] 42 6C 60 00 FF FF FF FF
1768352417.034049 can0 601 [8] 23 FF 60 00 88 13 00 00
1768352417.034870 can0 581 [8] 60 FF 60 00 00 00 00 00
1768352417.535148 can0 601 [8] 40 41 60 00 00 00 00 00
1768352417.535958 can0 581 [8] 42 41 60 00 37 02 00 00
1768352417.536105 can0 601 [8] 40 6C 60 00 00 00 00 00
1768352417.536862 can0 581 [8] 42 6C 60 00 1F 01 00 00
1768352417.537040 can0 601 [8] 23 FF 60 00 10 27 00 00
1768352417.537819 can0 581 [8] 60 FF 60 00 00 00 00 00
1768352418.038176 can0 601 [8] 40 41 60 00 00 00 00 00
1768352418.038921 can0 581 [8] 42 41 60 00 37 06 00 00
1768352418.039325 can0 601 [8] 40 6C 60 00 00 00 00 00
1768352418.040204 can0 581 [8] 42 6C 60 00 A7 1B 00 00
1768352418.040390 can0 601 [8] 23 FF 60 00 00 00 00 00
1768352418.041166 can0 581 [8] 60 FF 60 00 00 00 00 00
1768352418.141628 can0 601 [8] 2B 40 60 00 07 00 00 00
1768352418.142407 can0 581 [8] 60 40 60 00 00 00 00 00
1768352418.192975 can0 601 [8] 2B 40 60 00 06 00 00 00
1768352418.193769 can0 581 [8] 60 40 60 00 00 00 00 00
