1768348879.783017 can0 501 [8] 0F 00 A0 86 01 00 00 00
1768348879.788167 can0 080 [0] 
1768348879.788905 can0 181 [6] 28 02 FF FF FF FF
1768348879.788906 can0 381 [2] 03 00
1768348879.789165 can0 281 [4] 86 9F 06 00
1768348879.789389 can0 481 [8] F5 1C 00 00 00 04 05 00
1768348879.793280 can0 501 [8] 0F 00 A0 86 01 00 00 00
1768348879.798442 can0 080 [0] 
1768348879.799157 can0 181 [6] 28 02 FF FF FF FF
1768348879.799158 can0 381 [2] 07 00
1768348879.799425 can0 281 [4] 86 9F 06 00
1768348879.799653 can0 481 [8] F7 1C 00 00 00 04 05 00
1768348879.803598 can0 501 [8] 0F 00 A0 86 01 00 00 00
1768348879.808735 can0 080 [0] 
1768348879.809456 can0 181 [6] 28 02 FF FF FF FF
1768348879.809457 can0 381 [2] 07 00
1768348879.809720 can0 281 [4] 86 9F 06 00
1768348879.809948 can0 481 [8] FC 1C 00 00 00 04 05 00
1768348879.813880 can0 501 [8] 0F 00 A0 86 01 00 00 00
1768348879.819029 can0 080 [0] 
1768348879.819803 can0 181 [6] 28 02 FF FF FF FF
1768348879.819803 can0 381 [2] FE FF
1768348879.820116 can0 281 [4] 86 9F 06 00
1768348879.820117 can0 481 [8] F6 1C 00 00 00 04 05 00
1768348879.824224 can0 501 [8] 0F 00 A0 86 01 00 00 00
1768348879.829405 can0 080 [0] 
1768348879.830208 can0 181 [6] 28 02 FF FF FF FF
1768348879.830209 can0 381 [2] F8 FF
1768348879.830496 can0 281 [4] 86 9F 06 00
1768348879.830497 can0 481 [8] FC 1C 00 00 00 04 05 00
1768348879.834563 can0 501 [8] 0F 00 A0 86 01 00 00 00
1768348879.839730 can0 080 [0] 
1768348879.840502 can0 181 [6] 28 02 FF FF FF FF
1768348879.840503 can0 381 [2] 0A 00
1768348879.840789 can0 281 [4] 86 9F 06 00
1768348879.840790 can0 481 [8] F7 1C 00 00 00 04 05 00
1768348879.844909 can0 501 [8] 0F 00 A0 86 01 00 00 00
1768348879.850124 can0 080 [0] 
1768348879.850909 can0 181 [6] 28 02 FF FF FF FF
1768348879.850910 can0 381 [2] 05 00
1768348879.851196 can0 281 [4] 86 9F 06 00
1768348879.851197 can0 481 [8] F2 1C 00 00 00 04 05 00
1768348879.855246 can0 501 [8] 0F 00 A0 86 01 00 00 00
1768348879.860418 can0 080 [0] 
1768348879.861314 can0 181 [6] 28 02 FF FF FF FF
1768348879.861315 can0 381 [2] FB FF
1768348879.861598 can0 281 [4] 86 9F 06 00
1768348879.861599 can0 481 [8] FC 1C 00 00 00 04 05 00
1768348879.865622 can0 501 [8] 0F 00 A0 86 01 00 00 00
1768348879.870771 can0 080 [0] 
1768348879.871565 can0 181 [6] 28 02 FF FF FF FF
1768348879.871566 can0 381 [2] 02 00
1768348879.871830 can0 281 [4] 86 9F 06 00
1768348879.872113 can0 481 [8] F8 1C 00 00 00 04 05 00
1768348879.875921 can0 501 [8] 0F 00 A0 86 01 00 00 00
1768348879.881122 can0 080 [0] 
1768348879.881857 can0 181 [6] 28 02 FF FF FF FF
1768348879.881858 can0 381 [2] 06 00
1768348879.882114 can0 281 [4] 86 9F 06 00
1768348879.882342 can0 481 [8] F8 1C 00 00 00 04 05 00
1768348879.886165 can0 501 [8] 0F 00 A0 86 01 00 00 00
1768348879.891219 can0 080 [0] 
1768348879.891962 can0 181 [6] 28 02 FF FF FF FF
1768348879.891963 can0 381 [2] FE FF
1768348879.892224 can0 281 [4] 86 9F 06 00
1768348879.892460 can0 481 [8] F6 1C 00 00 00 04 05 00
1768348879.896339 can0 501 [8] 0F 00 A0 86 01 00 00 00
1768348879.901471 can0 080 [0] 
1768348879.902298 can0 181 [6] 28 02 FF FF FF FF
1768348879.902299 can0 381 [2] 16 00
1768348879.902585 can0 281 [4] 86 9F 06 00
1768348879.902586 can0 481 [8] FC 1C 00 00 00 04 05 00
1768348879.906595 can0 501 [8] 0F 00 A0 86 01 00 00 00
1768348879.911728 can0 080 [0] 
1768348879.912507 can0 181 [6] 28 02 FF FF FF FF
1768348879.912508 can0 381 [2] FD FF
1768348879.912793 can0 281 [4] 86 9F 06 00
1768348879.912793 can0 481 [8] FB 1C 00 00 00 04 05 00
1768348879.916876 can0 501 [8] 0F 00 A0 86 01 00 00 00
1768348879.921993 can0 080 [0] 
1768348879.922802 can0 181 [6] 28 02 FF FF FF FF
1768348879.922803 can0 381 [2] 00 00
1768348879.923126 can0 281 [4] 86 9F 06 00
1768348879.923127 can0 481 [8] F5 1C 00 00 00 04 05 00
1768348879.927127 can0 501 [8] 0F 00 A0 86 01 00 00 00
1768348879.932260 can0 080 [0] 
1768348879.932997 can0 181 [6] 28 02 FF FF FF FF
1768348879.932998 can0 381 [2] FD FF
1768348879.933350 can0 281 [4] 86 9F 06 00
1768348879.933351 can0 481 [8] F7 1C 00 00 00 04 05 00
1768348879.937391 can0 501 [8] 0F 00 A0 86 01 00 00 00
1768348879.942504 can0 080 [0] 
1768348879.943300 can0 181 [6] 28 02 FF FF FF FF
1768348879.943301 can0 381 [2] FE FF
1768348879.943588 can0 281 [4] 86 9F 06 00
1768348879.943589 can0 481 [8] FD 1C 00 00 00 04 05 00
1768348879.947616 can0 501 [8] 0F 00 A0 86 01 00 00 00
1768348879.952730 can0 080 [0] 
1768348879.953454 can0 181 [6] 28 02 FF FF FF FF
1768348879.953454 can0 381 [2] FF FF
1768348879.953721 can0 281 [4] 86 9F 06 00
1768348879.953948 can0 481 [8] F7 1C 00 00 00 04 05 00
1768348879.957852 can0 501 [8] 0F 00 A0 86 01 00 00 00
1768348879.962961 can0 080 [0] 
1768348879.963703 can0 181 [6] 28 02 FF FF FF FF
1768348879.963704 can0 381 [2] 05 00
1768348879.963964 can0 281 [4] 86 9F 06 00
1768348879.964193 can0 481 [8] FB 1C 00 00 00 04 05 00
1768348879.968123 can0 501 [8] 0F 00 A0 86 01 00 00 00
1768348879.973201 can0 080 [0] 
1768348879.974007 can0 181 [6] 28 02 FF FF FF FF
1768348879.974008 can0 381 [2] 05 00
1768348879.974317 can0 281 [4] 86 9F 06 00
1768348879.974318 can0 481 [8] F7 1C 00 00 00 04 05 00
1768348879.978317 can0 501 [8] 0F 00 A0 86 01 00 00 00
1768348879.983438 can0 080 [0] 
1768348879.984197 can0 181 [6] 28 02 FF FF FF FF
1768348879.984198 can0 381 [2] 02 00
1768348879.984484 can0 281 [4] 86 9F 06 00
1768348879.984485 can0 481 [8] FB 1C 00 00 00 04 05 00
1768348879.988545 can0 501 [8] 0F 00 A0 86 01 00 00 00
1768348879.993659 can0 080 [0] 
1768348879.994491 can0 181 [6] 28 02 FF FF FF FF
1768348879.994492 can0 381 [2] F5 FF
1768348879.994780 can0 281 [4] 86 9F 06 00
1768348879.994780 can0 481 [8] F5 1C 00 00 00 04 05 00
1768348879.998785 can0 501 [8] 0F 00 A0 86 01 00 00 00
1768348880.003902 can0 080 [0] 
1768348880.004645 can0 181 [6] 28 02 FF FF FF FF
1768348880.004645 can0 381 [2] 06 00
1768348880.004909 can0 281 [4] 86 9F 06 00
1768348880.005145 can0 481 [8] FC 1C 00 00 00 04 05 00
1768348880.009012 can0 501 [8] 0F 00 A0 86 01 00 00 00
1768348880.014130 can0 080 [0] 
1768348880.014857 can0 181 [6] 28 02 FF FF FF FF
1768348880.014857 can0 381 [2] F2 FF
1768348880.015116 can0 281 [4] 86 9F 06 00
1768348880.015355 can0 481 [8] FA 1C 00 00 00 04 05 00
1768348880.019224 can0 501 [8] 0F 00 A0 86 01 00 00 00
1768348880.024328 can0 080 [0] 
1768348880.025119 can0 181 [6] 28 02 FF FF FF FF
1768348880.025120 can0 381 [2] FD FF
1768348880.025398 can0 281 [4] 86 9F 06 00
1768348880.025398 can0 481 [8] F6 1C 00 00 00 04 05 00
1768348880.029435 can0 501 [8] 0F 00 A0 86 01 00 00 00
1768348880.034553 can0 080 [0] 
1768348880.035398 can0 181 [6] 28 02 FF FF FF FF
1768348880.035398 can0 381 [2] FE FF
1768348880.035688 can0 281 [4] 86 9F 06 00
1768348880.035688 can0 481 [8] F9 1C 00 00 00 04 05 00
1768348880.039674 can0 501 [8] 0F 00 A0 86 01 00 00 00
1768348880.044779 can0 080 [0] 
1768348880.045503 can0 181 [6] 28 02 FF FF FF FF
1768348880.045504 can0 381 [2] 05 00
1768348880.045768 can0 281 [4] 86 9F 06 00
1768348880.046001 can0 481 [8] FA 1C 00 00 00 04 05 00
1768348880.049891 can0 501 [8] 0F 00 A0 86 01 00 00 00
1768348880.055017 can0 080 [0] 
1768348880.055752 can0 181 [6] 28 02 FF FF FF FF
1768348880.055753 can0 381 [2] 00 00
1768348880.056014 can0 281 [4] 86 9F 06 00
1768348880.056308 can0 481 [8] FF 1C 00 00 00 04 05 00
1768348880.060122 can0 501 [8] 0F 00 A0 86 01 00 00 00
1768348880.065258 can0 080 [0] 
1768348880.065989 can0 181 [6] 28 02 FF FF FF FF
1768348880.065990 can0 381 [2] FB FF
1768348880.066362 can0 281 [4] 86 9F 06 00
1768348880.066363 can0 481 [8] FA 1C 00 00 00 04 05 00
1768348880.070379 can0 501 [8] 0F 00 A0 86 01 00 00 00
1768348880.075508 can0 080 [0] 
1768348880.076261 can0 181 [6] 28 02 FF FF FF FF
1768348880.076262 can0 381 [2] 07 00
1768348880.076524 can0 281 [4] 86 9F 06 00
1768348880.076748 can0 481 [8] F5 1C 00 00 00 04 05 00
1768348880.080650 can0 501 [8] 0F 00 A0 86 01 00 00 00
1768348880.085809 can0 080 [0] 
1768348880.086585 can0 181 [6] 28 02 FF FF FF FF
1768348880.086586 can0 381 [2] FC FF
1768348880.086890 can0 281 [4] 86 9F 06 00
1768348880.086890 can0 481 [8] F9 1C 00 00 00 04 05 00
1768348880.090939 can0 501 [8] 0F 00 A0 86 01 00 00 00
1768348880.096122 can0 080 [0] 
1768348880.096902 can0 181 [6] 28 02 FF FF FF FF
1768348880.096903 can0 381 [2] 06 00
1768348880.097168 can0 281 [4] 86 9F 06 00
1768348880.097399 can0 481 [8] FA 1C 00 00 00 04 05 00
1768348880.101183 can0 501 [8] 0F 00 A0 86 01 00 00 00
1768348880.106298 can0 080 [0] 
1768348880.107122 can0 181 [6] 28 02 FF FF FF FF
1768348880.107123 can0 381 [2] 03 00
1768348880.107401 can0 281 [4] 86 9F 06 00
1768348880.107402 can0 481 [8] FD 1C 00 00 00 04 05 00
1768348880.111422 can0 501 [8] 0F 00 A0 86 01 00 00 00
1768348880.116546 can0 080 [0] 
1768348880.117261 can0 181 [6] 28 02 FF FF FF FF
1768348880.117262 can0 381 [2] FA FF
1768348880.117510 can0 281 [4] 86 9F 06 00
1768348880.117741 can0 481 [8] FE 1C 00 00 00 04 05 00
1768348880.121676 can0 501 [8] 0F 00 A0 86 01 00 00 00
1768348880.126802 can0 080 [0] 
1768348880.127566 can0 181 [6] 28 02 FF FF FF FF
1768348880.127568 can0 381 [2] F9 FF
1768348880.127848 can0 281 [4] 86 9F 06 00
1768348880.127849 can0 481 [8] FB 1C 00 00 00 04 05 00
1768348880.131922 can0 501 [8] 0F 00 A0 86 01 00 00 00
1768348880.137160 can0 080 [0] 
1768348880.137855 can0 181 [6] 28 02 FF FF FF FF
1768348880.137856 can0 381 [2] F9 FF
1768348880.138118 can0 281 [4] 86 9F 06 00
1768348880.138359 can0 481 [8] F4 1C 00 00 00 04 05 00
1768348880.142155 can0 501 [8] 0F 00 A0 86 01 00 00 00
1768348880.147261 can0 080 [0] 
1768348880.148141 can0 181 [6] 28 02 FF FF FF FF
1768348880.148143 can0 381 [2] EF FF
1768348880.148395 can0 281 [4] 86 9F 06 00
1768348880.148396 can0 481 [8] FA 1C 00 00 00 04 05 00
1768348880.152340 can0 501 [8] 0F 00 A0 86 01 00 00 00
1768348880.157447 can0 080 [0] 
1768348880.158248 can0 181 [6] 28 02 FF FF FF FF
1768348880.158249 can0 381 [2] FC FF
1768348880.158524 can0 281 [4] 86 9F 06 00
1768348880.158751 can0 481 [8] FA 1C 00 00 00 04 05 00
1768348880.162564 can0 501 [8] 0F 00 A0 86 01 00 00 00
1768348880.167693 can0 080 [0] 
1768348880.168548 can0 181 [6] 28 02 FF FF FF FF
1768348880.168548 can0 381 [2] 00 00
1768348880.168835 can0 281 [4] 86 9F 06 00
1768348880.168836 can0 481 [8] FB 1C 00 00 00 04 05 00
1768348880.172816 can0 501 [8] 0F 00 A0 86 01 00 00 00
1768348880.177934 can0 080 [0] 
1768348880.178655 can0 181 [6] 28 02 FF FF FF FF
1768348880.178656 can0 381 [2] FB FF
1768348880.178924 can0 281 [4] 86 9F 06 00
1768348880.179155 can0 481 [8] FC 1C 00 00 00 04 05 00
1768348880.183124 can0 501 [8] 0F 00 A0 86 01 00 00 00
1768348880.188171 can0 080 [0] 
1768348880.188948 can0 181 [6] 28 02 FF FF FF FF
1768348880.188949 can0 381 [2] 01 00
1768348880.189232 can0 281 [4] 86 9F 06 00
1768348880.189233 can0 481 [8] F9 1C 00 00 00 04 05 00
1768348880.193307 can0 501 [8] 0F 00 A0 86 01 00 00 00
1768348880.198432 can0 080 [0] 
1768348880.199241 can0 181 [6] 28 02 FF FF FF FF
1768348880.199242 can0 381 [2] F8 FF
1768348880.199505 can0 281 [4] 86 9F 06 00
1768348880.199739 can0 481 [8] FE 1C 00 00 00 04 05 00
1768348880.203550 can0 501 [8] 0F 00 A0 86 01 00 00 00
1768348880.208683 can0 080 [0] 
1768348880.209451 can0 181 [6] 28 02 FF FF FF FF
1768348880.209452 can0 381 [2] F8 FF
1768348880.209744 can0 281 [4] 86 9F 06 00
1768348880.209745 can0 481 [8] F8 1C 00 00 00 04 05 00
1768348880.213803 can0 501 [8] 0F 00 A0 86 01 00 00 00
1768348880.218928 can0 080 [0] 
1768348880.219754 can0 181 [6] 28 02 FF FF FF FF
1768348880.219755 can0 381 [2] FE FF
1768348880.220041 can0 281 [4] 86 9F 06 00
1768348880.220042 can0 481 [8] FE 1C 00 00 00 04 05 00
1768348880.224123 can0 501 [8] 0F 00 A0 86 01 00 00 00
1768348880.229180 can0 080 [0] 
1768348880.229911 can0 181 [6] 28 02 FF FF FF FF
1768348880.229913 can0 381 [2] FD FF
1768348880.230169 can0 281 [4] 86 9F 06 00
1768348880.230400 can0 481 [8] FC 1C 00 00 00 04 05 00
1768348880.234282 can0 501 [8] 0F 00 A0 86 01 00 00 00
1768348880.239380 can0 080 [0] 
1768348880.240134 can0 181 [6] 28 02 FF FF FF FF
1768348880.240135 can0 381 [2] 08 00
1768348880.240422 can0 281 [4] 86 9F 06 00
1768348880.240422 can0 481 [8] F5 1C 00 00 00 04 05 00
1768348880.244479 can0 501 [8] 0F 00 A0 86 01 00 00 00
1768348880.249592 can0 080 [0] 
1768348880.250304 can0 181 [6] 28 02 FF FF FF FF
1768348880.250305 can0 381 [2] 03 00
1768348880.250572 can0 281 [4] 86 9F 06 00
1768348880.250801 can0 481 [8] FA 1C 00 00 00 04 05 00
1768348880.254688 can0 501 [8] 0F 00 A0 86 01 00 00 00
1768348880.259806 can0 080 [0] 
1768348880.260562 can0 181 [6] 28 02 FF FF FF FF
1768348880.260562 can0 381 [2] F7 FF
1768348880.260847 can0 281 [4] 86 9F 06 00
1768348880.260847 can0 481 [8] F9 1C 00 00 00 04 05 00
1768348880.264935 can0 501 [8] 0F 00 A0 86 01 00 00 00
1768348880.270125 can0 080 [0] 
1768348880.270956 can0 181 [6] 28 02 FF FF FF FF
1768348880.270957 can0 381 [2] F7 FF
1768348880.271218 can0 281 [4] 86 9F 06 00
1768348880.271449 can0 481 [8] F9 1C 00 00 00 04 05 00
1768348880.275171 can0 501 [8] 0F 00 A0 86 01 00 00 00
1768348880.280304 can0 080 [0] 
1768348880.281152 can0 181 [6] 28 02 FF FF FF FF
1768348880.281153 can0 381 [2] 02 00
1768348880.281412 can0 281 [4] 86 9F 06 00
1768348880.281643 can0 481 [8] FD 1C 00 00 00 04 05 00
1768348880.285416 can0 501 [8] 0F 00 A0 86 01 00 00 00
1768348880.290539 can0 080 [0] 
1768348880.291302 can0 181 [6] 28 02 FF FF FF FF
1768348880.291303 can0 381 [2] 00 00
1768348880.291568 can0 281 [4] 86 9F 06 00
1768348880.291794 can0 481 [8] 03 1D 00 00 00 04 05 00
1768348880.295651 can0 501 [8] 0F 00 A0 86 01 00 00 00
1768348880.300768 can0 080 [0] 
1768348880.301503 can0 181 [6] 28 02 FF FF FF FF
1768348880.301504 can0 381 [2] 16 00
1768348880.301759 can0 281 [4] 86 9F 06 00
1768348880.301994 can0 481 [8] FE 1C 00 00 00 04 05 00
1768348880.305891 can0 501 [8] 0F 00 A0 86 01 00 00 00
1768348880.311007 can0 080 [0] 
1768348880.311764 can0 181 [6] 28 02 FF FF FF FF
1768348880.311765 can0 381 [2] FE FF
1768348880.312020 can0 281 [4] 86 9F 06 00
1768348880.312287 can0 481 [8] FB 1C 00 00 00 04 05 00
1768348880.316128 can0 501 [8] 0F 00 A0 86 01 00 00 00
1768348880.321216 can0 080 [0] 
1768348880.321962 can0 181 [6] 28 02 FF FF FF FF
1768348880.321963 can0 381 [2] 03 00
1768348880.322259 can0 281 [4] 86 9F 06 00
1768348880.322259 can0 481 [8] F7 1C 00 00 00 04 05 00
1768348880.326319 can0 501 [8] 0F 00 A0 86 01 00 00 00
1768348880.331425 can0 080 [0] 
1768348880.332155 can0 181 [6] 28 02 FF FF FF FF
1768348880.332156 can0 381 [2] F7 FF
1768348880.332420 can0 281 [4] 86 9F 06 00
1768348880.332645 can0 481 [8] F3 1C 00 00 00 04 05 00
1768348880.336547 can0 501 [8] 0F 00 A0 86 01 00 00 00
1768348880.341672 can0 080 [0] 
1768348880.342397 can0 181 [6] 28 02 FF FF FF FF
1768348880.342398 can0 381 [2] FD FF
1768348880.342659 can0 281 [4] 86 9F 06 00
1768348880.342895 can0 481 [8] F8 1C 00 00 00 04 05 00
1768348880.346815 can0 501 [8] 0F 00 A0 86 01 00 00 00
1768348880.351964 can0 080 [0] 
1768348880.352699 can0 181 [6] 28 02 FF FF FF FF
1768348880.352699 can0 381 [2] FB FF
1768348880.352967 can0 281 [4] 86 9F 06 00
1768348880.353196 can0 481 [8] F7 1C 00 00 00 04 05 00
1768348880.357117 can0 501 [8] 0F 00 A0 86 01 00 00 00
1768348880.362273 can0 080 [0] 
1768348880.363009 can0 181 [6] 28 02 FF FF FF FF
1768348880.363010 can0 381 [2] 07 00
1768348880.363355 can0 281 [4] 86 9F 06 00
1768348880.363356 can0 481 [8] FA 1C 00 00 00 04 05 00
1768348880.367406 can0 501 [8] 0F 00 A0 86 01 00 00 00
1768348880.372535 can0 080 [0] 
1768348880.373291 can0 181 [6] 28 02 FF FF FF FF
1768348880.373291 can0 381 [2] 00 00
1768348880.373580 can0 281 [4] 86 9F 06 00
1768348880.373581 can0 481 [8] F7 1C 00 00 00 04 05 00
1768348880.377638 can0 501 [8] 0F 00 A0 86 01 00 00 00
1768348880.382761 can0 080 [0] 
1768348880.383538 can0 181 [6] 28 02 FF FF FF FF
1768348880.383539 can0 381 [2] 02 00
1768348880.383832 can0 281 [4] 86 9F 06 00
1768348880.383833 can0 481 [8] FD 1C 00 00 00 04 05 00
1768348880.387865 can0 501 [8] 0F 00 A0 86 01 00 00 00
1768348880.393006 can0 080 [0] 
1768348880.393791 can0 181 [6] 28 02 FF FF FF FF
1768348880.393791 can0 381 [2] FF FF
1768348880.394118 can0 281 [4] 86 9F 06 00
1768348880.394119 can0 481 [8] FF 1C 00 00 00 04 05 00
1768348880.398118 can0 501 [8] 0F 00 A0 86 01 00 00 00
1768348880.403233 can0 080 [0] 
1768348880.403950 can0 181 [6] 28 02 FF FF FF FF
1768348880.403952 can0 381 [2] F9 FF
1768348880.404216 can0 281 [4] 86 9F 06 00
1768348880.404441 can0 481 [8] FC 1C 00 00 00 04 05 00
1768348880.408345 can0 501 [8] 0F 00 A0 86 01 00 00 00
1768348880.413443 can0 080 [0] 
1768348880.414301 can0 181 [6] 28 02 FF FF FF FF
1768348880.414301 can0 381 [2] 00 00
1768348880.414586 can0 281 [4] 86 9F 06 00
1768348880.414587 can0 481 [8] FB 1C 00 00 00 04 05 00
1768348880.418557 can0 501 [8] 0F 00 A0 86 01 00 00 00
1768348880.423666 can0 080 [0] 
1768348880.424400 can0 181 [6] 28 02 FF FF FF FF
1768348880.424401 can0 381 [2] F9 FF
1768348880.424661 can0 281 [4] 86 9F 06 00
1768348880.424897 can0 481 [8] FD 1C 00 00 00 04 05 00
1768348880.428781 can0 501 [8] 0F 00 A0 86 01 00 00 00
1768348880.433886 can0 080 [0] 
1768348880.434611 can0 181 [6] 28 02 FF FF FF FF
1768348880.434612 can0 381 [2] 06 00
1768348880.434878 can0 281 [4] 86 9F 06 00
1768348880.435120 can0 481 [8] FB 1C 00 00 00 04 05 00
1768348880.439001 can0 501 [8] 0F 00 A0 86 01 00 00 00
1768348880.444113 can0 080 [0] 
1768348880.444839 can0 181 [6] 28 02 FF FF FF FF
1768348880.444841 can0 381 [2] FE FF
1768348880.445123 can0 281 [4] 86 9F 06 00
1768348880.445342 can0 481 [8] F9 1C 00 00 00 04 05 00
1768348880.449271 can0 501 [8] 0F 00 A0 86 01 00 00 00
1768348880.454387 can0 080 [0] 
1768348880.455197 can0 181 [6] 28 02 FF FF FF FF
1768348880.455198 can0 381 [2] F3 FF
1768348880.455483 can0 281 [4] 86 9F 06 00
1768348880.455484 can0 481 [8] FD 1C 00 00 00 04 05 00
1768348880.459520 can0 501 [8] 0F 00 A0 86 01 00 00 00
1768348880.464641 can0 080 [0] 
1768348880.465354 can0 181 [6] 28 02 FF FF FF FF
1768348880.465355 can0 381 [2] 05 00
1768348880.465619 can0 281 [4] 86 9F 06 00
1768348880.465847 can0 481 [8] FD 1C 00 00 00 04 05 00
1768348880.469756 can0 501 [8] 0F 00 A0 86 01 00 00 00
1768348880.474858 can0 080 [0] 
1768348880.475637 can0 181 [6] 28 02 FF FF FF FF
1768348880.475638 can0 381 [2] 04 00
1768348880.475931 can0 281 [4] 86 9F 06 00
1768348880.475932 can0 481 [8] FC 1C 00 00 00 04 05 00
1768348880.479999 can0 501 [8] 0F 00 A0 86 01 00 00 00
1768348880.485118 can0 080 [0] 
1768348880.485854 can0 181 [6] 28 02 FF FF FF FF
1768348880.485855 can0 381 [2] 05 00
1768348880.486120 can0 281 [4] 86 9F 06 00
1768348880.486354 can0 481 [8] FA 1C 00 00 00 04 05 00
1768348880.490238 can0 501 [8] 0F 00 A0 86 01 00 00 00
1768348880.495389 can0 080 [0] 
1768348880.496150 can0 181 [6] 28 02 FF FF FF FF
1768348880.496151 can0 381 [2] 01 00
1768348880.496418 can0 281 [4] 86 9F 06 00
1768348880.496646 can0 481 [8] FE 1C 00 00 00 04 05 00
1768348880.500498 can0 501 [8] 0F 00 A0 86 01 00 00 00
1768348880.505639 can0 080 [0] 
1768348880.506389 can0 181 [6] 28 02 FF FF FF FF
1768348880.506390 can0 381 [2] 0D 00
1768348880.506677 can0 281 [4] 86 9F 06 00
1768348880.506677 can0 481 [8] FB 1C 00 00 00 04 05 00
1768348880.510762 can0 501 [8] 0F 00 A0 86 01 00 00 00
1768348880.515875 can0 080 [0] 
1768348880.516636 can0 181 [6] 28 02 FF FF FF FF
1768348880.516637 can0 381 [2] FF FF
1768348880.516932 can0 281 [4] 86 9F 06 00
1768348880.516932 can0 481 [8] FB 1C 00 00 00 04 05 00
1768348880.521010 can0 501 [8] 0F 00 A0 86 01 00 00 00
1768348880.526130 can0 080 [0] 
1768348880.526857 can0 181 [6] 28 02 FF FF FF FF
1768348880.526857 can0 381 [2] FE FF
1768348880.527146 can0 281 [4] 86 9F 06 00
1768348880.527147 can0 481 [8] FF 1C 00 00 00 04 05 00
1768348880.531252 can0 501 [8] 0F 00 A0 86 01 00 00 00
1768348880.536364 can0 080 [0] 
1768348880.537124 can0 181 [6] 28 02 FF FF FF FF
1768348880.537125 can0 381 [2] 00 00
1768348880.537398 can0 281 [4] 86 9F 06 00
1768348880.537399 can0 481 [8] FF 1C 00 00 00 04 05 00
1768348880.541487 can0 501 [8] 0F 00 A0 86 01 00 00 00
1768348880.546603 can0 080 [0] 
1768348880.547489 can0 181 [6] 28 02 FF FF FF FF
1768348880.547490 can0 381 [2] F7 FF
1768348880.547779 can0 281 [4] 86 9F 06 00
1768348880.547779 can0 481 [8] FA 1C 00 00 00 04 05 00
1768348880.551705 can0 501 [8] 0F 00 A0 86 01 00 00 00
1768348880.556808 can0 080 [0] 
1768348880.557589 can0 181 [6] 28 02 FF FF FF FF
1768348880.557590 can0 381 [2] 02 00
1768348880.557874 can0 281 [4] 86 9F 06 00
1768348880.557875 can0 481 [8] 00 1D 00 00 00 04 05 00
1768348880.561930 can0 501 [8] 0F 00 A0 86 01 00 00 00
1768348880.567131 can0 080 [0] 
1768348880.567849 can0 181 [6] 28 02 FF FF FF FF
1768348880.567850 can0 381 [2] 0A 00
1768348880.568121 can0 281 [4] 86 9F 06 00
1768348880.568348 can0 481 [8] FF 1C 00 00 00 04 05 00
1768348880.572148 can0 501 [8] 0F 00 A0 86 01 00 00 00
1768348880.577267 can0 080 [0] 
1768348880.578042 can0 181 [6] 28 02 FF FF FF FF
1768348880.578043 can0 381 [2] F5 FF
1768348880.578366 can0 281 [4] 86 9F 06 00
1768348880.578366 can0 481 [8] F6 1C 00 00 00 04 05 00
1768348880.582366 can0 501 [8] 0F 00 A0 86 01 00 00 00
1768348880.587473 can0 080 [0] 
1768348880.588207 can0 181 [6] 28 02 FF FF FF FF
1768348880.588207 can0 381 [2] F9 FF
1768348880.588471 can0 281 [4] 86 9F 06 00
1768348880.588699 can0 481 [8] FA 1C 00 00 00 04 05 00
1768348880.592594 can0 501 [8] 0F 00 A0 86 01 00 00 00
1768348880.597714 can0 080 [0] 
1768348880.598497 can0 181 [6] 28 02 FF FF FF FF
1768348880.598498 can0 381 [2] 01 00
1768348880.598786 can0 281 [4] 86 9F 06 00
1768348880.598787 can0 481 [8] FD 1C 00 00 00 04 05 00
1768348880.602839 can0 501 [8] 0F 00 A0 86 01 00 00 00
1768348880.607939 can0 080 [0] 
1768348880.608699 can0 181 [6] 28 02 FF FF FF FF
1768348880.608700 can0 381 [2] FC FF
1768348880.608964 can0 281 [4] 86 9F 06 00
1768348880.609192 can0 481 [8] F8 1C 00 00 00 04 05 00
1768348880.613129 can0 501 [8] 0F 00 A0 86 01 00 00 00
1768348880.618206 can0 080 [0] 
1768348880.619003 can0 181 [6] 28 02 FF FF FF FF
1768348880.619004 can0 381 [2] 0B 00
1768348880.619359 can0 281 [4] 86 9F 06 00
1768348880.619359 can0 481 [8] FB 1C 00 00 00 04 05 00
1768348880.623322 can0 501 [8] 0F 00 A0 86 01 00 00 00
1768348880.628444 can0 080 [0] 
1768348880.629196 can0 181 [6] 28 02 FF FF FF FF
1768348880.629197 can0 381 [2] FF FF
1768348880.629467 can0 281 [4] 86 9F 06 00
1768348880.629695 can0 481 [8] FD 1C 00 00 00 04 05 00
1768348880.633561 can0 501 [8] 0F 00 A0 86 01 00 00 00
1768348880.638699 can0 080 [0] 
1768348880.639504 can0 181 [6] 28 02 FF FF FF FF
1768348880.639505 can0 381 [2] FC FF
1768348880.639793 can0 281 [4] 86 9F 06 00
1768348880.639794 can0 481 [8] FA 1C 00 00 00 04 05 00
1768348880.643806 can0 501 [8] 0F 00 A0 86 01 00 00 00
1768348880.648930 can0 080 [0] 
1768348880.649652 can0 181 [6] 28 02 FF FF FF FF
1768348880.649653 can0 381 [2] FF FF
1768348880.649947 can0 281 [4] 86 9F 06 00
1768348880.649947 can0 481 [8] FE 1C 00 00 00 04 05 00
1768348880.654127 can0 501 [8] 0F 00 A0 86 01 00 00 00
1768348880.659187 can0 080 [0] 
1768348880.659943 can0 181 [6] 28 02 FF FF FF FF
1768348880.659944 can0 381 [2] FA FF
1768348880.660233 can0 281 [4] 86 9F 06 00
1768348880.660233 can0 481 [8] 01 1D 00 00 00 04 05 00
1768348880.664289 can0 501 [8] 0F 00 A0 86 01 00 00 00
1768348880.669420 can0 080 [0] 
1768348880.670191 can0 181 [6] 28 02 FF FF FF FF
1768348880.670191 can0 381 [2] 02 00
1768348880.670479 can0 281 [4] 86 9F 06 00
1768348880.670480 can0 481 [8] FD 1C 00 00 00 04 05 00
1768348880.674538 can0 501 [8] 0F 00 A0 86 01 00 00 00
1768348880.679674 can0 080 [0] 
1768348880.680442 can0 181 [6] 28 02 FF FF FF FF
1768348880.680443 can0 381 [2] 05 00
1768348880.680731 can0 281 [4] 86 9F 06 00
1768348880.680732 can0 481 [8] 01 1D 00 00 00 04 05 00
1768348880.684798 can0 501 [8] 0F 00 A0 86 01 00 00 00
1768348880.689914 can0 080 [0] 
1768348880.690691 can0 181 [6] 28 02 FF FF FF FF
1768348880.690693 can0 381 [2] 02 00
1768348880.690987 can0 281 [4] 86 9F 06 00
1768348880.690989 can0 481 [8] FE 1C 00 00 00 04 05 00
1768348880.695132 can0 501 [8] 0F 00 A0 86 01 00 00 00
1768348880.700201 can0 080 [0] 
1768348880.700951 can0 181 [6] 28 02 FF FF FF FF
1768348880.700952 can0 381 [2] 0D 00
1768348880.701208 can0 281 [4] 86 9F 06 00
1768348880.701446 can0 481 [8] FC 1C 00 00 00 04 05 00
1768348880.705320 can0 501 [8] 0F 00 A0 86 01 00 00 00
1768348880.710421 can0 080 [0] 
1768348880.711147 can0 181 [6] 28 02 FF FF FF FF
1768348880.711148 can0 381 [2] FC FF
1768348880.711419 can0 281 [4] 86 9F 06 00
1768348880.711643 can0 481 [8] FF 1C 00 00 00 04 05 00
1768348880.715553 can0 501 [8] 0F 00 A0 86 01 00 00 00
1768348880.720680 can0 080 [0] 
1768348880.721549 can0 181 [6] 28 02 FF FF FF FF
1768348880.721550 can0 381 [2] FD FF
1768348880.721836 can0 281 [4] 86 9F 06 00
1768348880.721837 can0 481 [8] FB 1C 00 00 00 04 05 00
1768348880.725776 can0 501 [8] 0F 00 A0 86 01 00 00 00
