1768349820.266975 can0 000 [2] 80 01
1768349820.370457 can0 000 [2] 80 02
1768349820.473725 can0 000 [2] 80 03
1768349820.576988 can0 000 [2] 80 04
1768349820.680215 can0 601 [8] 42 02 20 05 00 00 00 00
1768349820.681149 can0 581 [8] 42 02 20 05 03 00 00 00
1768349820.683330 can0 601 [8] 42 03 14 01 00 00 00 00
1768349820.684104 can0 581 [8] 42 03 14 01 01 05 00 00
1768349820.686445 can0 601 [8] 23 03 14 01 01 05 00 80
1768349820.687330 can0 581 [8] 60 03 14 01 00 00 00 00
1768349820.689551 can0 601 [8] 23 03 14 01 01 05 00 00
1768349820.690444 can0 581 [8] 60 03 14 01 00 00 00 00
1768349820.692684 can0 601 [8] 2F 03 14 02 01 00 00 00
1768349820.693492 can0 581 [8] 60 03 14 02 00 00 00 00
1768349820.695808 can0 601 [8] 42 03 18 01 00 00 00 00
1768349820.696585 can0 581 [8] 42 03 18 01 81 01 00 00
1768349820.698951 can0 601 [8] 23 03 18 01 81 01 00 80
1768349820.699834 can0 581 [8] 60 03 18 01 00 00 00 00
1768349820.702111 can0 601 [8] 23 03 18 01 81 01 00 00
1768349820.702996 can0 581 [8] 60 03 18 01 00 00 00 00
1768349820.705195 can0 601 [8] 2F 03 18 02 01 00 00 00
1768349820.706104 can0 581 [8] 60 03 18 02 00 00 00 00
1768349820.708308 can0 601 [8] 42 14 18 01 00 00 00 00
1768349820.709108 can0 581 [8] 42 14 18 01 81 02 00 00
1768349820.711435 can0 601 [8] 23 14 18 01 81 02 00 80
1768349820.712345 can0 581 [8] 60 14 18 01 00 00 00 00
1768349820.714563 can0 601 [8] 23 14 18 01 81 02 00 00
1768349820.715431 can0 581 [8] 60 14 18 01 00 00 00 00
1768349820.717685 can0 601 [8] 2F 14 18 02 01 00 00 00
1768349820.718486 can0 581 [8] 60 14 18 02 00 00 00 00
1768349820.720815 can0 601 [8] 42 16 18 01 00 00 00 00
1768349820.721621 can0 581 [8] 42 16 18 01 81 03 00 00
1768349820.723946 can0 601 [8] 23 16 18 01 81 03 00 80
1768349820.724831 can0 581 [8] 60 16 18 01 00 00 00 00
1768349820.727110 can0 601 [8] 23 16 18 01 81 03 00 00
1768349820.727983 can0 581 [8] 60 16 18 01 00 00 00 00
1768349820.730194 can0 601 [8] 2F 16 18 02 01 00 00 00
1768349820.731106 can0 581 [8] 60 16 18 02 00 00 00 00
1768349820.733323 can0 601 [8] 42 19 18 01 00 00 00 00
1768349820.734101 can0 581 [8] 42 19 18 01 81 04 00 00
1768349820.736438 can0 601 [8] 23 19 18 01 81 04 00 80
1768349820.737290 can0 581 [8] 60 19 18 01 00 00 00 00
1768349820.739574 can0 601 [8] 2F 19 1A 00 00 00 00 00
1768349820.740373 can0 581 [8] 60 19 1A 00 00 00 00 00
1768349820.742662 can0 601 [8] 23 19 1A 01 10 01 0F 20
1768349820.743485 can0 581 [8] 60 19 1A 01 00 00 00 00
1768349820.745765 can0 601 [8] 23 19 1A 02 10 02 02 20
1768349820.746612 can0 581 [8] 60 19 1A 02 00 00 00 00
1768349820.748889 can0 601 [8] 23 19 1A 03 10 03 02 20
1768349820.749757 can0 581 [8] 60 19 1A 03 00 00 00 00
1768349820.752001 can0 601 [8] 23 19 1A 04 10 05 02 20
1768349820.752831 can0 581 [8] 60 19 1A 04 00 00 00 00
1768349820.755106 can0 601 [8] 2F 19 1A 00 04 00 00 00
1768349820.755938 can0 581 [8] 60 19 1A 00 00 00 00 00
1768349820.758224 can0 601 [8] 23 19 18 01 81 04 00 00
1768349820.759136 can0 581 [8] 60 19 18 01 00 00 00 00
1768349820.761341 can0 601 [8] 2F 19 18 02 01 00 00 00
1768349820.762130 can0 581 [8] 60 19 18 02 00 00 00 00
1768349821.764824 can0 000 [2] 80 01
1768349821.869547 can0 601 [8] 2B 40 60 00 80 00 00 00
1768349821.870703 can0 581 [8] 60 40 60 00 00 00 00 00
1768349821.973484 can0 601 [8] 2F 60 60 00 03 00 00 00
1768349821.974226 can0 581 [8] 60 60 60 00 00 00 00 00
1768349822.076957 can0 601 [8] 23 FF 60 00 00 00 00 00
1768349822.077727 can0 581 [8] 60 FF 60 00 00 00 00 00
1768349822.181429 can0 601 [8] 23 83 60 00 00 00 00 00
1768349822.182161 can0 581 [8] 80 83 60 00 00 00 02 06
1768349822.285025 can0 601 [8] 2B 40 60 00 80 00 00 00
1768349822.285957 can0 581 [8] 60 40 60 00 00 00 00 00
1768349822.389500 can0 601 [8] 2B 40 60 00 06 00 00 00
1768349822.390262 can0 581 [8] 60 40 60 00 00 00 00 00
1768349822.492952 can0 601 [8] 2B 40 60 00 07 00 00 00
1768349822.493682 can0 581 [8] 60 40 60 00 00 00 00 00
1768349822.596787 can0 601 [8] 2B 40 60 00 0F 00 00 00
1768349822.597511 can0 581 [8] 60 40 60 00 00 00 00 00
1768349822.700834 can0 000 [2] 01 01
1768349823.204184 can0 601 [8] 2B 86 60 00 02 00 00 00
1768349823.205005 can0 581 [8] 60 86 60 00 00 00 00 00
1768349823.207343 can0 601 [8] 21 3C 20 01 06 00 00 00
1768349823.208143 can0 581 [8] 60 3C 20 01 00 00 00 00
1768349823.210483 can0 601 [8] 01 3E C3 AE 00 00 00 00
1768349823.211522 can0 581 [8] 20 3E C3 AE 00 00 00 00
1768349823.213590 can0 601 [8] 21 3C 20 02 06 00 00 00
1768349823.214412 can0 581 [8] 60 3C 20 02 00 00 00 00
1768349823.216689 can0 601 [8] 01 3E C3 AE 00 00 00 00
1768349823.217804 can0 581 [8] 20 3E C3 AE 00 00 00 00
1768349823.219788 can0 601 [8] 21 3C 20 03 06 00 00 00
1768349823.220610 can0 581 [8] 60 3C 20 03 00 00 00 00
1768349823.222901 can0 601 [8] 01 3E C3 AE 00 00 00 00
1768349823.223944 can0 581 [8] 20 3E C3 AE 00 00 00 00
1768349823.226070 can0 601 [8] 21 3C 20 04 06 00 00 00
1768349823.227066 can0 581 [8] 60 3C 20 04 00 00 00 00
1768349823.229104 can0 601 [8] 01 3E C3 AE 00 00 00 00
1768349823.230256 can0 581 [8] 20 3E C3 AE 00 00 00 00
1768349823.232219 can0 601 [8] 2B 0C 10 00 0A 00 00 00
1768349823.233063 can0 581 [8] 60 0C 10 00 00 00 00 00
1768349823.235319 can0 601 [8] 2F 0D 10 00 FA 00 00 00
1768349823.236109 can0 581 [8] 60 0D 10 00 00 00 00 00
1768349823.238436 can0 601 [8] 42 41 60 00 00 00 00 00
1768349823.239241 can0 581 [8] 42 41 60 00 28 06 00 00
1768349823.341943 can0 501 [8] 80 00 00 00 00 00 00 00
1768349823.344065 can0 080 [0] 
1768349823.344884 can0 181 [6] 28 06 FF FF FF FF
1768349823.344885 can0 381 [2] 03 00
1768349823.345169 can0 281 [4] 86 9F 06 00
1768349823.345170 can0 481 [8] FA 1C 00 00 00 04 03 00
1768349823.352149 can0 501 [8] 06 00 00 00 00 00 00 00
1768349823.354213 can0 080 [0] 
1768349823.354983 can0 181 [6] 28 06 FF FF FF FF
1768349823.354983 can0 381 [2] 00 00
1768349823.355297 can0 281 [4] 86 9F 06 00
1768349823.355298 can0 481 [8] F7 1C 00 00 00 04 03 00
1768349823.362333 can0 501 [8] 06 00 00 00 00 00 00 00
1768349823.364497 can0 080 [0] 
1768349823.365240 can0 181 [6] 28 06 FF FF FF FF
1768349823.365241 can0 381 [2] FE FF
1768349823.365501 can0 281 [4] 86 9F 06 00
1768349823.365727 can0 481 [8] F5 1C 00 00 00 04 03 00
1768349823.372659 can0 501 [8] 06 00 00 00 00 00 00 00
1768349823.374768 can0 080 [0] 
1768349823.375481 can0 181 [6] 28 06 FF FF FF FF
1768349823.375482 can0 381 [2] 01 00
1768349823.375742 can0 281 [4] 86 9F 06 00
1768349823.375968 can0 481 [8] F6 1C 00 00 00 04 03 00
1768349823.382921 can0 501 [8] 06 00 00 00 00 00 00 00
1768349823.385068 can0 080 [0] 
1768349823.385786 can0 181 [6] 28 06 FF FF FF FF
1768349823.385787 can0 381 [2] 08 00
1768349823.386073 can0 281 [4] 86 9F 06 00
1768349823.386074 can0 481 [8] F7 1C 00 00 00 04 03 00
1768349823.393120 can0 501 [8] 06 00 00 00 00 00 00 00
1768349823.395205 can0 080 [0] 
1768349823.395937 can0 181 [6] 28 06 FF FF FF FF
1768349823.395938 can0 381 [2] F7 FF
1768349823.396292 can0 281 [4] 86 9F 06 00
1768349823.396292 can0 481 [8] FB 1C 00 00 00 04 03 00
1768349823.403324 can0 501 [8] 07 00 00 00 00 00 00 00
1768349823.405422 can0 080 [0] 
1768349823.406220 can0 181 [6] 28 06 FF FF FF FF
1768349823.406221 can0 381 [2] FD FF
1768349823.406510 can0 281 [4] 86 9F 06 00
1768349823.406511 can0 481 [8] FA 1C 00 00 00 04 03 00
1768349823.413545 can0 501 [8] 07 00 00 00 00 00 00 00
1768349823.415655 can0 080 [0] 
1768349823.416417 can0 181 [6] 28 06 FF FF FF FF
1768349823.416418 can0 381 [2] 05 00
1768349823.416703 can0 281 [4] 86 9F 06 00
1768349823.416704 can0 481 [8] F8 1C 00 00 00 04 03 00
1768349823.423803 can0 501 [8] 07 00 00 00 00 00 00 00
1768349823.425932 can0 080 [0] 
1768349823.426721 can0 181 [6] 28 06 FF FF FF FF
1768349823.426722 can0 381 [2] F9 FF
1768349823.427059 can0 281 [4] 86 9F 06 00
1768349823.427059 can0 481 [8] FC 1C 00 00 00 04 03 00
1768349823.434085 can0 501 [8] 07 00 00 00 00 00 00 00
1768349823.436175 can0 080 [0] 
1768349823.436928 can0 181 [6] 28 06 FF FF FF FF
1768349823.436929 can0 381 [2] 04 00
1768349823.437184 can0 281 [4] 86 9F 06 00
1768349823.437423 can0 481 [8] F8 1C 00 00 00 04 03 00
1768349823.444324 can0 501 [8] 07 00 00 00 00 00 00 00
1768349823.446441 can0 080 [0] 
1768349823.447223 can0 181 [6] 28 06 FF FF FF FF
1768349823.447224 can0 381 [2] F9 FF
1768349823.447492 can0 281 [4] 86 9F 06 00
1768349823.447722 can0 481 [8] FD 1C 00 00 00 04 03 00
1768349823.454575 can0 501 [8] 0F 00 00 00 00 00 00 00
1768349823.456702 can0 080 [0] 
1768349823.457422 can0 181 [6] 28 06 FF FF FF FF
1768349823.457423 can0 381 [2] FF FF
1768349823.457687 can0 281 [4] 86 9F 06 00
1768349823.457922 can0 481 [8] FE 1C 00 00 00 04 03 00
1768349823.464855 can0 501 [8] 0F 00 00 00 00 00 00 00
1768349823.466954 can0 080 [0] 
1768349823.467685 can0 181 [6] 28 06 FF FF FF FF
1768349823.467686 can0 381 [2] F8 FF
1768349823.467947 can0 281 [4] 86 9F 06 00
1768349823.468241 can0 481 [8] FD 1C 00 00 00 04 03 00
1768349823.475081 can0 501 [8] 0F 00 00 00 00 00 00 00
1768349823.477188 can0 080 [0] 
1768349823.477966 can0 181 [6] 28 06 FF FF FF FF
1768349823.477967 can0 381 [2] FA FF
1768349823.478292 can0 281 [4] 86 9F 06 00
1768349823.478293 can0 481 [8] F9 1C 00 00 00 04 03 00
1768349823.485307 can0 501 [8] 0F 00 00 00 00 00 00 00
1768349823.487439 can0 080 [0] 
1768349823.488180 can0 181 [6] 28 06 FF FF FF FF
1768349823.488180 can0 381 [2] FA FF
1768349823.488443 can0 281 [4] 86 9F 06 00
1768349823.488683 can0 481 [8] F8 1C 00 00 00 04 03 00
1768349823.495602 can0 501 [8] 0F 00 00 00 00 00 00 00
1768349823.497701 can0 080 [0] 
1768349823.498433 can0 181 [6] 28 06 FF FF FF FF
1768349823.498434 can0 381 [2] FD FF
1768349823.498693 can0 281 [4] 86 9F 06 00
1768349823.498928 can0 481 [8] FE 1C 00 00 00 04 03 00
1768349823.505860 can0 501 [8] 0F 00 00 00 00 00 00 00
1768349823.507956 can0 080 [0] 
1768349823.508679 can0 181 [6] 28 06 FF FF FF FF
1768349823.508679 can0 381 [2] 02 00
1768349823.508940 can0 281 [4] 86 9F 06 00
1768349823.509232 can0 481 [8] 00 1D 00 00 00 04 03 00
1768349823.516124 can0 501 [8] 0F 00 00 00 00 00 00 00
1768349823.518198 can0 080 [0] 
1768349823.518929 can0 181 [6] 28 06 FF FF FF FF
1768349823.518930 can0 381 [2] 07 00
1768349823.519284 can0 281 [4] 86 9F 06 00
1768349823.519285 can0 481 [8] FE 1C 00 00 00 04 03 00
1768349823.526324 can0 501 [8] 0F 00 00 00 00 00 00 00
1768349823.528406 can0 080 [0] 
1768349823.529165 can0 181 [6] 28 06 FF FF FF FF
1768349823.529166 can0 381 [2] FD FF
1768349823.529441 can0 281 [4] 86 9F 06 00
1768349823.529669 can0 481 [8] FC 1C 00 00 00 04 03 00
1768349823.536543 can0 501 [8] 0F 00 00 00 00 00 00 00
1768349823.538631 can0 080 [0] 
1768349823.539376 can0 181 [6] 28 06 FF FF FF FF
1768349823.539376 can0 381 [2] 00 00
1768349823.539637 can0 281 [4] 86 9F 06 00
1768349823.539865 can0 481 [8] FD 1C 00 00 00 04 03 00
1768349823.546777 can0 501 [8] 0F 00 00 00 00 00 00 00
1768349823.548890 can0 080 [0] 
1768349823.549680 can0 181 [6] 28 06 FF FF FF FF
1768349823.549680 can0 381 [2] 07 00
1768349823.549942 can0 281 [4] 86 9F 06 00
1768349823.550234 can0 481 [8] FC 1C 00 00 00 04 03 00
1768349825.557333 can0 501 [8] 0F 00 A0 86 01 00 00 00
1768349825.559430 can0 080 [0] 
1768349825.560163 can0 181 [6] 28 06 FF FF FF FF
1768349825.560164 can0 381 [2] 0A 00
1768349825.560427 can0 281 [4] 86 9F 06 00
1768349825.560663 can0 481 [8] F8 1C 00 00 00 04 03 00
1768349825.567568 can0 501 [8] 0F 00 A0 86 01 00 00 00
1768349825.569672 can0 080 [0] 
1768349825.570409 can0 181 [6] 28 02 FF FF FF FF
1768349825.570410 can0 381 [2] 06 00
1768349825.570682 can0 281 [4] 86 9F 06 00
1768349825.570905 can0 481 [8] FB 1C 00 00 00 04 05 00
1768349825.577818 can0 501 [8] 0F 00 A0 86 01 00 00 00
1768349825.579937 can0 080 [0] 
1768349825.580707 can0 181 [6] 28 02 FF FF FF FF
1768349825.580708 can0 381 [2] FB FF
1768349825.581026 can0 281 [4] 86 9F 06 00
1768349825.581027 can0 481 [8] FA 1C 00 00 00 04 05 00
1768349825.588074 can0 501 [8] 0F 00 A0 86 01 00 00 00
1768349825.590166 can0 080 [0] 
1768349825.591028 can0 181 [6] 28 02 FF FF FF FF
1768349825.591029 can0 381 [2] F5 FF
1768349825.591320 can0 281 [4] 86 9F 06 00
1768349825.591321 can0 481 [8] F8 1C 00 00 00 04 05 00
1768349825.598321 can0 501 [8] 0F 00 A0 86 01 00 00 00
1768349825.600436 can0 080 [0] 
1768349825.601206 can0 181 [6] 28 02 FF FF FF FF
1768349825.601206 can0 381 [2] FB FF
1768349825.601483 can0 281 [4] 86 9F 06 00
1768349825.601707 can0 481 [8] F8 1C 00 00 00 04 05 00
1768349825.608607 can0 501 [8] 0F 00 A0 86 01 00 00 00
1768349825.610725 can0 080 [0] 
1768349825.611465 can0 181 [6] 28 02 FF FF FF FF
1768349825.611465 can0 381 [2] 0E 00
1768349825.611726 can0 281 [4] 86 9F 06 00
1768349825.612026 can0 481 [8] FB 1C 00 00 00 04 05 00
1768349825.618918 can0 501 [8] 0F 00 A0 86 01 00 00 00
1768349825.621053 can0 080 [0] 
1768349825.621815 can0 181 [6] 28 02 FF FF FF FF
1768349825.621816 can0 381 [2] F8 FF
1768349825.622104 can0 281 [4] 86 9F 06 00
1768349825.622105 can0 481 [8] F6 1C 00 00 00 04 05 00
1768349825.629279 can0 501 [8] 0F 00 A0 86 01 00 00 00
1768349825.631430 can0 080 [0] 
1768349825.632152 can0 181 [6] 28 02 FF FF FF FF
1768349825.632153 can0 381 [2] 00 00
1768349825.632422 can0 281 [4] 86 9F 06 00
1768349825.632649 can0 481 [8] F6 1C 00 00 00 04 05 00
1768349825.639581 can0 501 [8] 0F 00 A0 86 01 00 00 00
1768349825.641681 can0 080 [0] 
1768349825.642459 can0 181 [6] 28 02 FF FF FF FF
1768349825.642459 can0 381 [2] FB FF
1768349825.642729 can0 281 [4] 86 9F 06 00
1768349825.643024 can0 481 [8] FD 1C 00 00 00 04 05 00
1768349825.649881 can0 501 [8] 0F 00 A0 86 01 00 00 00
1768349825.652068 can0 080 [0] 
1768349825.652811 can0 181 [6] 28 02 FF FF FF FF
1768349825.652811 can0 381 [2] 06 00
1768349825.653074 can0 281 [4] 86 9F 06 00
1768349825.653304 can0 481 [8] F7 1C 00 00 00 04 05 00
1768349825.660302 can0 501 [8] 0F 00 A0 86 01 00 00 00
1768349825.662477 can0 080 [0] 
1768349825.663258 can0 181 [6] 28 02 FF FF FF FF
1768349825.663259 can0 381 [2] 05 00
1768349825.663518 can0 281 [4] 86 9F 06 00
1768349825.663748 can0 481 [8] F5 1C 00 00 00 04 05 00
1768349825.670684 can0 501 [8] 0F 00 A0 86 01 00 00 00
1768349825.672866 can0 080 [0] 
1768349825.673613 can0 181 [6] 28 02 FF FF FF FF
1768349825.673614 can0 381 [2] FC FF
1768349825.673883 can0 281 [4] 86 9F 06 00
1768349825.674107 can0 481 [8] F9 1C 00 00 00 04 05 00
1768349825.681071 can0 501 [8] 0F 00 A0 86 01 00 00 00
1768349825.683270 can0 080 [0] 
1768349825.684030 can0 181 [6] 28 02 FF FF FF FF
1768349825.684031 can0 381 [2] 06 00
1768349825.684324 can0 281 [4] 86 9F 06 00
1768349825.684325 can0 481 [8] F9 1C 00 00 00 04 05 00
1768349825.691473 can0 501 [8] 0F 00 A0 86 01 00 00 00
1768349825.693655 can0 080 [0] 
1768349825.694409 can0 181 [6] 28 02 FF FF FF FF
1768349825.694416 can0 381 [2] 02 00
1768349825.694672 can0 281 [4] 86 9F 06 00
1768349825.694906 can0 481 [8] FE 1C 00 00 00 04 05 00
1768349825.701865 can0 501 [8] 0F 00 A0 86 01 00 00 00
1768349825.704049 can0 080 [0] 
1768349825.704807 can0 181 [6] 28 02 FF FF FF FF
1768349825.704808 can0 381 [2] F7 FF
1768349825.705096 can0 281 [4] 86 9F 06 00
1768349825.705096 can0 481 [8] F4 1C 00 00 00 04 05 00
1768349825.712278 can0 501 [8] 0F 00 A0 86 01 00 00 00
1768349825.714467 can0 080 [0] 
1768349825.715208 can0 181 [6] 28 02 FF FF FF FF
1768349825.715209 can0 381 [2] FE FF
1768349825.715471 can0 281 [4] 86 9F 06 00
1768349825.715698 can0 481 [8] FD 1C 00 00 00 04 05 00
1768349825.722671 can0 501 [8] 0F 00 A0 86 01 00 00 00
1768349825.724855 can0 080 [0] 
1768349825.725600 can0 181 [6] 28 02 FF FF FF FF
1768349825.725601 can0 381 [2] FA FF
1768349825.725871 can0 281 [4] 86 9F 06 00
1768349825.726098 can0 481 [8] F8 1C 00 00 00 04 05 00
1768349825.733035 can0 501 [8] 0F 00 A0 86 01 00 00 00
1768349825.735072 can0 080 [0] 
1768349825.736025 can0 181 [6] 28 02 FF FF FF FF
1768349825.736026 can0 381 [2] FE FF
1768349825.736274 can0 281 [4] 86 9F 06 00
1768349825.736275 can0 481 [8] F2 1C 00 00 00 04 05 00
1768349825.743209 can0 501 [8] 0F 00 A0 86 01 00 00 00
1768349825.745413 can0 080 [0] 
1768349825.746219 can0 181 [6] 28 02 FF FF FF FF
1768349825.746220 can0 381 [2] FB FF
1768349825.746475 can0 281 [4] 86 9F 06 00
1768349825.746711 can0 481 [8] FA 1C 00 00 00 04 05 00
1768349825.753529 can0 501 [8] 0F 00 A0 86 01 00 00 00
1768349825.755627 can0 080 [0] 
1768349825.756355 can0 181 [6] 28 02 FF FF FF FF
1768349825.756356 can0 381 [2] FC FF
1768349825.756623 can0 281 [4] 86 9F 06 00
1768349825.756851 can0 481 [8] F6 1C 00 00 00 04 05 00
1768349825.763781 can0 501 [8] 0F 00 A0 86 01 00 00 00
1768349825.765878 can0 080 [0] 
1768349825.766610 can0 181 [6] 28 02 FF FF FF FF
1768349825.766611 can0 381 [2] FE FF
1768349825.766875 can0 281 [4] 86 9F 06 00
1768349825.767108 can0 481 [8] FA 1C 00 00 00 04 05 00
1768349825.774045 can0 501 [8] 0F 00 A0 86 01 00 00 00
1768349825.776161 can0 080 [0] 
1768349825.777025 can0 181 [6] 28 02 FF FF FF FF
1768349825.777026 can0 381 [2] 0D 00
1768349825.777277 can0 281 [4] 86 9F 06 00
1768349825.777278 can0 481 [8] F4 1C 00 00 00 04 05 00
1768349825.784300 can0 501 [8] 0F 00 A0 86 01 00 00 00
1768349825.786403 can0 080 [0] 
1768349825.787151 can0 181 [6] 28 02 FF FF FF FF
1768349825.787151 can0 381 [2] 00 00
1768349825.787419 can0 281 [4] 86 9F 06 00
1768349825.787647 can0 481 [8] F9 1C 00 00 00 04 05 00
1768349825.794530 can0 501 [8] 0F 00 A0 86 01 00 00 00
1768349825.796637 can0 080 [0] 
1768349825.797416 can0 181 [6] 28 02 FF FF FF FF
1768349825.797417 can0 381 [2] 08 00
1768349825.797677 can0 281 [4] 86 9F 06 00
1768349825.797904 can0 481 [8] FC 1C 00 00 00 04 05 00
1768349825.804780 can0 501 [8] 0F 00 A0 86 01 00 00 00
1768349825.806877 can0 080 [0] 
1768349825.807613 can0 181 [6] 28 02 FF FF FF FF
1768349825.807614 can0 381 [2] 00 00
1768349825.807874 can0 281 [4] 86 9F 06 00
1768349825.808103 can0 481 [8] F9 1C 00 00 00 04 05 00
1768349825.815017 can0 501 [8] 0F 00 A0 86 01 00 00 00
1768349825.817104 can0 080 [0] 
1768349825.817854 can0 181 [6] 28 02 FF FF FF FF
1768349825.817855 can0 381 [2] 09 00
1768349825.818119 can0 281 [4] 86 9F 06 00
1768349825.818349 can0 481 [8] FC 1C 00 00 00 04 05 00
1768349825.825253 can0 501 [8] 0F 00 A0 86 01 00 00 00
1768349825.827344 can0 080 [0] 
1768349825.828147 can0 181 [6] 28 02 FF FF FF FF
1768349825.828148 can0 381 [2] FB FF
1768349825.828439 can0 281 [4] 86 9F 06 00
1768349825.828440 can0 481 [8] FB 1C 00 00 00 04 05 00
1768349825.835480 can0 501 [8] 0F 00 A0 86 01 00 00 00
1768349825.837592 can0 080 [0] 
1768349825.838316 can0 181 [6] 28 02 FF FF FF FF
1768349825.838316 can0 381 [2] F6 FF
1768349825.838581 can0 281 [4] 86 9F 06 00
1768349825.838807 can0 481 [8] F9 1C 00 00 00 04 05 00
1768349825.845729 can0 501 [8] 0F 00 A0 86 01 00 00 00
1768349825.847849 can0 080 [0] 
1768349825.848606 can0 181 [6] 28 02 FF FF FF FF
1768349825.848607 can0 381 [2] 06 00
1768349825.848867 can0 281 [4] 86 9F 06 00
1768349825.849103 can0 481 [8] F6 1C 00 00 00 04 05 00
1768349825.856030 can0 501 [8] 0F 00 A0 86 01 00 00 00
1768349825.858081 can0 080 [0] 
1768349825.858805 can0 181 [6] 28 02 FF FF FF FF
1768349825.858805 can0 381 [2] FF FF
1768349825.859069 can0 281 [4] 86 9F 06 00
1768349825.859296 can0 481 [8] FC 1C 00 00 00 04 05 00
1768349825.866227 can0 501 [8] 0F 00 A0 86 01 00 00 00
1768349825.868318 can0 080 [0] 
1768349825.869157 can0 181 [6] 28 02 FF FF FF FF
1768349825.869157 can0 381 [2] FF FF
1768349825.869439 can0 281 [4] 86 9F 06 00
1768349825.869440 can0 481 [8] F9 1C 00 00 00 04 05 00
1768349825.876449 can0 501 [8] 0F 00 A0 86 01 00 00 00
1768349825.878544 can0 080 [0] 
1768349825.879308 can0 181 [6] 28 02 FF FF FF FF
1768349825.879309 can0 381 [2] 05 00
1768349825.879570 can0 281 [4] 86 9F 06 00
1768349825.879798 can0 481 [8] F9 1C 00 00 00 04 05 00
1768349825.886694 can0 501 [8] 0F 00 A0 86 01 00 00 00
1768349825.888804 can0 080 [0] 
1768349825.889555 can0 181 [6] 28 02 FF FF FF FF
1768349825.889556 can0 381 [2] FC FF
1768349825.889818 can0 281 [4] 86 9F 06 00
1768349825.890047 can0 481 [8] F7 1C 00 00 00 04 05 00
1768349825.897025 can0 501 [8] 0F 00 A0 86 01 00 00 00
1768349825.899039 can0 080 [0] 
1768349825.899848 can0 181 [6] 28 02 FF FF FF FF
1768349825.899849 can0 381 [2] 0C 00
1768349825.900109 can0 281 [4] 86 9F 06 00
1768349825.900336 can0 481 [8] F7 1C 00 00 00 04 05 00
1768349825.907224 can0 501 [8] 0F 00 A0 86 01 00 00 00
1768349825.909321 can0 080 [0] 
1768349825.910092 can0 181 [6] 28 02 FF FF FF FF
1768349825.910093 can0 381 [2] FF FF
1768349825.910381 can0 281 [4] 86 9F 06 00
1768349825.910382 can0 481 [8] F6 1C 00 00 00 04 05 00
1768349825.917426 can0 501 [8] 0F 00 A0 86 01 00 00 00
1768349825.919519 can0 080 [0] 
1768349825.920300 can0 181 [6] 28 02 FF FF FF FF
1768349825.920301 can0 381 [2] FE FF
1768349825.920566 can0 281 [4] 86 9F 06 00
1768349825.920799 can0 481 [8] F9 1C 00 00 00 04 05 00
1768349825.927642 can0 501 [8] 0F 00 A0 86 01 00 00 00
1768349825.929736 can0 080 [0] 
1768349825.930499 can0 181 [6] 28 02 FF FF FF FF
1768349825.930500 can0 381 [2] 07 00
1768349825.930787 can0 281 [4] 86 9F 06 00
1768349825.930787 can0 481 [8] F7 1C 00 00 00 04 05 00
1768349825.937864 can0 501 [8] 0F 00 A0 86 01 00 00 00
1768349825.940030 can0 080 [0] 
1768349825.940744 can0 181 [6] 28 02 FF FF FF FF
1768349825.940744 can0 381 [2] F6 FF
1768349825.941023 can0 281 [4] 86 9F 06 00
1768349825.941242 can0 481 [8] FB 1C 00 00 00 04 05 00
1768349825.948098 can0 501 [8] 0F 00 A0 86 01 00 00 00
1768349825.950209 can0 080 [0] 
1768349825.951043 can0 181 [6] 28 02 FF FF FF FF
1768349825.951044 can0 381 [2] FE FF
1768349825.951332 can0 281 [4] 86 9F 06 00
1768349825.951332 can0 481 [8] F6 1C 00 00 00 04 05 00
1768349825.958338 can0 501 [8] 0F 00 A0 86 01 00 00 00
1768349825.960418 can0 080 [0] 
1768349825.961206 can0 181 [6] 28 02 FF FF FF FF
1768349825.961207 can0 381 [2] FF FF
1768349825.961480 can0 281 [4] 86 9F 06 00
1768349825.961706 can0 481 [8] FC 1C 00 00 00 04 05 00
1768349825.968561 can0 501 [8] 0F 00 A0 86 01 00 00 00
1768349825.970673 can0 080 [0] 
1768349825.971503 can0 181 [6] 28 02 FF FF FF FF
1768349825.971504 can0 381 [2] 03 00
1768349825.971767 can0 281 [4] 86 9F 06 00
1768349825.972021 can0 481 [8] F9 1C 00 00 00 04 05 00
1768349825.978843 can0 501 [8] 0F 00 A0 86 01 00 00 00
1768349825.980962 can0 080 [0] 
1768349825.981706 can0 181 [6] 28 02 FF FF FF FF
1768349825.981706 can0 381 [2] F5 FF
1768349825.982023 can0 281 [4] 86 9F 06 00
1768349825.982023 can0 481 [8] FB 1C 00 00 00 04 05 00
1768349825.989065 can0 501 [8] 0F 00 A0 86 01 00 00 00
1768349825.991175 can0 080 [0] 
1768349825.991886 can0 181 [6] 28 02 FF FF FF FF
1768349825.991887 can0 381 [2] 06 00
1768349825.992146 can0 281 [4] 86 9F 06 00
1768349825.992385 can0 481 [8] FD 1C 00 00 00 04 05 00
1768349825.999272 can0 501 [8] 0F 00 A0 86 01 00 00 00
1768349826.001351 can0 080 [0] 
1768349826.002097 can0 181 [6] 28 02 FF FF FF FF
1768349826.002098 can0 381 [2] FD FF
1768349826.002367 can0 281 [4] 86 9F 06 00
1768349826.002595 can0 481 [8] FB 1C 00 00 00 04 05 00
1768349826.009486 can0 501 [8] 0F 00 A0 86 01 00 00 00
1768349826.011584 can0 080 [0] 
1768349826.012403 can0 181 [6] 28 02 FF FF FF FF
1768349826.012403 can0 381 [2] 0B 00
1768349826.012669 can0 281 [4] 86 9F 06 00
1768349826.012897 can0 481 [8] FB 1C 00 00 00 04 05 00
1768349826.019717 can0 501 [8] 0F 00 A0 86 01 00 00 00
1768349826.021801 can0 080 [0] 
1768349826.022541 can0 181 [6] 28 02 FF FF FF FF
1768349826.022543 can0 381 [2] FE FF
1768349826.022810 can0 281 [4] 86 9F 06 00
1768349826.023038 can0 481 [8] F6 1C 00 00 00 04 05 00
1768349826.029924 can0 501 [8] 0F 00 A0 86 01 00 00 00
1768349826.032028 can0 080 [0] 
1768349826.032785 can0 181 [6] 28 02 FF FF FF FF
1768349826.032786 can0 381 [2] FD FF
1768349826.033071 can0 281 [4] 86 9F 06 00
1768349826.033072 can0 481 [8] F6 1C 00 00 00 04 05 00
1768349826.040154 can0 501 [8] 0F 00 A0 86 01 00 00 00
1768349826.042238 can0 080 [0] 
1768349826.043029 can0 181 [6] 28 02 FF FF FF FF
1768349826.043030 can0 381 [2] FE FF
1768349826.043332 can0 281 [4] 86 9F 06 00
1768349826.043333 can0 481 [8] F6 1C 00 00 00 04 05 00
1768349826.050358 can0 501 [8] 0F 00 A0 86 01 00 00 00
1768349826.052453 can0 080 [0] 
1768349826.053250 can0 181 [6] 28 02 FF FF FF FF
1768349826.053251 can0 381 [2] 0B 00
1768349826.053545 can0 281 [4] 86 9F 06 00
1768349826.053545 can0 481 [8] FB 1C 00 00 00 04 05 00
1768349826.060593 can0 501 [8] 0F 00 A0 86 01 00 00 00
1768349826.062687 can0 080 [0] 
1768349826.063444 can0 181 [6] 28 02 FF FF FF FF
1768349826.063444 can0 381 [2] F9 FF
1768349826.063736 can0 281 [4] 86 9F 06 00
1768349826.063736 can0 481 [8] FA 1C 00 00 00 04 05 00
1768349826.070805 can0 501 [8] 0F 00 A0 86 01 00 00 00
1768349826.072904 can0 080 [0] 
1768349826.073651 can0 181 [6] 28 02 FF FF FF FF
1768349826.073651 can0 381 [2] 07 00
1768349826.073914 can0 281 [4] 86 9F 06 00
1768349826.074201 can0 481 [8] FA 1C 00 00 00 04 05 00
1768349826.081057 can0 501 [8] 0F 00 A0 86 01 00 00 00
1768349826.083149 can0 080 [0] 
