1768352848.384815 can0 601 [8] 2B 40 60 00 06 00 00 00
1768352848.385590 can0 581 [8] 60 40 60 00 00 00 00 00
1768352848.486053 can0 601 [8] 2F 60 60 00 03 00 00 00
1768352848.486878 can0 581 [8] 60 60 60 00 00 00 00 00
1768352848.587260 can0 601 [8] 2B 40 60 00 07 00 00 00
1768352848.587969 can0 581 [8] 60 40 60 00 00 00 00 00
1768352848.688445 can0 601 [8] 2B 40 60 00 0F 00 00 00
1768352848.689195 can0 581 [8] 60 40 60 00 00 00 00 00
1768352848.889676 can0 601 [8] 23 FF 60 00 00 00 00 00
1768352848.890433 can0 581 [8] 60 FF 60 00 00 00 00 00
1768352849.090786 can0 601 [8] 23 FF 60 00 88 13 00 00
1768352849.091569 can0 581 [8] 60 FF 60 00 00 00 00 00
1768352849.291978 can0 601 [8] 23 FF 60 00 10 27 00 00
1768352849.292890 can0 581 [8] 60 FF 60 00 00 00 00 00
1768352849.493285 can0 601 [8] 40 6C 60 00 00 00 00 00
1768352849.494134 can0 581 [8] 42 6C 60 00 3E 1C 00 00
1768352849.694546 can0 601 [8] 40 6C 60 00 00 00 00 00
1768352849.695286 can0 581 [8] 42 6C 60 00 F8 14 00 00
1768352849.895668 can0 601 [8] 40 6C 60 00 00 00 00 00
1768352849.896410 can0 581 [8] 42 6C 60 00 9B 19 00 00
1768352850.096790 can0 601 [8] 40 6C 60 00 00 00 00 00
1768352850.097547 can0 581 [8] 42 6C 60 00 84 13 00 00
1768352850.297979 can0 601 [8] 40 6C 60 00 00 00 00 00
1768352850.298826 can0 581 [8] 42 6C 60 00 82 1A 00 00
1768352850.499246 can0 601 [8] 40 6C 60 00 00 00 00 00
1768352850.500114 can0 581 [8] 42 6C 60 00 0A 14 00 00
1768352850.700577 can0 601 [8] 40 6C 60 00 00 00 00 00
1768352850.701370 can0 581 [8] 42 6C 60 00 C9 1B 00 00
1768352850.901839 can0 601 [8] 40 6C 60 00 00 00 00 00
1768352850.902660 can0 581 [8] 42 6C 60 00 92 16 00 00
1768352851.103058 can0 601 [8] 40 6C 60 00 00 00 00 00
1768352851.103830 can0 581 [8] 42 6C 60 00 DF 18 00 00
1768352851.304203 can0 601 [8] 40 6C 60 00 00 00 00 00
1768352851.305063 can0 581 [8] 42 6C 60 00 EA 18 00 00
1768352851.505661 can0 601 [8] 40 6C 60 00 00 00 00 00
1768352851.506371 can0 581 [8] 42 6C 60 00 B6 17 00 00
1768352851.707484 can0 601 [8] 40 6C 60 00 00 00 00 00
1768352851.708179 can0 581 [8] 42 6C 60 00 79 1E 00 00
1768352851.909040 can0 601 [8] 40 6C 60 00 00 00 00 00
1768352851.909911 can0 581 [8] 42 6C 60 00 8C 19 00 00
1768352852.110649 can0 601 [8] 40 6C 60 00 00 00 00 00
1768352852.111359 can0 581 [8] 42 6C 60 00 96 1B 00 00
1768352852.311795 can0 601 [8] 40 6C 60 00 00 00 00 00
1768352852.312575 can0 581 [8] 42 6C 60 00 05 1F 00 00
1768352852.513062 can0 601 [8] 40 6C 60 00 00 00 00 00
1768352852.513918 can0 581 [8] 42 6C 60 00 CF 18 00 00
1768352852.714343 can0 601 [8] 40 6C 60 00 00 00 00 00
1768352852.715090 can0 581 [8] 42 6C 60 00 47 1A 00 00
1768352852.915519 can0 601 [8] 40 6C 60 00 00 00 00 00
1768352852.916283 can0 581 [8] 42 6C 60 00 49 1A 00 00
1768352853.116794 can0 601 [8] 40 6C 60 00 00 00 00 00
1768352853.117506 can0 581 [8] 42 6C 60 00 65 15 00 00
1768352853.318043 can0 601 [8] 40 6C 60 00 00 00 00 00
1768352853.318827 can0 581 [8] 42 6C 60 00 E6 1F 00 00
1768352853.519406 can0 601 [8] 40 6C 60 00 00 00 00 00
1768352853.520160 can0 581 [8] 42 6C 60 00 E1 12 00 00
1768352853.720659 can0 601 [8] 40 6C 60 00 00 00 00 00
1768352853.721434 can0 581 [8] 42 6C 60 00 43 16 00 00
1768352853.922040 can0 601 [8] 40 6C 60 00 00 00 00 00
1768352853.922822 can0 581 [8] 42 6C 60 00 D5 16 00 00
1768352854.123305 can0 601 [8] 40 6C 60 00 00 00 00 00
1768352854.124033 can0 581 [8] 42 6C 60 00 D3 11 00 00
1768352854.324490 can0 601 [8] 40 6C 60 00 00 00 00 00
1768352854.325257 can0 581 [8] 42 6C 60 00 08 19 00 00
1768352854.525794 can0 601 [8] 40 6C 60 00 00 00 00 00
1768352854.526664 can0 581 [8] 42 6C 60 00 5A 12 00 00
1768352854.727161 can0 601 [8] 40 6C 60 00 00 00 00 00
1768352854.727890 can0 581 [8] 42 6C 60 00 31 1E 00 00
1768352854.928492 can0 601 [8] 40 6C 60 00 00 00 00 00
1768352854.929193 can0 581 [8] 42 6C 60 00 28 15 00 00
1768352855.129675 can0 601 [8] 40 6C 60 00 00 00 00 00
1768352855.130452 can0 581 [8] 42 6C 60 00 63 1F 00 00
1768352855.331043 can0 601 [8] 40 6C 60 00 00 00 00 00
1768352855.331779 can0 581 [8] 42 6C 60 00 6C 18 00 00
1768352855.532564 can0 601 [8] 23 FF 60 00 00 00 00 00
1768352855.533352 can0 581 [8] 60 FF 60 00 00 00 00 00
1768352855.633745 can0 601 [8] 2B 40 60 00 07 00 00 00
1768352855.634523 can0 581 [8] 60 40 60 00 00 00 00 00
1768352855.685050 can0 601 [8] 2B 40 60 00 06 00 00 00
1768352855.685780 can0 581 [8] 60 40 60 00 00 00 00 00
