1768357807.264241 can0 601 [8] 2B 40 60 00 06 00 00 00
1768357807.264986 can0 581 [8] 60 40 60 00 00 00 00 00
1768357807.366047 can0 601 [8] 2F 60 60 00 03 00 00 00
1768357807.366759 can0 581 [8] 60 60 60 00 00 00 00 00
1768357807.467454 can0 601 [8] 2B 40 60 00 07 00 00 00
1768357807.468209 can0 581 [8] 60 40 60 00 00 00 00 00
1768357807.568775 can0 601 [8] 2B 40 60 00 0F 00 00 00
1768357807.569488 can0 581 [8] 60 40 60 00 00 00 00 00
1768357807.770506 can0 601 [8] 40 61 60 00 00 00 00 00
1768357807.771404 can0 581 [8] 42 61 60 00 03 00 00 00
1768357807.771699 can0 601 [8] 40 41 60 00 00 00 00 00
1768357807.772445 can0 581 [8] 42 41 60 00 37 06 00 00
1768357807.772718 can0 601 [8] 23 FF 60 00 00 00 00 00
1768357807.773497 can0 581 [8] 60 FF 60 00 00 00 00 00
1768357807.874649 can0 601 [8] 23 FF 60 00 68 C5 FF FF
1768357807.875465 can0 581 [8] 60 FF 60 00 00 00 00 00
1768357807.996465 can0 601 [8] 23 FF 60 00 D0 8A FF FF
1768357807.997319 can0 581 [8] 60 FF 60 00 00 00 00 00
1768357808.117805 can0 601 [8] 23 FF 60 00 38 50 FF FF
1768357808.118587 can0 581 [8] 60 FF 60 00 00 00 00 00
1768357808.239576 can0 601 [8] 23 FF 60 00 A0 15 FF FF
1768357808.240341 can0 581 [8] 60 FF 60 00 00 00 00 00
1768357808.361328 can0 601 [8] 23 FF 60 00 08 DB FE FF
1768357808.362068 can0 581 [8] 60 FF 60 00 00 00 00 00
1768357808.483032 can0 601 [8] 23 FF 60 00 70 A0 FE FF
1768357808.483837 can0 581 [8] 60 FF 60 00 00 00 00 00
1768357808.604788 can0 601 [8] 23 FF 60 00 D8 65 FE FF
1768357808.605338 can0 581 [8] 60 FF 60 00 00 00 00 00
1768357808.726338 can0 601 [8] 23 FF 60 00 40 2B FE FF
1768357808.727150 can0 581 [8] 60 FF 60 00 00 00 00 00
1768357808.847715 can0 601 [8] 23 FF 60 00 A8 F0 FD FF
1768357808.848516 can0 581 [8] 60 FF 60 00 00 00 00 00
1768357808.970139 can0 601 [8] 23 FF 60 00 10 B6 FD FF
1768357808.970928 can0 581 [8] 60 FF 60 00 00 00 00 00
1768357809.092004 can0 601 [8] 23 FF 60 00 78 7B FD FF
1768357809.092759 can0 581 [8] 60 FF 60 00 00 00 00 00
1768357809.213647 can0 601 [8] 23 FF 60 00 E0 40 FD FF
1768357809.214545 can0 581 [8] 60 FF 60 00 00 00 00 00
1768357809.335189 can0 601 [8] 23 FF 60 00 14 17 FD FF
1768357809.336119 can0 581 [8] 60 FF 60 00 00 00 00 00
1768357809.456840 can0 601 [8] 40 6C 60 00 00 00 00 00
1768357809.457645 can0 581 [8] 42 6C 60 00 00 00 00 00
1768357809.958662 can0 601 [8] 40 6C 60 00 00 00 00 00
1768357809.959472 can0 581 [8] 42 6C 60 00 00 00 00 00
1768357810.460501 can0 601 [8] 40 6C 60 00 00 00 00 00
1768357810.461213 can0 581 [8] 42 6C 60 00 00 00 00 00
1768357810.962269 can0 601 [8] 40 6C 60 00 00 00 00 00
1768357810.963010 can0 581 [8] 42 6C 60 00 00 00 00 00
1768357811.464100 can0 601 [8] 40 6C 60 00 00 00 00 00
1768357811.464834 can0 581 [8] 42 6C 60 00 00 00 00 00
1768357811.965896 can0 601 [8] 40 6C 60 00 00 00 00 00
1768357811.966632 can0 581 [8] 42 6C 60 00 00 00 00 00
1768357812.467715 can0 601 [8] 40 6C 60 00 00 00 00 00
1768357812.468418 can0 581 [8] 42 6C 60 00 00 00 00 00
1768357812.969439 can0 601 [8] 40 6C 60 00 00 00 00 00
1768357812.970203 can0 581 [8] 42 6C 60 00 00 00 00 00
1768357813.471230 can0 601 [8] 40 6C 60 00 00 00 00 00
1768357813.472036 can0 581 [8] 42 6C 60 00 00 00 00 00
1768357813.973122 can0 601 [8] 40 6C 60 00 00 00 00 00
1768357813.973909 can0 581 [8] 42 6C 60 00 00 00 00 00
1768357814.475628 can0 601 [8] 23 FF 60 00 AC 51 FD FF
1768357814.476455 can0 581 [8] 60 FF 60 00 00 00 00 00
1768357814.586089 can0 601 [8] 23 FF 60 00 44 8C FD FF
1768357814.586947 can0 581 [8] 60 FF 60 00 00 00 00 00
1768357814.695519 can0 601 [8] 23 FF 60 00 DC C6 FD FF
1768357814.696275 can0 581 [8] 60 FF 60 00 00 00 00 00
1768357814.805239 can0 601 [8] 23 FF 60 00 74 01 FE FF
1768357814.806064 can0 581 [8] 60 FF 60 00 00 00 00 00
1768357814.914680 can0 601 [8] 23 FF 60 00 0C 3C FE FF
1768357814.915423 can0 581 [8] 60 FF 60 00 00 00 00 00
1768357815.024140 can0 601 [8] 23 FF 60 00 A4 76 FE FF
1768357815.024984 can0 581 [8] 60 FF 60 00 00 00 00 00
1768357815.134783 can0 601 [8] 23 FF 60 00 3C B1 FE FF
1768357815.135579 can0 581 [8] 60 FF 60 00 00 00 00 00
1768357815.244243 can0 601 [8] 23 FF 60 00 D4 EB FE FF
1768357815.245008 can0 581 [8] 60 FF 60 00 00 00 00 00
1768357815.353622 can0 601 [8] 23 FF 60 00 6C 26 FF FF
1768357815.354403 can0 581 [8] 60 FF 60 00 00 00 00 00
1768357815.464152 can0 601 [8] 23 FF 60 00 04 61 FF FF
1768357815.465009 can0 581 [8] 60 FF 60 00 00 00 00 00
1768357815.573737 can0 601 [8] 23 FF 60 00 9C 9B FF FF
1768357815.574506 can0 581 [8] 60 FF 60 00 00 00 00 00
1768357815.683049 can0 601 [8] 23 FF 60 00 34 D6 FF FF
1768357815.683854 can0 581 [8] 60 FF 60 00 00 00 00 00
1768357815.792385 can0 601 [8] 23 FF 60 00 00 00 00 00
1768357815.793175 can0 581 [8] 60 FF 60 00 00 00 00 00
1768357815.902572 can0 601 [8] 2B 40 60 00 07 00 00 00
1768357815.903372 can0 581 [8] 60 40 60 00 00 00 00 00
1768357815.955008 can0 601 [8] 2B 40 60 00 06 00 00 00
1768357815.955732 can0 581 [8] 60 40 60 00 00 00 00 00
1768357816.006728 can0 601 [8] 23 FF 60 00 00 00 00 00
1768357816.007475 can0 581 [8] 60 FF 60 00 00 00 00 00
1768357816.007772 can0 601 [8] 2B 40 60 00 07 00 00 00
1768357816.009944 can0 581 [8] 60 40 60 00 00 00 00 00
1768357816.061100 can0 601 [8] 2B 40 60 00 06 00 00 00
1768357816.061885 can0 581 [8] 60 40 60 00 00 00 00 00
1768357836.714985 can0 601 [8] 2B 40 60 00 06 00 00 00
1768357836.715729 can0 581 [8] 60 40 60 00 00 00 00 00
1768357836.816687 can0 601 [8] 2F 60 60 00 03 00 00 00
1768357836.817472 can0 581 [8] 60 60 60 00 00 00 00 00
1768357836.919065 can0 601 [8] 2B 40 60 00 07 00 00 00
1768357836.919774 can0 581 [8] 60 40 60 00 00 00 00 00
1768357837.020410 can0 601 [8] 2B 40 60 00 0F 00 00 00
1768357837.021121 can0 581 [8] 60 40 60 00 00 00 00 00
1768357837.221699 can0 601 [8] 40 61 60 00 00 00 00 00
1768357837.222414 can0 581 [8] 42 61 60 00 03 00 00 00
1768357837.222738 can0 601 [8] 40 41 60 00 00 00 00 00
1768357837.223646 can0 581 [8] 42 41 60 00 37 06 00 00
1768357837.223964 can0 601 [8] 23 FF 60 00 00 00 00 00
1768357837.224822 can0 581 [8] 60 FF 60 00 00 00 00 00
1768357837.325983 can0 601 [8] 23 FF 60 00 68 C5 FF FF
1768357837.326790 can0 581 [8] 60 FF 60 00 00 00 00 00
1768357837.447330 can0 601 [8] 23 FF 60 00 D0 8A FF FF
1768357837.448052 can0 581 [8] 60 FF 60 00 00 00 00 00
1768357837.568642 can0 601 [8] 23 FF 60 00 38 50 FF FF
1768357837.569418 can0 581 [8] 60 FF 60 00 00 00 00 00
1768357837.690040 can0 601 [8] 23 FF 60 00 A0 15 FF FF
1768357837.690904 can0 581 [8] 60 FF 60 00 00 00 00 00
1768357837.811617 can0 601 [8] 23 FF 60 00 08 DB FE FF
1768357837.812384 can0 581 [8] 60 FF 60 00 00 00 00 00
1768357837.933377 can0 601 [8] 23 FF 60 00 70 A0 FE FF
1768357837.934208 can0 581 [8] 60 FF 60 00 00 00 00 00
1768357838.054847 can0 601 [8] 23 FF 60 00 D8 65 FE FF
1768357838.055614 can0 581 [8] 60 FF 60 00 00 00 00 00
1768357838.176618 can0 601 [8] 23 FF 60 00 40 2B FE FF
1768357838.177414 can0 581 [8] 60 FF 60 00 00 00 00 00
1768357838.298108 can0 601 [8] 23 FF 60 00 A8 F0 FD FF
1768357838.298873 can0 581 [8] 60 FF 60 00 00 00 00 00
1768357838.419911 can0 601 [8] 23 FF 60 00 10 B6 FD FF
1768357838.420664 can0 581 [8] 60 FF 60 00 00 00 00 00
1768357838.541269 can0 601 [8] 23 FF 60 00 78 7B FD FF
1768357838.542095 can0 581 [8] 60 FF 60 00 00 00 00 00
1768357838.662768 can0 601 [8] 23 FF 60 00 E0 40 FD FF
1768357838.663564 can0 581 [8] 60 FF 60 00 00 00 00 00
1768357838.784724 can0 601 [8] 23 FF 60 00 14 17 FD FF
1768357838.785515 can0 581 [8] 60 FF 60 00 00 00 00 00
1768357838.906586 can0 601 [8] 40 6C 60 00 00 00 00 00
1768357838.907370 can0 581 [8] 42 6C 60 00 00 00 00 00
1768357839.408336 can0 601 [8] 40 6C 60 00 00 00 00 00
1768357839.409082 can0 581 [8] 42 6C 60 00 00 00 00 00
1768357839.910358 can0 601 [8] 40 6C 60 00 00 00 00 00
1768357839.911083 can0 581 [8] 42 6C 60 00 00 00 00 00
1768357840.412605 can0 601 [8] 40 6C 60 00 00 00 00 00
1768357840.413314 can0 581 [8] 42 6C 60 00 00 00 00 00
1768357840.914089 can0 601 [8] 40 6C 60 00 00 00 00 00
1768357840.914868 can0 581 [8] 42 6C 60 00 00 00 00 00
1768357841.415497 can0 601 [8] 40 6C 60 00 00 00 00 00
1768357841.416229 can0 581 [8] 42 6C 60 00 00 00 00 00
1768357841.917257 can0 601 [8] 40 6C 60 00 00 00 00 00
1768357841.917965 can0 581 [8] 42 6C 60 00 00 00 00 00
1768357842.419244 can0 601 [8] 40 6C 60 00 00 00 00 00
1768357842.419930 can0 581 [8] 42 6C 60 00 00 00 00 00
1768357842.921179 can0 601 [8] 40 6C 60 00 00 00 00 00
1768357842.921883 can0 581 [8] 42 6C 60 00 00 00 00 00
1768357843.422459 can0 601 [8] 40 6C 60 00 00 00 00 00
1768357843.423254 can0 581 [8] 42 6C 60 00 00 00 00 00
1768357843.924374 can0 601 [8] 23 FF 60 00 AC 51 FD FF
1768357843.925168 can0 581 [8] 60 FF 60 00 00 00 00 00
1768357844.034399 can0 601 [8] 23 FF 60 00 44 8C FD FF
1768357844.035169 can0 581 [8] 60 FF 60 00 00 00 00 00
1768357844.143802 can0 601 [8] 23 FF 60 00 DC C6 FD FF
1768357844.144616 can0 581 [8] 60 FF 60 00 00 00 00 00
1768357844.254124 can0 601 [8] 23 FF 60 00 74 01 FE FF
1768357844.254904 can0 581 [8] 60 FF 60 00 00 00 00 00
1768357844.363887 can0 601 [8] 23 FF 60 00 0C 3C FE FF
1768357844.364667 can0 581 [8] 60 FF 60 00 00 00 00 00
1768357844.474347 can0 601 [8] 23 FF 60 00 A4 76 FE FF
1768357844.475100 can0 581 [8] 60 FF 60 00 00 00 00 00
1768357844.583861 can0 601 [8] 23 FF 60 00 3C B1 FE FF
1768357844.584633 can0 581 [8] 60 FF 60 00 00 00 00 00
1768357844.693215 can0 601 [8] 23 FF 60 00 D4 EB FE FF
1768357844.694066 can0 581 [8] 60 FF 60 00 00 00 00 00
1768357844.802686 can0 601 [8] 23 FF 60 00 6C 26 FF FF
1768357844.803444 can0 581 [8] 60 FF 60 00 00 00 00 00
1768357844.911994 can0 601 [8] 23 FF 60 00 04 61 FF FF
1768357844.912907 can0 581 [8] 60 FF 60 00 00 00 00 00
1768357845.021619 can0 601 [8] 23 FF 60 00 9C 9B FF FF
1768357845.022401 can0 581 [8] 60 FF 60 00 00 00 00 00
1768357845.131848 can0 601 [8] 23 FF 60 00 34 D6 FF FF
1768357845.132593 can0 581 [8] 60 FF 60 00 00 00 00 00
1768357845.241107 can0 601 [8] 23 FF 60 00 00 00 00 00
1768357845.241990 can0 581 [8] 60 FF 60 00 00 00 00 00
1768357845.351182 can0 601 [8] 2B 40 60 00 07 00 00 00
1768357845.351934 can0 581 [8] 60 40 60 00 00 00 00 00
1768357845.402799 can0 601 [8] 2B 40 60 00 06 00 00 00
1768357845.403516 can0 581 [8] 60 40 60 00 00 00 00 00
1768357845.454050 can0 601 [8] 23 FF 60 00 00 00 00 00
1768357845.454796 can0 581 [8] 60 FF 60 00 00 00 00 00
1768357845.455095 can0 601 [8] 2B 40 60 00 07 00 00 00
1768357845.455917 can0 581 [8] 60 40 60 00 00 00 00 00
1768357845.507588 can0 601 [8] 2B 40 60 00 06 00 00 00
1768357845.508297 can0 581 [8] 60 40 60 00 00 00 00 00
1768357955.333109 can0 601 [8] 40 61 60 00 00 00 00 00
1768357955.333847 can0 581 [8] 42 61 60 00 03 00 00 00
1768357955.433646 can0 601 [8] 23 40 60 00 06 00 00 00
1768357955.434427 can0 581 [8] 60 40 60 00 00 00 00 00
1768357955.835748 can0 601 [8] 23 60 60 00 03 00 00 00
1768357955.836560 can0 581 [8] 60 60 60 00 00 00 00 00
1768357956.436131 can0 601 [8] 40 61 60 00 00 00 00 00
1768357956.436848 can0 581 [8] 42 61 60 00 03 00 00 00
1768357956.536605 can0 601 [8] 23 40 60 00 07 00 00 00
1768357956.537484 can0 581 [8] 60 40 60 00 00 00 00 00
1768357956.937082 can0 601 [8] 23 40 60 00 0F 00 00 00
1768357956.937821 can0 581 [8] 60 40 60 00 00 00 00 00
1768357957.537453 can0 601 [8] 40 41 60 00 00 00 00 00
1768357957.538182 can0 581 [8] 42 41 60 00 37 06 00 00
1768357957.638131 can0 601 [8] 23 42 60 00 64 00 00 00
1768357957.638867 can0 581 [8] 80 42 60 00 00 00 02 06
1768357957.739148 can0 601 [8] 40 42 60 00 00 00 00 00
1768357957.739874 can0 581 [8] 80 42 60 00 00 00 02 06
1768357960.840632 can0 601 [8] 40 41 60 00 00 00 00 00
1768357960.841386 can0 581 [8] 42 41 60 00 37 06 00 00
1768357960.942242 can0 601 [8] 23 42 60 00 C8 00 00 00
1768357960.942946 can0 581 [8] 80 42 60 00 00 00 02 06
1768357961.043739 can0 601 [8] 40 42 60 00 00 00 00 00
1768357961.044543 can0 581 [8] 80 42 60 00 00 00 02 06
1768357964.145606 can0 601 [8] 40 41 60 00 00 00 00 00
1768357964.146325 can0 581 [8] 42 41 60 00 37 06 00 00
1768357964.246052 can0 601 [8] 23 42 60 00 9C FF FF FF
1768357964.246757 can0 581 [8] 80 42 60 00 00 00 02 06
1768357964.346379 can0 601 [8] 40 42 60 00 00 00 00 00
1768357964.347173 can0 581 [8] 80 42 60 00 00 00 02 06
1768357967.447458 can0 601 [8] 40 41 60 00 00 00 00 00
1768357967.448200 can0 581 [8] 42 41 60 00 37 06 00 00
1768357967.547846 can0 601 [8] 23 42 60 00 00 00 00 00
1768357967.548583 can0 581 [8] 80 42 60 00 00 00 02 06
1768357967.648629 can0 601 [8] 40 42 60 00 00 00 00 00
1768357967.649327 can0 581 [8] 80 42 60 00 00 00 02 06
1768357993.843863 can0 601 [8] 40 41 60 00 00 00 00 00
1768357993.844601 can0 581 [8] 42 41 60 00 37 06 00 00
1768357993.894428 can0 000 [2] 82 01
1768357993.895134 can0 701 [1] 00
1768357994.894741 can0 000 [2] 01 01
1768357995.395132 can0 601 [8] 23 40 60 00 80 00 00 00
1768357995.395878 can0 581 [8] 60 40 60 00 00 00 00 00
1768357995.895493 can0 601 [8] 40 41 60 00 00 00 00 00
1768357995.896271 can0 581 [8] 42 41 60 00 37 06 00 00
1768357995.946960 can0 601 [8] 23 40 60 00 00 00 00 00
1768357995.947754 can0 581 [8] 60 40 60 00 00 00 00 00
1768357996.247329 can0 601 [8] 23 40 60 00 06 00 00 00
1768357996.248114 can0 581 [8] 60 40 60 00 00 00 00 00
1768357996.547658 can0 601 [8] 40 41 60 00 00 00 00 00
1768357996.548364 can0 581 [8] 42 41 60 00 21 06 00 00
1768357996.598112 can0 601 [8] 23 40 60 00 07 00 00 00
1768357996.598877 can0 581 [8] 60 40 60 00 00 00 00 00
1768357996.899136 can0 601 [8] 23 40 60 00 0F 00 00 00
1768357996.899831 can0 581 [8] 60 40 60 00 00 00 00 00
1768357997.199562 can0 601 [8] 40 41 60 00 00 00 00 00
1768357997.200326 can0 581 [8] 42 41 60 00 37 06 00 00
1768358006.404241 can0 601 [8] 23 FF 60 00 00 00 00 00
1768358006.405064 can0 581 [8] 60 FF 60 00 00 00 00 00
1768358006.505586 can0 601 [8] 23 40 60 00 07 00 00 00
1768358006.506338 can0 581 [8] 60 40 60 00 00 00 00 00
1768358006.606879 can0 601 [8] 23 40 60 00 06 00 00 00
1768358006.607663 can0 581 [8] 60 40 60 00 00 00 00 00
1768358006.708967 can0 601 [8] 23 40 60 00 00 00 00 00
1768358006.709707 can0 581 [8] 60 40 60 00 00 00 00 00
1768358134.672332 can0 601 [8] 2B 40 60 00 06 00 00 00
1768358134.673099 can0 581 [8] 60 40 60 00 00 00 00 00
1768358134.773715 can0 601 [8] 2F 60 60 00 03 00 00 00
1768358134.774425 can0 581 [8] 60 60 60 00 00 00 00 00
1768358134.875003 can0 601 [8] 2B 40 60 00 07 00 00 00
1768358134.875711 can0 581 [8] 60 40 60 00 00 00 00 00
1768358134.976254 can0 601 [8] 2B 40 60 00 0F 00 00 00
1768358134.977093 can0 581 [8] 60 40 60 00 00 00 00 00
1768358135.177706 can0 601 [8] 40 61 60 00 00 00 00 00
1768358135.178441 can0 581 [8] 42 61 60 00 03 00 00 00
1768358135.178713 can0 601 [8] 40 41 60 00 00 00 00 00
1768358135.179473 can0 581 [8] 42 41 60 00 37 06 00 00
1768358135.179703 can0 601 [8] 23 FF 60 00 00 00 00 00
1768358135.180533 can0 581 [8] 60 FF 60 00 00 00 00 00
1768358135.281042 can0 601 [8] 23 FF 60 00 68 C5 FF FF
1768358135.281927 can0 581 [8] 60 FF 60 00 00 00 00 00
1768358135.402417 can0 601 [8] 23 FF 60 00 D0 8A FF FF
1768358135.403234 can0 581 [8] 60 FF 60 00 00 00 00 00
1768358135.523746 can0 601 [8] 23 FF 60 00 38 50 FF FF
1768358135.524516 can0 581 [8] 60 FF 60 00 00 00 00 00
1768358135.644987 can0 601 [8] 23 FF 60 00 A0 15 FF FF
1768358135.645776 can0 581 [8] 60 FF 60 00 00 00 00 00
1768358135.766242 can0 601 [8] 23 FF 60 00 08 DB FE FF
1768358135.767103 can0 581 [8] 60 FF 60 00 00 00 00 00
1768358135.887710 can0 601 [8] 23 FF 60 00 70 A0 FE FF
1768358135.888463 can0 581 [8] 60 FF 60 00 00 00 00 00
1768358136.008985 can0 601 [8] 23 FF 60 00 D8 65 FE FF
1768358136.009759 can0 581 [8] 60 FF 60 00 00 00 00 00
1768358136.130264 can0 601 [8] 23 FF 60 00 40 2B FE FF
1768358136.131097 can0 581 [8] 60 FF 60 00 00 00 00 00
1768358136.251697 can0 601 [8] 23 FF 60 00 A8 F0 FD FF
1768358136.252455 can0 581 [8] 60 FF 60 00 00 00 00 00
1768358136.372913 can0 601 [8] 23 FF 60 00 10 B6 FD FF
1768358136.373691 can0 581 [8] 60 FF 60 00 00 00 00 00
1768358136.494087 can0 601 [8] 23 FF 60 00 78 7B FD FF
1768358136.494898 can0 581 [8] 60 FF 60 00 00 00 00 00
1768358136.615279 can0 601 [8] 23 FF 60 00 E0 40 FD FF
1768358136.616090 can0 581 [8] 60 FF 60 00 00 00 00 00
1768358136.736494 can0 601 [8] 23 FF 60 00 14 17 FD FF
1768358136.737269 can0 581 [8] 60 FF 60 00 00 00 00 00
1768358136.857701 can0 601 [8] 40 6C 60 00 00 00 00 00
1768358136.858469 can0 581 [8] 42 6C 60 00 00 00 00 00
1768358137.358919 can0 601 [8] 40 6C 60 00 00 00 00 00
1768358137.359674 can0 581 [8] 42 6C 60 00 00 00 00 00
1768358137.860431 can0 601 [8] 40 6C 60 00 00 00 00 00
1768358137.861147 can0 581 [8] 42 6C 60 00 00 00 00 00
1768358138.361693 can0 601 [8] 40 6C 60 00 00 00 00 00
1768358138.362371 can0 581 [8] 42 6C 60 00 00 00 00 00
1768358138.556639 can0 601 [8] 23 FF 60 00 00 00 00 00
1768358138.557425 can0 581 [8] 60 FF 60 00 00 00 00 00
1768358138.557627 can0 601 [8] 2B 40 60 00 07 00 00 00
1768358138.558384 can0 581 [8] 60 40 60 00 00 00 00 00
1768358138.609678 can0 601 [8] 2B 40 60 00 06 00 00 00
1768358138.610428 can0 581 [8] 60 40 60 00 00 00 00 00
1768358204.754493 can0 601 [8] 42 02 20 05 00 00 00 00
1768358204.754527 can0 581 [8] 42 02 20 05 43 00 00 00
1768358204.755104 can0 602 [8] 42 02 20 05 00 00 00 00
1768358204.755358 can0 582 [8] 42 02 20 05 43 00 00 00
1768358204.756286 can0 601 [8] 2B 5A 20 2E 00 00 00 00
1768358204.758705 can0 581 [8] 60 5A 20 2E 00 00 00 00
1768358204.758722 can0 601 [8] 2B 5A 20 01 01 00 00 00
1768358204.758785 can0 601 [8] 2B 5A 20 40 01 00 00 00
1768358204.759509 can0 581 [8] 60 5A 20 01 00 00 00 00
1768358204.760388 can0 581 [8] 60 5A 20 40 00 00 00 00
1768358204.760663 can0 602 [8] 2B 5A 20 2E 00 00 00 00
1768358204.761691 can0 582 [8] 60 5A 20 2E 00 00 00 00
1768358204.762836 can0 602 [8] 2B 5A 20 01 01 00 00 00
1768358204.763951 can0 582 [8] 60 5A 20 01 00 00 00 00
1768358204.765030 can0 602 [8] 2B 5A 20 40 01 00 00 00
1768358204.766093 can0 582 [8] 60 5A 20 40 00 00 00 00
1768358204.767239 can0 601 [8] 2B 01 20 03 00 00 00 00
1768358204.767504 can0 581 [8] 60 01 20 03 00 00 00 00
1768358204.768398 can0 601 [8] 2B 01 20 03 01 00 00 00
1768358204.768726 can0 602 [8] 2B 01 20 03 00 00 00 00
1768358204.768727 can0 581 [8] 60 01 20 03 00 00 00 00
1768358204.769015 can0 582 [8] 60 01 20 03 00 00 00 00
1768358204.769475 can0 602 [8] 2B 01 20 03 01 00 00 00
1768358204.769745 can0 582 [8] 60 01 20 03 00 00 00 00
1768358204.770606 can0 604 [8] 2B 01 20 03 00 00 00 00
1768358204.879524 can0 604 [8] 42 02 20 01 00 00 00 00
1768358208.875271 can0 601 [8] 2B 40 60 00 06 00 00 00
1768358208.876119 can0 581 [8] 60 40 60 00 00 00 00 00
1768358208.976653 can0 601 [8] 2F 60 60 00 03 00 00 00
1768358208.977397 can0 581 [8] 60 60 60 00 00 00 00 00
1768358209.077983 can0 601 [8] 2B 40 60 00 07 00 00 00
1768358209.078720 can0 581 [8] 60 40 60 00 00 00 00 00
1768358209.179188 can0 601 [8] 2B 40 60 00 0F 00 00 00
1768358209.180006 can0 581 [8] 60 40 60 00 00 00 00 00
1768358209.380521 can0 601 [8] 40 61 60 00 00 00 00 00
1768358209.381377 can0 581 [8] 42 61 60 00 03 00 00 00
1768358209.381681 can0 601 [8] 40 41 60 00 00 00 00 00
1768358209.382463 can0 581 [8] 42 41 60 00 37 06 00 00
1768358209.382705 can0 601 [8] 23 FF 60 00 00 00 00 00
1768358209.383586 can0 581 [8] 60 FF 60 00 00 00 00 00
1768358209.484098 can0 601 [8] 23 FF 60 00 68 C5 FF FF
1768358209.484854 can0 581 [8] 60 FF 60 00 00 00 00 00
1768358209.605307 can0 601 [8] 23 FF 60 00 D0 8A FF FF
1768358209.606128 can0 581 [8] 60 FF 60 00 00 00 00 00
1768358209.726611 can0 601 [8] 23 FF 60 00 38 50 FF FF
1768358209.727412 can0 581 [8] 60 FF 60 00 00 00 00 00
1768358209.847977 can0 601 [8] 23 FF 60 00 A0 15 FF FF
1768358209.848752 can0 581 [8] 60 FF 60 00 00 00 00 00
1768358209.969249 can0 601 [8] 23 FF 60 00 08 DB FE FF
1768358209.970138 can0 581 [8] 60 FF 60 00 00 00 00 00
1768358210.090680 can0 601 [8] 23 FF 60 00 70 A0 FE FF
1768358210.091440 can0 581 [8] 60 FF 60 00 00 00 00 00
1768358210.211999 can0 601 [8] 23 FF 60 00 D8 65 FE FF
1768358210.212742 can0 581 [8] 60 FF 60 00 00 00 00 00
1768358210.333270 can0 601 [8] 23 FF 60 00 40 2B FE FF
1768358210.334120 can0 581 [8] 60 FF 60 00 00 00 00 00
1768358210.454624 can0 601 [8] 23 FF 60 00 A8 F0 FD FF
1768358210.455396 can0 581 [8] 60 FF 60 00 00 00 00 00
1768358210.575979 can0 601 [8] 23 FF 60 00 10 B6 FD FF
1768358210.576717 can0 581 [8] 60 FF 60 00 00 00 00 00
1768358210.697149 can0 601 [8] 23 FF 60 00 78 7B FD FF
1768358210.697965 can0 581 [8] 60 FF 60 00 00 00 00 00
1768358210.818344 can0 601 [8] 23 FF 60 00 E0 40 FD FF
1768358210.819131 can0 581 [8] 60 FF 60 00 00 00 00 00
1768358210.939432 can0 601 [8] 23 FF 60 00 14 17 FD FF
1768358210.940231 can0 581 [8] 60 FF 60 00 00 00 00 00
1768358211.060656 can0 601 [8] 40 6C 60 00 00 00 00 00
1768358211.061443 can0 581 [8] 42 6C 60 00 00 00 00 00
1768358211.561970 can0 601 [8] 40 6C 60 00 00 00 00 00
1768358211.562728 can0 581 [8] 42 6C 60 00 00 00 00 00
1768358212.064469 can0 601 [8] 40 6C 60 00 00 00 00 00
1768358212.065288 can0 581 [8] 42 6C 60 00 00 00 00 00
1768358212.565804 can0 601 [8] 40 6C 60 00 00 00 00 00
1768358212.566598 can0 581 [8] 42 6C 60 00 00 00 00 00
1768358213.067212 can0 601 [8] 40 6C 60 00 00 00 00 00
1768358213.068020 can0 581 [8] 42 6C 60 00 00 00 00 00
1768358213.569286 can0 601 [8] 40 6C 60 00 00 00 00 00
1768358213.570040 can0 581 [8] 42 6C 60 00 00 00 00 00
1768358214.071756 can0 601 [8] 40 6C 60 00 00 00 00 00
1768358214.072535 can0 581 [8] 42 6C 60 00 00 00 00 00
1768358214.573670 can0 601 [8] 40 6C 60 00 00 00 00 00
1768358214.574463 can0 581 [8] 42 6C 60 00 00 00 00 00
1768358215.076027 can0 601 [8] 40 6C 60 00 00 00 00 00
1768358215.076925 can0 581 [8] 42 6C 60 00 00 00 00 00
1768358215.577669 can0 601 [8] 40 6C 60 00 00 00 00 00
1768358215.578470 can0 581 [8] 42 6C 60 00 00 00 00 00
1768358216.079365 can0 601 [8] 23 FF 60 00 AC 51 FD FF
1768358216.080215 can0 581 [8] 60 FF 60 00 00 00 00 00
1768358216.188855 can0 601 [8] 23 FF 60 00 44 8C FD FF
1768358216.189730 can0 581 [8] 60 FF 60 00 00 00 00 00
1768358216.298307 can0 601 [8] 23 FF 60 00 DC C6 FD FF
1768358216.299130 can0 581 [8] 60 FF 60 00 00 00 00 00
1768358216.408176 can0 601 [8] 23 FF 60 00 74 01 FE FF
1768358216.408931 can0 581 [8] 60 FF 60 00 00 00 00 00
1768358216.517497 can0 601 [8] 23 FF 60 00 0C 3C FE FF
1768358216.518288 can0 581 [8] 60 FF 60 00 00 00 00 00
1768358216.627207 can0 601 [8] 23 FF 60 00 A4 76 FE FF
1768358216.628032 can0 581 [8] 60 FF 60 00 00 00 00 00
1768358216.736623 can0 601 [8] 23 FF 60 00 3C B1 FE FF
1768358216.737455 can0 581 [8] 60 FF 60 00 00 00 00 00
1768358216.846012 can0 601 [8] 23 FF 60 00 D4 EB FE FF
1768358216.846878 can0 581 [8] 60 FF 60 00 00 00 00 00
1768358216.955969 can0 601 [8] 23 FF 60 00 6C 26 FF FF
1768358216.956721 can0 581 [8] 60 FF 60 00 00 00 00 00
1768358217.065267 can0 601 [8] 23 FF 60 00 04 61 FF FF
1768358217.066271 can0 581 [8] 60 FF 60 00 00 00 00 00
1768358217.175657 can0 601 [8] 23 FF 60 00 9C 9B FF FF
1768358217.176505 can0 581 [8] 60 FF 60 00 00 00 00 00
1768358217.285141 can0 601 [8] 23 FF 60 00 34 D6 FF FF
1768358217.285897 can0 581 [8] 60 FF 60 00 00 00 00 00
1768358217.394491 can0 601 [8] 23 FF 60 00 00 00 00 00
1768358217.395288 can0 581 [8] 60 FF 60 00 00 00 00 00
1768358217.503886 can0 601 [8] 2B 40 60 00 07 00 00 00
1768358217.504673 can0 581 [8] 60 40 60 00 00 00 00 00
1768358217.555146 can0 601 [8] 2B 40 60 00 06 00 00 00
1768358217.555910 can0 581 [8] 60 40 60 00 00 00 00 00
1768358217.606367 can0 601 [8] 23 FF 60 00 00 00 00 00
1768358217.607230 can0 581 [8] 60 FF 60 00 00 00 00 00
1768358217.607504 can0 601 [8] 2B 40 60 00 07 00 00 00
1768358217.608295 can0 581 [8] 60 40 60 00 00 00 00 00
1768358217.658872 can0 601 [8] 2B 40 60 00 06 00 00 00
1768358217.659686 can0 581 [8] 60 40 60 00 00 00 00 00
1768358240.181944 can0 601 [8] 2B 40 60 00 06 00 00 00
1768358240.182727 can0 581 [8] 60 40 60 00 00 00 00 00
1768358240.283433 can0 601 [8] 2F 60 60 00 03 00 00 00
1768358240.284283 can0 581 [8] 60 60 60 00 00 00 00 00
1768358240.384790 can0 601 [8] 2B 40 60 00 07 00 00 00
1768358240.385531 can0 581 [8] 60 40 60 00 00 00 00 00
1768358240.485978 can0 601 [8] 2B 40 60 00 0F 00 00 00
1768358240.486864 can0 581 [8] 60 40 60 00 00 00 00 00
1768358240.687345 can0 601 [8] 40 61 60 00 00 00 00 00
1768358240.688099 can0 581 [8] 42 61 60 00 03 00 00 00
1768358240.688401 can0 601 [8] 40 41 60 00 00 00 00 00
1768358240.689250 can0 581 [8] 42 41 60 00 37 06 00 00
1768358240.689522 can0 601 [8] 23 FF 60 00 00 00 00 00
1768358240.690325 can0 581 [8] 60 FF 60 00 00 00 00 00
1768358240.790837 can0 601 [8] 23 FF 60 00 68 C5 FF FF
1768358240.791695 can0 581 [8] 60 FF 60 00 00 00 00 00
1768358240.912240 can0 601 [8] 23 FF 60 00 D0 8A FF FF
1768358240.913015 can0 581 [8] 60 FF 60 00 00 00 00 00
1768358241.033672 can0 601 [8] 23 FF 60 00 38 50 FF FF
1768358241.034427 can0 581 [8] 60 FF 60 00 00 00 00 00
1768358241.154984 can0 601 [8] 23 FF 60 00 A0 15 FF FF
1768358241.155867 can0 581 [8] 60 FF 60 00 00 00 00 00
1768358241.276385 can0 601 [8] 23 FF 60 00 08 DB FE FF
1768358241.277220 can0 581 [8] 60 FF 60 00 00 00 00 00
1768358241.397778 can0 601 [8] 23 FF 60 00 70 A0 FE FF
1768358241.398558 can0 581 [8] 60 FF 60 00 00 00 00 00
1768358241.519118 can0 601 [8] 23 FF 60 00 D8 65 FE FF
1768358241.519895 can0 581 [8] 60 FF 60 00 00 00 00 00
1768358241.640496 can0 601 [8] 23 FF 60 00 40 2B FE FF
1768358241.641251 can0 581 [8] 60 FF 60 00 00 00 00 00
1768358241.761771 can0 601 [8] 23 FF 60 00 A8 F0 FD FF
1768358241.762544 can0 581 [8] 60 FF 60 00 00 00 00 00
1768358241.882947 can0 601 [8] 23 FF 60 00 10 B6 FD FF
1768358241.883848 can0 581 [8] 60 FF 60 00 00 00 00 00
1768358242.004232 can0 601 [8] 23 FF 60 00 78 7B FD FF
1768358242.005079 can0 581 [8] 60 FF 60 00 00 00 00 00
1768358242.125531 can0 601 [8] 23 FF 60 00 E0 40 FD FF
1768358242.126293 can0 581 [8] 60 FF 60 00 00 00 00 00
1768358242.246676 can0 601 [8] 23 FF 60 00 14 17 FD FF
1768358242.247433 can0 581 [8] 60 FF 60 00 00 00 00 00
1768358242.367863 can0 601 [8] 40 6C 60 00 00 00 00 00
1768358242.368643 can0 581 [8] 42 6C 60 00 00 00 00 00
1768358242.869205 can0 601 [8] 40 6C 60 00 00 00 00 00
1768358242.870028 can0 581 [8] 42 6C 60 00 00 00 00 00
1768358243.371829 can0 601 [8] 40 6C 60 00 00 00 00 00
1768358243.372610 can0 581 [8] 42 6C 60 00 00 00 00 00
1768358243.873206 can0 601 [8] 40 6C 60 00 00 00 00 00
1768358243.873984 can0 581 [8] 42 6C 60 00 00 00 00 00
1768358244.374479 can0 601 [8] 40 6C 60 00 00 00 00 00
1768358244.375224 can0 581 [8] 42 6C 60 00 00 00 00 00
1768358244.876188 can0 601 [8] 40 6C 60 00 00 00 00 00
1768358244.876921 can0 581 [8] 42 6C 60 00 00 00 00 00
1768358245.378273 can0 601 [8] 40 6C 60 00 00 00 00 00
1768358245.379031 can0 581 [8] 42 6C 60 00 00 00 00 00
1768358245.879815 can0 601 [8] 40 6C 60 00 00 00 00 00
1768358245.880673 can0 581 [8] 42 6C 60 00 00 00 00 00
1768358246.381266 can0 601 [8] 40 6C 60 00 00 00 00 00
1768358246.381984 can0 581 [8] 42 6C 60 00 00 00 00 00
1768358246.882540 can0 601 [8] 40 6C 60 00 00 00 00 00
1768358246.883324 can0 581 [8] 42 6C 60 00 00 00 00 00
1768358247.384421 can0 601 [8] 23 FF 60 00 AC 51 FD FF
1768358247.385327 can0 581 [8] 60 FF 60 00 00 00 00 00
1768358247.493919 can0 601 [8] 23 FF 60 00 44 8C FD FF
1768358247.494743 can0 581 [8] 60 FF 60 00 00 00 00 00
1768358247.603322 can0 601 [8] 23 FF 60 00 DC C6 FD FF
1768358247.604144 can0 581 [8] 60 FF 60 00 00 00 00 00
1768358247.712687 can0 601 [8] 23 FF 60 00 74 01 FE FF
1768358247.713445 can0 581 [8] 60 FF 60 00 00 00 00 00
1768358247.822208 can0 601 [8] 23 FF 60 00 0C 3C FE FF
1768358247.822958 can0 581 [8] 60 FF 60 00 00 00 00 00
1768358247.931794 can0 601 [8] 23 FF 60 00 A4 76 FE FF
1768358247.932599 can0 581 [8] 60 FF 60 00 00 00 00 00
1768358248.041192 can0 601 [8] 23 FF 60 00 3C B1 FE FF
1768358248.041954 can0 581 [8] 60 FF 60 00 00 00 00 00
1768358248.150469 can0 601 [8] 23 FF 60 00 D4 EB FE FF
1768358248.151259 can0 581 [8] 60 FF 60 00 00 00 00 00
1768358248.260185 can0 601 [8] 23 FF 60 00 6C 26 FF FF
1768358248.260964 can0 581 [8] 60 FF 60 00 00 00 00 00
1768358248.369520 can0 601 [8] 23 FF 60 00 04 61 FF FF
1768358248.370385 can0 581 [8] 60 FF 60 00 00 00 00 00
1768358248.479992 can0 601 [8] 23 FF 60 00 9C 9B FF FF
1768358248.480784 can0 581 [8] 60 FF 60 00 00 00 00 00
1768358248.589429 can0 601 [8] 23 FF 60 00 34 D6 FF FF
1768358248.590194 can0 581 [8] 60 FF 60 00 00 00 00 00
1768358248.698845 can0 601 [8] 23 FF 60 00 00 00 00 00
1768358248.699646 can0 581 [8] 60 FF 60 00 00 00 00 00
1768358248.808263 can0 601 [8] 2B 40 60 00 07 00 00 00
1768358248.809072 can0 581 [8] 60 40 60 00 00 00 00 00
1768358248.859915 can0 601 [8] 2B 40 60 00 06 00 00 00
1768358248.860765 can0 581 [8] 60 40 60 00 00 00 00 00
1768358248.911295 can0 601 [8] 23 FF 60 00 00 00 00 00
1768358248.912063 can0 581 [8] 60 FF 60 00 00 00 00 00
1768358248.912279 can0 601 [8] 2B 40 60 00 07 00 00 00
1768358248.913061 can0 581 [8] 60 40 60 00 00 00 00 00
1768358248.964059 can0 601 [8] 2B 40 60 00 06 00 00 00
1768358248.964850 can0 581 [8] 60 40 60 00 00 00 00 00
1768358261.659930 can0 200 [8] 00 08 00 00 00 00 60 00
1768358263.794246 can0 701 [1] 00
1768358263.794278 can0 702 [1] 00
1768358295.893686 can0 601 [8] 42 02 20 05 00 00 00 00
1768358295.893710 can0 581 [8] 42 02 20 05 43 00 00 00
1768358295.894297 can0 602 [8] 42 02 20 05 00 00 00 00
1768358295.894549 can0 582 [8] 42 02 20 05 43 00 00 00
1768358295.895428 can0 601 [8] 2B 5A 20 2E 00 00 00 00
1768358295.896464 can0 581 [8] 60 5A 20 2E 00 00 00 00
1768358295.897650 can0 601 [8] 2B 5A 20 01 01 00 00 00
1768358295.898721 can0 581 [8] 60 5A 20 01 00 00 00 00
1768358295.899889 can0 601 [8] 2B 5A 20 40 01 00 00 00
1768358295.901021 can0 581 [8] 60 5A 20 40 00 00 00 00
1768358295.902129 can0 602 [8] 2B 5A 20 2E 00 00 00 00
1768358295.903173 can0 582 [8] 60 5A 20 2E 00 00 00 00
1768358295.904339 can0 602 [8] 2B 5A 20 01 01 00 00 00
1768358295.905374 can0 582 [8] 60 5A 20 01 00 00 00 00
1768358295.906554 can0 602 [8] 2B 5A 20 40 01 00 00 00
1768358295.907578 can0 582 [8] 60 5A 20 40 00 00 00 00
1768358295.908804 can0 601 [8] 2B 01 20 03 00 00 00 00
1768358295.909065 can0 581 [8] 60 01 20 03 00 00 00 00
1768358295.909910 can0 601 [8] 2B 01 20 03 01 00 00 00
1768358295.910197 can0 581 [8] 60 01 20 03 00 00 00 00
1768358295.911026 can0 602 [8] 2B 01 20 03 00 00 00 00
1768358295.911293 can0 582 [8] 60 01 20 03 00 00 00 00
1768358295.912136 can0 602 [8] 2B 01 20 03 01 00 00 00
1768358295.912389 can0 582 [8] 60 01 20 03 00 00 00 00
1768358295.913266 can0 604 [8] 2B 01 20 03 00 00 00 00
1768358296.023008 can0 604 [8] 42 02 20 01 00 00 00 00
1768358300.190029 can0 601 [8] 2B 40 60 00 06 00 00 00
1768358300.190773 can0 581 [8] 60 40 60 00 00 00 00 00
1768358300.291328 can0 601 [8] 2F 60 60 00 03 00 00 00
1768358300.292131 can0 581 [8] 60 60 60 00 00 00 00 00
1768358300.392721 can0 601 [8] 2B 40 60 00 07 00 00 00
1768358300.393437 can0 581 [8] 60 40 60 00 00 00 00 00
1768358300.493980 can0 601 [8] 2B 40 60 00 0F 00 00 00
1768358300.494785 can0 581 [8] 60 40 60 00 00 00 00 00
1768358300.695354 can0 601 [8] 40 61 60 00 00 00 00 00
1768358300.696113 can0 581 [8] 42 61 60 00 03 00 00 00
1768358300.696461 can0 601 [8] 40 41 60 00 00 00 00 00
1768358300.697212 can0 581 [8] 42 41 60 00 37 06 00 00
1768358300.697480 can0 601 [8] 23 FF 60 00 00 00 00 00
1768358300.698299 can0 581 [8] 60 FF 60 00 00 00 00 00
1768358300.798938 can0 601 [8] 23 FF 60 00 68 C5 FF FF
1768358300.799775 can0 581 [8] 60 FF 60 00 00 00 00 00
1768358300.920310 can0 601 [8] 23 FF 60 00 D0 8A FF FF
1768358300.921093 can0 581 [8] 60 FF 60 00 00 00 00 00
1768358301.041624 can0 601 [8] 23 FF 60 00 38 50 FF FF
1768358301.042421 can0 581 [8] 60 FF 60 00 00 00 00 00
1768358301.162966 can0 601 [8] 23 FF 60 00 A0 15 FF FF
1768358301.163759 can0 581 [8] 60 FF 60 00 00 00 00 00
1768358301.284393 can0 601 [8] 23 FF 60 00 08 DB FE FF
1768358301.285191 can0 581 [8] 60 FF 60 00 00 00 00 00
1768358301.405776 can0 601 [8] 23 FF 60 00 70 A0 FE FF
1768358301.406509 can0 581 [8] 60 FF 60 00 00 00 00 00
1768358301.504164 can0 200 [8] 00 40 00 00 00 00 08 00
1768358301.527020 can0 601 [8] 23 FF 60 00 D8 65 FE FF
1768358301.527915 can0 581 [8] 60 FF 60 00 00 00 00 00
1768358301.648440 can0 601 [8] 23 FF 60 00 40 2B FE FF
1768358301.649201 can0 581 [8] 60 FF 60 00 00 00 00 00
1768358301.769780 can0 601 [8] 23 FF 60 00 A8 F0 FD FF
1768358301.770530 can0 581 [8] 60 FF 60 00 00 00 00 00
1768358301.891320 can0 601 [8] 23 FF 60 00 10 B6 FD FF
1768358301.892136 can0 581 [8] 60 FF 60 00 00 00 00 00
1768358302.012668 can0 601 [8] 23 FF 60 00 78 7B FD FF
1768358302.013440 can0 581 [8] 60 FF 60 00 00 00 00 00
1768358302.133870 can0 601 [8] 23 FF 60 00 E0 40 FD FF
1768358302.134689 can0 581 [8] 60 FF 60 00 00 00 00 00
1768358302.255033 can0 601 [8] 23 FF 60 00 14 17 FD FF
1768358302.255907 can0 581 [8] 60 FF 60 00 00 00 00 00
1768358302.376963 can0 601 [8] 40 6C 60 00 00 00 00 00
1768358302.377182 can0 581 [8] 42 6C 60 00 00 00 00 00
1768358302.877712 can0 601 [8] 40 6C 60 00 00 00 00 00
1768358302.878429 can0 581 [8] 42 6C 60 00 00 00 00 00
1768358303.378994 can0 601 [8] 40 6C 60 00 00 00 00 00
1768358303.379879 can0 581 [8] 42 6C 60 00 00 00 00 00
1768358303.882086 can0 601 [8] 40 6C 60 00 00 00 00 00
1768358303.882851 can0 581 [8] 42 6C 60 00 00 00 00 00
1768358304.384051 can0 601 [8] 40 6C 60 00 00 00 00 00
1768358304.384854 can0 581 [8] 42 6C 60 00 00 00 00 00
1768358304.885831 can0 601 [8] 40 6C 60 00 00 00 00 00
1768358304.886614 can0 581 [8] 42 6C 60 00 00 00 00 00
1768358305.326369 can0 601 [8] 23 FF 60 00 00 00 00 00
1768358305.327348 can0 581 [8] 60 FF 60 00 00 00 00 00
1768358305.327818 can0 601 [8] 2B 40 60 00 07 00 00 00
1768358305.328623 can0 581 [8] 60 40 60 00 00 00 00 00
1768358305.379292 can0 601 [8] 2B 40 60 00 06 00 00 00
1768358305.380039 can0 581 [8] 60 40 60 00 00 00 00 00
1768358321.133994 can0 000 [2] 80 01
1768358321.134599 can0 000 [2] 80 02
1768358321.134871 can0 000 [2] 80 03
1768358321.134872 can0 000 [2] 80 04
1768358321.135728 can0 601 [8] 42 02 20 05 00 00 00 00
1768358321.136031 can0 581 [8] 42 02 20 05 43 00 00 00
1768358321.138100 can0 000 [2] 80 01
1768358321.138230 can0 601 [8] 42 00 14 01 00 00 00 00
1768358321.138532 can0 581 [8] 42 00 14 01 01 02 00 80
1768358321.139382 can0 601 [8] 23 00 14 01 01 02 00 80
1768358321.139684 can0 581 [8] 60 00 14 01 00 00 00 00
1768358321.140512 can0 601 [8] 42 01 14 01 00 00 00 00
1768358321.140736 can0 581 [8] 42 01 14 01 01 03 00 80
1768358321.141604 can0 601 [8] 23 01 14 01 01 03 00 80
1768358321.141916 can0 581 [8] 60 01 14 01 00 00 00 00
1768358321.142680 can0 601 [8] 42 02 14 01 00 00 00 00
1768358321.142967 can0 581 [8] 42 02 14 01 01 04 00 80
1768358321.143806 can0 601 [8] 23 02 14 01 01 04 00 80
1768358321.144224 can0 581 [8] 60 02 14 01 00 00 00 00
1768358321.144915 can0 601 [8] 42 03 14 01 00 00 00 00
1768358321.145202 can0 581 [8] 42 03 14 01 01 02 00 00
1768358321.146045 can0 601 [8] 23 03 14 01 01 02 00 80
1768358321.146362 can0 581 [8] 60 03 14 01 00 00 00 00
1768358321.147150 can0 601 [8] 42 04 14 01 00 00 00 00
1768358321.147473 can0 581 [8] 42 04 14 01 21 04 00 80
1768358321.148271 can0 601 [8] 23 04 14 01 21 04 00 80
1768358321.148613 can0 581 [8] 60 04 14 01 00 00 00 00
1768358321.149377 can0 601 [8] 42 14 14 01 00 00 00 00
1768358321.149668 can0 581 [8] 42 14 14 01 01 05 00 80
1768358321.150500 can0 601 [8] 23 14 14 01 01 05 00 80
1768358321.150867 can0 581 [8] 60 14 14 01 00 00 00 00
1768358321.151619 can0 601 [8] 42 15 14 01 00 00 00 00
1768358321.151883 can0 581 [8] 42 15 14 01 11 05 00 80
1768358321.152741 can0 601 [8] 23 15 14 01 11 05 00 80
1768358321.153067 can0 581 [8] 60 15 14 01 00 00 00 00
1768358321.153858 can0 601 [8] 42 16 14 01 00 00 00 00
1768358321.154171 can0 581 [8] 42 16 14 01 21 05 00 80
1768358321.154984 can0 601 [8] 23 16 14 01 21 05 00 80
1768358321.155321 can0 581 [8] 60 16 14 01 00 00 00 00
1768358321.156100 can0 601 [8] 42 17 14 01 00 00 00 00
1768358321.156362 can0 581 [8] 42 17 14 01 31 05 00 80
1768358321.157221 can0 601 [8] 23 17 14 01 31 05 00 80
1768358321.157571 can0 581 [8] 60 17 14 01 00 00 00 00
1768358321.158340 can0 601 [8] 42 19 14 01 00 00 00 00
1768358321.158596 can0 581 [8] 42 19 14 01 00 05 00 00
1768358321.159473 can0 601 [8] 23 19 14 01 00 05 00 80
1768358321.159828 can0 581 [8] 60 19 14 01 00 00 00 00
1768358321.160563 can0 601 [8] 42 20 14 01 00 00 00 00
1768358321.160823 can0 581 [8] 42 20 14 01 51 05 00 80
1768358321.161699 can0 601 [8] 23 20 14 01 51 05 00 80
1768358321.162076 can0 581 [8] 60 20 14 01 00 00 00 00
1768358321.162793 can0 601 [8] 42 21 14 01 00 00 00 00
1768358321.163212 can0 581 [8] 42 21 14 01 61 05 00 80
1768358321.163907 can0 601 [8] 23 21 14 01 61 05 00 80
1768358321.164315 can0 581 [8] 60 21 14 01 00 00 00 00
1768358321.165031 can0 601 [8] 42 CA 20 07 00 00 00 00
1768358321.165471 can0 581 [8] 42 CA 20 07 00 00 00 00
1768358321.166147 can0 601 [8] 42 CA 20 08 00 00 00 00
1768358321.166559 can0 581 [8] 42 CA 20 08 00 00 00 00
1768358321.167261 can0 601 [8] 42 CA 20 09 00 00 00 00
1768358321.167618 can0 581 [8] 42 CA 20 09 00 00 00 00
1768358321.168379 can0 601 [8] 42 CA 20 0A 00 00 00 00
1768358321.168752 can0 581 [8] 42 CA 20 0A 00 00 00 00
1768358321.169492 can0 601 [8] 42 D8 20 09 00 00 00 00
1768358321.170056 can0 581 [8] 42 D8 20 09 70 03 00 00
1768358321.170599 can0 601 [8] 42 0F 20 01 00 00 00 00
1768358321.170864 can0 581 [8] 42 0F 20 01 F7 1C 00 00
1768358321.171712 can0 601 [8] 42 D8 20 0C 00 00 00 00
1768358321.172308 can0 581 [8] 42 D8 20 0C C8 00 00 00
1768358321.172842 can0 601 [8] 42 D8 20 24 00 00 00 00
1768358321.173470 can0 581 [8] 42 D8 20 24 00 00 14 00
1768358321.174033 can0 601 [8] 21 3C 20 09 08 00 00 00
1768358321.174299 can0 581 [8] 60 3C 20 09 00 00 00 00
1768358321.175152 can0 601 [8] 00 FF 40 55 55 0D 00 00
1768358321.175390 can0 581 [8] 20 FF 40 55 00 00 00 00
1768358321.176269 can0 601 [8] 11 00 40 55 55 0D 00 00
1768358321.176766 can0 581 [8] 30 00 40 55 00 00 00 00
1768358321.177381 can0 601 [8] 40 3C 20 09 00 00 00 00
1768358321.177812 can0 581 [8] 40 3C 20 09 00 00 00 00
1768358321.178509 can0 601 [8] 60 3C 20 09 00 00 00 00
1768358321.178738 can0 581 [8] 00 FF 40 55 55 0D 00 00
1768358321.179627 can0 601 [8] 70 3C 20 09 00 00 00 00
1768358321.179845 can0 581 [8] 11 00 20 09 55 0D 00 00
1768358321.180736 can0 601 [8] 23 37 20 01 00 00 1E 00
1768358321.181219 can0 581 [8] 60 37 20 01 00 00 00 00
1768358321.181858 can0 601 [8] 23 37 20 02 11 11 00 00
1768358321.182265 can0 581 [8] 60 37 20 02 00 00 00 00
1768358321.182970 can0 601 [8] 23 37 20 03 11 11 00 00
1768358321.183321 can0 581 [8] 60 37 20 03 00 00 00 00
1768358321.184085 can0 601 [8] 23 37 20 04 55 55 00 00
1768358321.184474 can0 581 [8] 60 37 20 04 00 00 00 00
1768358321.185195 can0 601 [8] 23 37 20 05 AA AA 1A 00
1768358321.185557 can0 581 [8] 60 37 20 05 00 00 00 00
1768358321.186312 can0 601 [8] 23 37 20 06 56 55 E5 FF
1768358321.186665 can0 581 [8] 60 37 20 06 00 00 00 00
1768358321.187474 can0 601 [8] 23 37 20 07 00 00 00 00
1768358321.187774 can0 581 [8] 60 37 20 07 00 00 00 00
1768358321.188554 can0 601 [8] 23 39 20 01 00 00 00 00
1768358321.188972 can0 581 [8] 60 39 20 01 00 00 00 00
1768358321.189671 can0 601 [8] 23 39 20 02 00 00 00 00
1768358321.190066 can0 581 [8] 60 39 20 02 00 00 00 00
1768358321.190783 can0 601 [8] 23 39 20 03 00 00 00 40
1768358321.191170 can0 581 [8] 60 39 20 03 00 00 00 00
1768358321.191893 can0 601 [8] 23 39 20 04 00 00 00 80
1768358321.192305 can0 581 [8] 60 39 20 04 00 00 00 00
1768358321.193004 can0 601 [8] 23 39 20 05 64 00 00 00
1768358321.193472 can0 581 [8] 60 39 20 05 00 00 00 00
1768358321.194131 can0 601 [8] 23 39 20 06 64 00 00 00
1768358321.194513 can0 581 [8] 60 39 20 06 00 00 00 00
1768358321.195246 can0 601 [8] 23 39 20 07 A0 0F 00 00
1768358321.195648 can0 581 [8] 60 39 20 07 00 00 00 00
1768358321.196363 can0 601 [8] 23 39 20 08 00 00 00 40
1768358321.196762 can0 581 [8] 60 39 20 08 00 00 00 00
1768358321.197500 can0 601 [8] 23 39 20 09 00 00 00 80
1768358321.197900 can0 581 [8] 60 39 20 09 00 00 00 00
1768358321.198635 can0 601 [8] 23 39 20 0A 00 00 00 00
1768358321.199011 can0 581 [8] 60 39 20 0A 00 00 00 00
1768358321.199758 can0 601 [8] 23 39 20 0B 00 00 00 00
1768358321.200255 can0 581 [8] 60 39 20 0B 00 00 00 00
1768358321.200979 can0 601 [8] 42 03 14 01 00 00 00 00
1768358321.201360 can0 581 [8] 42 03 14 01 01 02 00 80
1768358321.202622 can0 601 [8] 23 03 14 01 01 05 00 80
1768358321.202919 can0 581 [8] 60 03 14 01 00 00 00 00
1768358321.203723 can0 601 [8] 23 03 14 01 01 05 00 00
1768358321.204066 can0 581 [8] 60 03 14 01 00 00 00 00
1768358321.204858 can0 601 [8] 2F 03 14 02 01 00 00 00
1768358321.205213 can0 581 [8] 60 03 14 02 00 00 00 00
1768358321.205968 can0 601 [8] 42 03 18 01 00 00 00 00
1768358321.206257 can0 581 [8] 42 03 18 01 81 01 00 00
1768358321.207084 can0 601 [8] 23 03 18 01 81 01 00 80
1768358321.207470 can0 581 [8] 60 03 18 01 00 00 00 00
1768358321.208244 can0 601 [8] 23 03 18 01 81 01 00 00
1768358321.208617 can0 581 [8] 60 03 18 01 00 00 00 00
1768358321.209354 can0 601 [8] 2F 03 18 02 01 00 00 00
1768358321.209682 can0 581 [8] 60 03 18 02 00 00 00 00
1768358321.210479 can0 601 [8] 42 14 18 01 00 00 00 00
1768358321.210734 can0 581 [8] 42 14 18 01 81 02 00 00
1768358321.211622 can0 601 [8] 23 14 18 01 81 02 00 80
1768358321.211956 can0 581 [8] 60 14 18 01 00 00 00 00
1768358321.212707 can0 601 [8] 23 14 18 01 81 02 00 00
1768358321.213102 can0 581 [8] 60 14 18 01 00 00 00 00
1768358321.213821 can0 601 [8] 2F 14 18 02 01 00 00 00
1768358321.214214 can0 581 [8] 60 14 18 02 00 00 00 00
1768358321.214948 can0 601 [8] 42 16 18 01 00 00 00 00
1768358321.215213 can0 581 [8] 42 16 18 01 D1 02 00 80
1768358321.216065 can0 601 [8] 23 16 18 01 81 03 00 80
1768358321.216470 can0 581 [8] 60 16 18 01 00 00 00 00
1768358321.217219 can0 601 [8] 23 16 18 01 81 03 00 00
1768358321.217513 can0 581 [8] 60 16 18 01 00 00 00 00
1768358321.218324 can0 601 [8] 2F 16 18 02 01 00 00 00
1768358321.218620 can0 581 [8] 60 16 18 02 00 00 00 00
1768358321.219516 can0 601 [8] 42 19 18 01 00 00 00 00
1768358321.219781 can0 581 [8] 42 19 18 01 81 04 00 00
1768358321.220983 can0 601 [8] 23 19 18 01 81 04 00 80
1768358321.221306 can0 581 [8] 60 19 18 01 00 00 00 00
1768358321.222136 can0 601 [8] 2F 19 1A 00 00 00 00 00
1768358321.222472 can0 581 [8] 60 19 1A 00 00 00 00 00
1768358321.223248 can0 601 [8] 23 19 1A 01 10 01 0F 20
1768358321.223513 can0 581 [8] 60 19 1A 01 00 00 00 00
1768358321.224341 can0 601 [8] 23 19 1A 02 10 02 02 20
1768358321.224615 can0 581 [8] 60 19 1A 02 00 00 00 00
1768358321.225471 can0 601 [8] 23 19 1A 03 10 03 02 20
1768358321.225765 can0 581 [8] 60 19 1A 03 00 00 00 00
1768358321.226567 can0 601 [8] 23 19 1A 04 10 05 02 20
1768358321.226863 can0 581 [8] 60 19 1A 04 00 00 00 00
1768358321.227693 can0 601 [8] 2F 19 1A 00 04 00 00 00
1768358321.228022 can0 581 [8] 60 19 1A 00 00 00 00 00
1768358321.228809 can0 601 [8] 23 19 18 01 81 04 00 00
1768358321.229218 can0 581 [8] 60 19 18 01 00 00 00 00
1768358321.229916 can0 601 [8] 2F 19 18 02 01 00 00 00
1768358321.230218 can0 581 [8] 60 19 18 02 00 00 00 00
1768358321.231082 can0 000 [2] 80 01
1768358321.231306 can0 601 [8] 2B 40 60 00 80 00 00 00
1768358321.231574 can0 581 [8] 60 40 60 00 00 00 00 00
1768358321.232622 can0 601 [8] 2F 60 60 00 03 00 00 00
1768358321.232838 can0 581 [8] 60 60 60 00 00 00 00 00
1768358321.233740 can0 601 [8] 23 FF 60 00 00 00 00 00
1768358321.234010 can0 581 [8] 60 FF 60 00 00 00 00 00
1768358321.234873 can0 601 [8] 23 83 60 00 00 00 00 00
1768358321.235095 can0 581 [8] 80 83 60 00 00 00 02 06
1768358321.236478 can0 601 [8] 2B 40 60 00 80 00 00 00
1768358321.236688 can0 581 [8] 60 40 60 00 00 00 00 00
1768358321.237743 can0 601 [8] 2B 40 60 00 06 00 00 00
1768358321.238109 can0 581 [8] 60 40 60 00 00 00 00 00
1768358321.238914 can0 601 [8] 2B 40 60 00 07 00 00 00
1768358321.239170 can0 581 [8] 60 40 60 00 00 00 00 00
1768358321.240033 can0 601 [8] 2B 40 60 00 0F 00 00 00
1768358321.240262 can0 581 [8] 60 40 60 00 00 00 00 00
1768358321.241125 can0 000 [2] 01 01
1768358321.241355 can0 601 [8] 2B 86 60 00 02 00 00 00
1768358321.241822 can0 581 [8] 60 86 60 00 00 00 00 00
1768358321.242610 can0 601 [8] 21 3C 20 01 06 00 00 00
1768358321.242908 can0 581 [8] 60 3C 20 01 00 00 00 00
1768358321.243724 can0 601 [8] 01 3E C3 AE 00 00 00 00
1768358321.244316 can0 581 [8] 20 3E C3 AE 00 00 00 00
1768358321.244850 can0 601 [8] 21 3C 20 02 06 00 00 00
1768358321.245219 can0 581 [8] 60 3C 20 02 00 00 00 00
1768358321.245972 can0 601 [8] 01 3E C3 AE 00 00 00 00
1768358321.246516 can0 581 [8] 20 3E C3 AE 00 00 00 00
1768358321.247093 can0 601 [8] 21 3C 20 03 06 00 00 00
1768358321.247350 can0 581 [8] 60 3C 20 03 00 00 00 00
1768358321.248204 can0 601 [8] 01 3E C3 AE 00 00 00 00
1768358321.248741 can0 581 [8] 20 3E C3 AE 00 00 00 00
1768358321.249329 can0 601 [8] 21 3C 20 04 06 00 00 00
1768358321.249668 can0 581 [8] 60 3C 20 04 00 00 00 00
1768358321.250469 can0 601 [8] 01 3E C3 AE 00 00 00 00
1768358321.251071 can0 581 [8] 20 3E C3 AE 00 00 00 00
1768358321.251567 can0 601 [8] 2B 0C 10 00 0A 00 00 00
1768358321.251832 can0 581 [8] 60 0C 10 00 00 00 00 00
1768358321.252689 can0 601 [8] 2F 0D 10 00 FA 00 00 00
1768358321.252963 can0 581 [8] 60 0D 10 00 00 00 00 00
1768358321.253798 can0 701 [0] 
1768358321.254056 can0 601 [8] 2B 5A 20 40 00 00 00 00
1768358321.254057 can0 701 [1] 05
1768358321.255157 can0 581 [8] 60 5A 20 40 00 00 00 00
1768358321.256055 can0 601 [8] 2B 5A 20 2E 01 00 00 00
1768358321.257161 can0 581 [8] 60 5A 20 2E 00 00 00 00
1768358321.258253 can0 601 [8] 2B 5A 20 01 00 00 00 00
1768358321.259361 can0 581 [8] 60 5A 20 01 00 00 00 00
1768358321.260502 can0 601 [8] 2B 65 20 2B 0A 00 00 00
1768358321.261318 can0 581 [8] 60 65 20 2B 00 00 00 00
1768358321.261629 can0 601 [8] 42 41 60 00 00 00 00 00
1768358321.261894 can0 581 [8] 42 41 60 00 37 06 00 00
1768358321.262806 can0 501 [6] 0F 00 00 00 00 00
1768358321.262807 can0 080 [0] 
1768358321.263157 can0 181 [6] 37 06 00 00 00 00
1768358321.263157 can0 381 [2] FD FF
1768358321.263158 can0 281 [4] 03 00 00 00
1768358321.263470 can0 481 [8] F3 1C 00 00 00 00 43 00
1768358321.272933 can0 701 [0] 
1768358321.273209 can0 601 [8] 42 02 20 01 00 00 00 00
1768358321.273211 can0 701 [1] 85
1768358321.273477 can0 581 [8] 42 02 20 01 01 00 00 00
1768358321.274111 can0 601 [8] 42 02 20 02 00 00 00 00
1768358321.274482 can0 581 [8] 42 02 20 02 00 00 00 00
1768358321.275213 can0 601 [8] 42 02 20 03 00 00 00 00
1768358321.275496 can0 581 [8] 42 02 20 03 00 00 00 00
1768358321.276323 can0 601 [8] 42 02 20 04 00 00 00 00
1768358321.276624 can0 581 [8] 42 02 20 04 00 04 00 00
1768358321.277495 can0 601 [8] 42 02 20 05 00 00 00 00
1768358321.277725 can0 581 [8] 42 02 20 05 43 00 00 00
1768358321.278563 can0 601 [8] 42 02 20 06 00 00 00 00
1768358321.278805 can0 581 [8] 42 02 20 06 00 00 00 00
1768358321.279696 can0 601 [8] 42 02 20 07 00 00 00 00
1768358321.279959 can0 581 [8] 42 02 20 07 00 00 00 00
1768358321.284161 can0 601 [8] 2F 0D 10 00 14 00 00 00
1768358321.284375 can0 581 [8] 60 0D 10 00 00 00 00 00
1768358321.285577 can0 501 [6] 0F 00 99 99 03 00
1768358321.285578 can0 080 [0] 
1768358321.285579 can0 701 [0] 
1768358321.285945 can0 181 [6] 37 06 00 00 00 00
1768358321.285946 can0 381 [2] F4 FF
1768358321.286244 can0 281 [4] 03 00 00 00
1768358321.286500 can0 481 [8] F2 1C 00 00 00 00 43 00
1768358321.286500 can0 701 [1] 05
1768358321.295761 can0 501 [6] 0F 00 99 99 03 00
1768358321.295763 can0 080 [0] 
1768358321.295763 can0 701 [0] 
1768358321.296184 can0 181 [6] 37 02 A2 2A 00 00
1768358321.296185 can0 381 [2] 46 01
1768358321.296538 can0 281 [4] 0A 00 00 00
1768358321.296539 can0 481 [8] F4 1C 00 00 00 00 60 00
1768358321.296539 can0 701 [1] 85
1768358321.305906 can0 501 [6] 0F 00 99 99 03 00
1768358321.306280 can0 080 [0] 
1768358321.306281 can0 701 [0] 
1768358321.306282 can0 181 [6] 37 02 24 66 00 00
1768358321.306283 can0 381 [2] CA 01
1768358321.306283 can0 281 [4] 27 00 00 00
1768358321.306592 can0 481 [8] F5 1C 00 00 00 00 60 00
1768358321.306593 can0 701 [1] 05
1768358321.316207 can0 501 [6] 0F 00 99 99 03 00
1768358321.316209 can0 080 [0] 
1768358321.316210 can0 701 [0] 
1768358321.316470 can0 181 [6] 37 02 8A B2 00 00
1768358321.316471 can0 381 [2] 87 01
1768358321.316472 can0 281 [4] 5F 00 00 00
1768358321.316761 can0 481 [8] F3 1C 00 00 00 00 60 00
1768358321.316761 can0 701 [1] 85
1768358321.326305 can0 501 [6] 0F 00 99 99 03 00
1768358321.326682 can0 080 [0] 
1768358321.326684 can0 701 [0] 
1768358321.326684 can0 181 [6] 37 02 B8 F9 00 00
1768358321.326685 can0 381 [2] 70 01
1768358321.326685 can0 281 [4] B6 00 00 00
1768358321.326996 can0 481 [8] F5 1C 00 00 00 00 60 00
1768358321.326996 can0 701 [1] 05
1768358321.336497 can0 501 [6] 0F 00 99 99 03 00
1768358321.336909 can0 080 [0] 
1768358321.336910 can0 701 [0] 
1768358321.336911 can0 181 [6] 37 02 DC 41 01 00
1768358321.336912 can0 381 [2] 5B 01
1768358321.336913 can0 281 [4] 28 01 00 00
1768358321.337235 can0 481 [8] F0 1C 00 00 00 00 20 00
1768358321.337236 can0 701 [1] 85
1768358321.346729 can0 501 [6] 0F 00 99 99 03 00
1768358321.347106 can0 080 [0] 
1768358321.347107 can0 701 [0] 
1768358321.347108 can0 181 [6] 37 02 D2 82 01 00
1768358321.347108 can0 381 [2] B6 01
1768358321.347109 can0 281 [4] B5 01 00 00
1768358321.347493 can0 481 [8] F5 1C 00 00 00 00 20 00
1768358321.347493 can0 701 [1] 05
1768358321.357004 can0 501 [6] 0F 00 99 99 03 00
1768358321.357005 can0 080 [0] 
1768358321.357339 can0 701 [0] 
1768358321.357340 can0 181 [6] 37 02 84 CD 01 00
1768358321.357341 can0 381 [2] 53 01
1768358321.357650 can0 281 [4] 60 02 00 00
1768358321.357896 can0 481 [8] F1 1C 00 00 00 00 20 00
1768358321.357897 can0 701 [1] 85
1768358321.367164 can0 501 [6] 0F 00 99 99 03 00
1768358321.367545 can0 080 [0] 
1768358321.367547 can0 701 [0] 
1768358321.367547 can0 181 [6] 37 02 9B 0D 02 00
1768358321.367548 can0 381 [2] 70 01
1768358321.367549 can0 281 [4] 23 03 00 00
1768358321.367856 can0 481 [8] F5 1C 00 00 00 00 20 00
1768358321.367857 can0 701 [1] 05
1768358321.377362 can0 501 [6] 0F 00 99 99 03 00
1768358321.377844 can0 080 [0] 
1768358321.377845 can0 701 [0] 
1768358321.377846 can0 181 [6] 37 02 69 51 02 00
1768358321.377846 can0 381 [2] BF 01
1768358321.377846 can0 281 [4] 06 04 00 00
1768358321.378138 can0 481 [8] F2 1C 00 00 00 00 20 00
1768358321.378139 can0 701 [1] 85
1768358321.387601 can0 501 [6] 0F 00 99 99 03 00
1768358321.387950 can0 080 [0] 
1768358321.387952 can0 701 [0] 
1768358321.387952 can0 181 [6] 37 02 F4 9B 02 00
1768358321.387953 can0 381 [2] 56 01
1768358321.387954 can0 281 [4] 00 05 00 00
1768358321.388255 can0 481 [8] FA 1C 00 00 00 00 20 00
1768358321.388256 can0 701 [1] 05
1768358321.397837 can0 501 [6] 0F 00 99 99 03 00
1768358321.398184 can0 080 [0] 
1768358321.398185 can0 701 [0] 
1768358321.398186 can0 181 [6] 37 02 D6 E3 02 00
1768358321.398187 can0 381 [2] 43 01
1768358321.398188 can0 281 [4] 1A 06 00 00
1768358321.398498 can0 481 [8] F5 1C 00 00 00 00 20 00
1768358321.398499 can0 701 [1] 85
1768358321.408123 can0 501 [6] 0F 00 99 99 03 00
1768358321.408125 can0 080 [0] 
1768358321.408469 can0 701 [0] 
1768358321.408470 can0 181 [6] 37 02 65 26 03 00
1768358321.408471 can0 381 [2] 7F 01
1768358321.408472 can0 281 [4] 4E 07 00 00
1768358321.408725 can0 481 [8] F3 1C 00 00 00 00 20 00
1768358321.408726 can0 701 [1] 05
1768358321.418345 can0 501 [6] 0F 00 99 99 03 00
1768358321.418346 can0 080 [0] 
1768358321.418628 can0 701 [0] 
1768358321.418628 can0 181 [6] 37 02 3E 6F 03 00
1768358321.418629 can0 381 [2] 58 01
1768358321.418630 can0 281 [4] 9F 08 00 00
1768358321.418950 can0 481 [8] F6 1C 00 00 00 00 20 00
1768358321.418951 can0 701 [1] 85
1768358321.428501 can0 501 [6] 0F 00 99 99 03 00
1768358321.428502 can0 080 [0] 
1768358321.428881 can0 701 [0] 
1768358321.428882 can0 181 [6] 37 06 8A 8E 03 00
1768358321.428884 can0 381 [2] 72 00
1768358321.429225 can0 281 [4] 0D 0A 00 00
1768358321.429226 can0 481 [8] F1 1C 00 00 00 00 02 00
1768358321.429227 can0 701 [1] 05
1768358321.438700 can0 501 [6] 0F 00 99 99 03 00
1768358321.439097 can0 080 [0] 
1768358321.439099 can0 701 [0] 
1768358321.439100 can0 181 [6] 37 06 59 8D 03 00
1768358321.439101 can0 381 [2] 8B 00
1768358321.439102 can0 281 [4] 71 0B 00 00
1768358321.439345 can0 481 [8] F3 1C 00 00 00 00 02 00
1768358321.439346 can0 701 [1] 85
1768358321.448913 can0 501 [6] 0F 00 99 99 03 00
1768358321.448914 can0 080 [0] 
1768358321.449279 can0 701 [0] 
1768358321.449280 can0 181 [6] 37 06 75 8C 03 00
1768358321.449281 can0 381 [2] CF 00
1768358321.449584 can0 281 [4] E2 0C 00 00
1768358321.449839 can0 481 [8] F8 1C 00 00 00 00 02 00
1768358321.449841 can0 701 [1] 05
1768358321.459176 can0 501 [6] 0F 00 99 99 03 00
1768358321.459177 can0 080 [0] 
1768358321.459509 can0 701 [0] 
1768358321.459510 can0 181 [6] 37 06 9A 8C 03 00
1768358321.459511 can0 381 [2] 86 00
1768358321.459511 can0 281 [4] 49 0E 00 00
1768358321.459821 can0 481 [8] FA 1C 00 00 00 00 02 00
1768358321.459822 can0 701 [1] 85
1768358321.469350 can0 501 [6] 0F 00 99 99 03 00
1768358321.469732 can0 080 [0] 
1768358321.469733 can0 701 [0] 
1768358321.469733 can0 181 [6] 37 06 82 90 03 00
1768358321.469735 can0 381 [2] 92 00
1768358321.469736 can0 281 [4] B7 0F 00 00
1768358321.470032 can0 481 [8] F2 1C 00 00 00 00 02 00
1768358321.470033 can0 701 [1] 05
1768358321.479579 can0 501 [6] 0F 00 99 99 03 00
1768358321.479975 can0 080 [0] 
1768358321.479977 can0 701 [0] 
1768358321.479978 can0 181 [6] 37 06 B2 8D 03 00
1768358321.479979 can0 381 [2] B0 00
1768358321.479980 can0 281 [4] 20 11 00 00
1768358321.480248 can0 481 [8] F4 1C 00 00 00 00 02 00
1768358321.480250 can0 701 [1] 85
1768358321.489788 can0 501 [6] 0F 00 99 99 03 00
1768358321.489790 can0 080 [0] 
1768358321.490191 can0 701 [0] 
1768358321.490192 can0 181 [6] 37 06 64 89 03 00
1768358321.490193 can0 381 [2] D5 00
1768358321.490194 can0 281 [4] 89 12 00 00
1768358321.490515 can0 481 [8] F8 1C 00 00 00 00 02 00
1768358321.490516 can0 701 [1] 05
1768358321.500003 can0 501 [6] 0F 00 99 99 03 00
1768358321.500389 can0 080 [0] 
1768358321.500390 can0 701 [0] 
1768358321.500391 can0 181 [6] 37 06 C3 87 03 00
1768358321.500391 can0 381 [2] EE 00
1768358321.500762 can0 281 [4] F6 13 00 00
1768358321.500762 can0 481 [8] F4 1C 00 00 00 00 02 00
1768358321.500763 can0 701 [1] 85
1768358321.510227 can0 501 [6] 0F 00 99 99 03 00
1768358321.510653 can0 080 [0] 
1768358321.510653 can0 701 [0] 
1768358321.510654 can0 181 [6] 37 06 8A 8A 03 00
1768358321.510663 can0 381 [2] D1 00
1768358321.510664 can0 281 [4] 5F 15 00 00
1768358321.510979 can0 481 [8] F5 1C 00 00 00 00 02 00
1768358321.510981 can0 701 [1] 05
1768358321.520684 can0 501 [6] 0F 00 99 99 03 00
1768358321.520686 can0 080 [0] 
1768358321.520908 can0 701 [0] 
1768358321.520910 can0 181 [6] 37 06 47 8A 03 00
1768358321.520911 can0 381 [2] D2 00
1768358321.521168 can0 281 [4] CC 16 00 00
1768358321.521477 can0 481 [8] F4 1C 00 00 00 00 02 00
1768358321.521478 can0 701 [1] 85
1768358321.530727 can0 501 [6] 0F 00 99 99 03 00
1768358321.530729 can0 080 [0] 
1768358321.531035 can0 701 [0] 
1768358321.531036 can0 181 [6] 37 06 D3 8C 03 00
1768358321.531037 can0 381 [2] D1 00
1768358321.531038 can0 281 [4] 33 18 00 00
1768358321.531336 can0 481 [8] EF 1C 00 00 00 00 02 00
1768358321.531338 can0 701 [1] 05
1768358321.540941 can0 501 [6] 0F 00 99 99 03 00
1768358321.541363 can0 080 [0] 
1768358321.541364 can0 701 [0] 
1768358321.541365 can0 181 [6] 37 06 0A 8F 03 00
1768358321.541366 can0 381 [2] 7D 00
1768358321.541367 can0 281 [4] A1 19 00 00
1768358321.541708 can0 481 [8] F7 1C 00 00 00 00 02 00
1768358321.541710 can0 701 [1] 85
1768358321.551212 can0 501 [6] 0F 00 99 99 03 00
1768358321.551584 can0 080 [0] 
1768358321.551585 can0 701 [0] 
1768358321.551586 can0 181 [6] 37 06 4D 8E 03 00
1768358321.551587 can0 381 [2] 7F 00
1768358321.551587 can0 281 [4] 0B 1B 00 00
1768358321.551892 can0 481 [8] F3 1C 00 00 00 00 02 00
1768358321.551894 can0 701 [1] 05
1768358321.561418 can0 501 [6] 0F 00 99 99 03 00
1768358321.561869 can0 080 [0] 
1768358321.561871 can0 701 [0] 
1768358321.561872 can0 181 [6] 37 06 7E 8A 03 00
1768358321.561873 can0 381 [2] A6 00
1768358321.561874 can0 281 [4] 79 1C 00 00
1768358321.562190 can0 481 [8] F5 1C 00 00 00 00 02 00
1768358321.562192 can0 701 [1] 85
1768358321.571647 can0 501 [6] 0F 00 99 99 03 00
1768358321.572024 can0 080 [0] 
1768358321.572026 can0 701 [0] 
1768358321.572027 can0 181 [6] 37 06 D9 8F 03 00
1768358321.572028 can0 381 [2] 86 00
1768358321.572029 can0 281 [4] E0 1D 00 00
1768358321.572341 can0 481 [8] F3 1C 00 00 00 00 02 00
1768358321.572343 can0 701 [1] 05
1768358321.581857 can0 501 [6] 0F 00 99 99 03 00
1768358321.582259 can0 080 [0] 
1768358321.582261 can0 701 [0] 
1768358321.582262 can0 181 [6] 37 06 07 8D 03 00
1768358321.582263 can0 381 [2] 7E 00
1768358321.582264 can0 281 [4] 4D 1F 00 00
1768358321.582572 can0 481 [8] F0 1C 00 00 00 00 02 00
1768358321.582573 can0 701 [1] 85
1768358321.592070 can0 501 [6] 0F 00 99 99 03 00
1768358321.592475 can0 080 [0] 
1768358321.592476 can0 701 [0] 
1768358321.592478 can0 181 [6] 37 06 5D 8F 03 00
1768358321.592479 can0 381 [2] A5 00
1768358321.592480 can0 281 [4] B7 20 00 00
1768358321.592797 can0 481 [8] F0 1C 00 00 00 00 02 00
1768358321.592799 can0 701 [1] 05
1768358321.602350 can0 501 [6] 0F 00 99 99 03 00
1768358321.602351 can0 080 [0] 
1768358321.602679 can0 701 [0] 
1768358321.602680 can0 181 [6] 37 06 3C 8D 03 00
1768358321.602681 can0 381 [2] BA 00
1768358321.602682 can0 281 [4] 20 22 00 00
1768358321.603005 can0 481 [8] F4 1C 00 00 00 00 02 00
1768358321.603006 can0 701 [1] 85
1768358321.612563 can0 501 [6] 0F 00 99 99 03 00
1768358321.612927 can0 080 [0] 
1768358321.612929 can0 701 [0] 
1768358321.612930 can0 181 [6] 37 06 69 85 03 00
1768358321.612931 can0 381 [2] 0F 01
1768358321.613219 can0 281 [4] 8D 23 00 00
1768358321.613515 can0 481 [8] F3 1C 00 00 00 00 02 00
1768358321.613517 can0 701 [1] 05
1768358321.622747 can0 501 [6] 0F 00 99 99 03 00
1768358321.623170 can0 080 [0] 
1768358321.623171 can0 701 [0] 
1768358321.623172 can0 181 [6] 37 06 2C 8A 03 00
1768358321.623173 can0 381 [2] D6 00
1768358321.623173 can0 281 [4] F6 24 00 00
1768358321.623483 can0 481 [8] F7 1C 00 00 00 00 02 00
1768358321.623485 can0 701 [1] 85
1768358321.633012 can0 501 [6] 0F 00 99 99 03 00
1768358321.633013 can0 080 [0] 
1768358321.633349 can0 701 [0] 
1768358321.633351 can0 181 [6] 37 06 B1 89 03 00
1768358321.633352 can0 381 [2] D1 00
1768358321.633353 can0 281 [4] 5F 26 00 00
1768358321.633707 can0 481 [8] EE 1C 00 00 00 00 02 00
1768358321.633709 can0 701 [1] 05
1768358321.643225 can0 501 [6] 0F 00 99 99 03 00
1768358321.643226 can0 080 [0] 
1768358321.643543 can0 701 [0] 
1768358321.643545 can0 181 [6] 37 06 74 88 03 00
1768358321.643546 can0 381 [2] F1 00
1768358321.643546 can0 281 [4] C6 27 00 00
1768358321.643868 can0 481 [8] F5 1C 00 00 00 00 02 00
1768358321.643869 can0 701 [1] 85
1768358321.653410 can0 501 [6] 0F 00 99 99 03 00
1768358321.653890 can0 080 [0] 
1768358321.653891 can0 701 [0] 
1768358321.653892 can0 181 [6] 37 06 98 91 03 00
1768358321.653893 can0 381 [2] 98 00
1768358321.653894 can0 281 [4] 37 29 00 00
1768358321.654180 can0 481 [8] F3 1C 00 00 00 00 02 00
1768358321.654181 can0 701 [1] 05
1768358321.663649 can0 501 [6] 0F 00 99 99 03 00
1768358321.663650 can0 080 [0] 
1768358321.663979 can0 701 [0] 
1768358321.663980 can0 181 [6] 37 06 9E 91 03 00
1768358321.663980 can0 381 [2] 67 00
1768358321.663981 can0 281 [4] 9E 2A 00 00
1768358321.664337 can0 481 [8] F4 1C 00 00 00 00 02 00
1768358321.664338 can0 701 [1] 85
1768358321.673837 can0 501 [6] 0F 00 99 99 03 00
1768358321.674227 can0 080 [0] 
1768358321.674228 can0 701 [0] 
1768358321.674230 can0 181 [6] 37 06 47 8C 03 00
1768358321.674231 can0 381 [2] A6 00
1768358321.674232 can0 281 [4] 09 2C 00 00
1768358321.674545 can0 481 [8] F6 1C 00 00 00 00 02 00
1768358321.674546 can0 701 [1] 05
1768358321.684035 can0 501 [6] 0F 00 99 99 03 00
1768358321.684036 can0 080 [0] 
1768358321.684468 can0 701 [0] 
1768358321.684469 can0 181 [6] 37 06 2A 91 03 00
1768358321.684470 can0 381 [2] 86 00
1768358321.684471 can0 281 [4] 76 2D 00 00
1768358321.684753 can0 481 [8] F4 1C 00 00 00 00 02 00
1768358321.684754 can0 701 [1] 85
1768358321.694327 can0 501 [6] 0F 00 99 99 03 00
1768358321.694329 can0 080 [0] 
1768358321.694614 can0 701 [0] 
1768358321.694615 can0 181 [6] 37 06 52 8D 03 00
1768358321.694616 can0 381 [2] AA 00
1768358321.694617 can0 281 [4] DD 2E 00 00
1768358321.694921 can0 481 [8] F8 1C 00 00 00 00 02 00
1768358321.694922 can0 701 [1] 05
1768358321.704478 can0 501 [6] 0F 00 99 99 03 00
1768358321.704881 can0 080 [0] 
1768358321.704882 can0 701 [0] 
1768358321.704883 can0 181 [6] 37 06 BA 88 03 00
1768358321.704883 can0 381 [2] B8 00
1768358321.705187 can0 281 [4] 4D 30 00 00
1768358321.705490 can0 481 [8] F6 1C 00 00 00 00 02 00
1768358321.705491 can0 701 [1] 85
1768358321.714841 can0 501 [6] 0F 00 99 99 03 00
1768358321.715262 can0 080 [0] 
1768358321.715264 can0 701 [0] 
1768358321.715265 can0 181 [6] 37 06 6E 8B 03 00
1768358321.715266 can0 381 [2] C1 00
1768358321.715266 can0 281 [4] B6 31 00 00
1768358321.715571 can0 481 [8] EF 1C 00 00 00 00 02 00
1768358321.715573 can0 701 [1] 05
1768358321.725038 can0 501 [6] 0F 00 99 99 03 00
1768358321.725466 can0 080 [0] 
1768358321.725468 can0 701 [0] 
1768358321.725469 can0 181 [6] 37 06 94 8D 03 00
1768358321.725470 can0 381 [2] AC 00
1768358321.725470 can0 281 [4] 23 33 00 00
1768358321.725782 can0 481 [8] F3 1C 00 00 00 00 02 00
1768358321.725784 can0 701 [1] 85
1768358321.735302 can0 501 [6] 0F 00 99 99 03 00
1768358321.735304 can0 080 [0] 
1768358321.735628 can0 701 [0] 
1768358321.735629 can0 181 [6] 37 06 D7 87 03 00
1768358321.735630 can0 381 [2] B7 00
1768358321.735631 can0 281 [4] 8D 34 00 00
1768358321.735984 can0 481 [8] F3 1C 00 00 00 00 02 00
1768358321.735986 can0 701 [1] 05
1768358321.745516 can0 501 [6] 0F 00 99 99 03 00
1768358321.745880 can0 080 [0] 
1768358321.745881 can0 701 [0] 
1768358321.745882 can0 181 [6] 37 06 FD 8A 03 00
1768358321.745883 can0 381 [2] B1 00
1768358321.745884 can0 281 [4] F6 35 00 00
1768358321.746189 can0 481 [8] F7 1C 00 00 00 00 02 00
1768358321.746191 can0 701 [1] 85
1768358321.755706 can0 501 [6] 0F 00 99 99 03 00
1768358321.756050 can0 080 [0] 
1768358321.756051 can0 701 [0] 
1768358321.756052 can0 181 [6] 37 06 49 89 03 00
1768358321.756053 can0 381 [2] D2 00
1768358321.756054 can0 281 [4] 5D 37 00 00
1768358321.756340 can0 481 [8] F2 1C 00 00 00 00 02 00
1768358321.756341 can0 701 [1] 05
1768358321.765965 can0 501 [6] 0F 00 99 99 03 00
1768358321.765966 can0 080 [0] 
1768358321.766269 can0 701 [0] 
1768358321.766270 can0 181 [6] 37 06 F0 91 03 00
1768358321.766271 can0 381 [2] 77 00
1768358321.766271 can0 281 [4] CC 38 00 00
1768358321.766591 can0 481 [8] F6 1C 00 00 00 00 02 00
1768358321.766592 can0 701 [1] 85
1768358321.776160 can0 501 [6] 0F 00 99 99 03 00
1768358321.776161 can0 080 [0] 
1768358321.776498 can0 701 [0] 
1768358321.776500 can0 181 [6] 37 06 37 91 03 00
1768358321.776845 can0 381 [2] 7A 00
1768358321.776847 can0 281 [4] 3A 3A 00 00
1768358321.777106 can0 481 [8] F4 1C 00 00 00 00 02 00
1768358321.777108 can0 701 [1] 05
1768358321.786355 can0 501 [6] 0F 00 99 99 03 00
1768358321.786708 can0 080 [0] 
1768358321.786709 can0 701 [0] 
1768358321.786710 can0 181 [6] 37 06 5A 8A 03 00
1768358321.786711 can0 381 [2] C4 00
1768358321.786712 can0 281 [4] A1 3B 00 00
1768358321.787062 can0 481 [8] F5 1C 00 00 00 00 02 00
1768358321.787064 can0 701 [1] 85
1768358321.796528 can0 501 [6] 0F 00 99 99 03 00
1768358321.796914 can0 080 [0] 
1768358321.796915 can0 701 [0] 
1768358321.796916 can0 181 [6] 37 06 39 92 03 00
1768358321.797224 can0 381 [2] 7E 00
1768358321.797225 can0 281 [4] 0F 3D 00 00
1768358321.797493 can0 481 [8] F5 1C 00 00 00 00 02 00
1768358321.797494 can0 701 [1] 05
1768358321.806810 can0 501 [6] 0F 00 99 99 03 00
1768358321.807353 can0 080 [0] 
1768358321.807686 can0 701 [0] 
1768358321.807688 can0 181 [6] 37 06 05 91 03 00
1768358321.807688 can0 381 [2] 85 00
1768358321.807689 can0 281 [4] 87 3E 00 00
1768358321.807947 can0 481 [8] F8 1C 00 00 00 00 02 00
1768358321.807949 can0 701 [1] 85
1768358321.817566 can0 501 [6] 0F 00 99 99 03 00
1768358321.818004 can0 080 [0] 
1768358321.818005 can0 701 [0] 
1768358321.818006 can0 181 [6] 37 06 2D 90 03 00
1768358321.818006 can0 381 [2] AE 00
1768358321.818007 can0 281 [4] F8 3F 00 00
1768358321.818297 can0 481 [8] FC 1C 00 00 00 00 02 00
1768358321.818299 can0 701 [1] 05
1768358321.827830 can0 501 [6] 0F 00 99 99 03 00
1768358321.827832 can0 080 [0] 
1768358321.827832 can0 701 [0] 
1768358321.828138 can0 181 [6] 37 06 8F 8B 03 00
1768358321.828139 can0 381 [2] C2 00
1768358321.828140 can0 281 [4] 5E 41 00 00
1768358321.828492 can0 481 [8] F5 1C 00 00 00 00 02 00
1768358321.828493 can0 701 [1] 85
1768358321.837968 can0 501 [6] 0F 00 99 99 03 00
1768358321.838362 can0 080 [0] 
1768358321.838363 can0 701 [0] 
1768358321.838364 can0 181 [6] 37 06 B3 8A 03 00
1768358321.838365 can0 381 [2] CE 00
1768358321.838365 can0 281 [4] C7 42 00 00
1768358321.838645 can0 481 [8] F8 1C 00 00 00 00 02 00
1768358321.838646 can0 701 [1] 05
1768358321.848145 can0 501 [6] 0F 00 99 99 03 00
1768358321.848580 can0 080 [0] 
1768358321.848581 can0 701 [0] 
1768358321.848582 can0 181 [6] 37 06 57 8B 03 00
1768358321.848583 can0 381 [2] D1 00
1768358321.848583 can0 281 [4] 34 44 00 00
1768358321.848911 can0 481 [8] F6 1C 00 00 00 00 02 00
1768358321.848912 can0 701 [1] 85
1768358321.858392 can0 501 [6] 0F 00 99 99 03 00
1768358321.858399 can0 080 [0] 
1768358321.858773 can0 701 [0] 
1768358321.858776 can0 181 [6] 37 06 9C 89 03 00
1768358321.858777 can0 381 [2] D5 00
1768358321.858779 can0 281 [4] 9D 45 00 00
1768358321.859081 can0 481 [8] F3 1C 00 00 00 00 02 00
1768358321.859082 can0 701 [1] 05
1768358321.868572 can0 501 [6] 0F 00 99 99 03 00
1768358321.869014 can0 080 [0] 
1768358321.869015 can0 701 [0] 
1768358321.869016 can0 181 [6] 37 06 31 8D 03 00
1768358321.869018 can0 381 [2] B3 00
1768358321.869019 can0 281 [4] 08 47 00 00
1768358321.869274 can0 481 [8] F8 1C 00 00 00 00 02 00
1768358321.869275 can0 701 [1] 85
1768358321.878795 can0 501 [6] 0F 00 99 99 03 00
1768358321.879123 can0 080 [0] 
1768358321.879125 can0 701 [0] 
1768358321.879493 can0 181 [6] 37 06 84 91 03 00
1768358321.879494 can0 381 [2] 81 00
1768358321.879495 can0 281 [4] 77 48 00 00
1768358321.879714 can0 481 [8] F7 1C 00 00 00 00 02 00
1768358321.879715 can0 701 [1] 05
1768358321.889007 can0 501 [6] 0F 00 99 99 03 00
1768358321.889387 can0 080 [0] 
1768358321.889389 can0 701 [0] 
1768358321.889390 can0 181 [6] 37 06 BD 93 03 00
1768358321.889391 can0 381 [2] 4D 00
1768358321.889392 can0 281 [4] DE 49 00 00
1768358321.889700 can0 481 [8] F4 1C 00 00 00 00 02 00
1768358321.889702 can0 701 [1] 85
1768358321.899240 can0 501 [6] 0F 00 99 99 03 00
1768358321.899243 can0 080 [0] 
1768358321.899624 can0 701 [0] 
1768358321.899625 can0 181 [6] 37 06 3A 8C 03 00
1768358321.899626 can0 381 [2] BF 00
1768358321.899628 can0 281 [4] 4C 4B 00 00
1768358321.899956 can0 481 [8] FA 1C 00 00 00 00 02 00
1768358321.899956 can0 701 [1] 05
1768358321.909510 can0 501 [6] 0F 00 99 99 03 00
1768358321.909512 can0 080 [0] 
1768358321.909513 can0 701 [0] 
1768358321.910177 can0 181 [6] 37 06 8A 90 03 00
1768358321.910179 can0 381 [2] 76 00
1768358321.910180 can0 281 [4] B3 4C 00 00
1768358321.910195 can0 481 [8] F7 1C 00 00 00 00 02 00
1768358321.910196 can0 701 [1] 85
1768358321.919529 can0 501 [6] 0F 00 99 99 03 00
1768358321.919961 can0 080 [0] 
1768358321.919963 can0 701 [0] 
1768358321.919964 can0 181 [6] 37 06 55 8C 03 00
1768358321.919964 can0 381 [2] 9C 00
1768358321.919965 can0 281 [4] 1D 4E 00 00
1768358321.920279 can0 481 [8] F6 1C 00 00 00 00 02 00
1768358321.920280 can0 701 [1] 05
1768358321.929806 can0 501 [6] 0F 00 99 99 03 00
1768358321.929808 can0 080 [0] 
1768358321.930135 can0 701 [0] 
1768358321.930136 can0 181 [6] 37 06 44 8D 03 00
1768358321.930137 can0 381 [2] A1 00
1768358321.930138 can0 281 [4] 83 4F 00 00
1768358321.930488 can0 481 [8] FA 1C 00 00 00 00 02 00
1768358321.930490 can0 701 [1] 85
1768358321.939949 can0 501 [6] 0F 00 99 99 03 00
1768358321.939951 can0 080 [0] 
1768358321.940292 can0 701 [0] 
1768358321.940293 can0 181 [6] 37 06 58 8F 03 00
1768358321.940294 can0 381 [2] B8 00
1768358321.940295 can0 281 [4] F0 50 00 00
1768358321.940610 can0 481 [8] F2 1C 00 00 00 00 02 00
1768358321.940612 can0 701 [1] 05
1768358321.950065 can0 501 [6] 0F 00 99 99 03 00
1768358321.950474 can0 080 [0] 
1768358321.950475 can0 701 [0] 
1768358321.950476 can0 181 [6] 37 06 5C 8D 03 00
1768358321.950476 can0 381 [2] A3 00
1768358321.950477 can0 281 [4] 52 52 00 00
1768358321.950731 can0 481 [8] F2 1C 00 00 00 00 02 00
1768358321.950731 can0 701 [1] 85
1768358321.960285 can0 501 [6] 0F 00 99 99 03 00
1768358321.960287 can0 080 [0] 
1768358321.960657 can0 701 [0] 
1768358321.960658 can0 181 [6] 37 06 28 8F 03 00
1768358321.960659 can0 381 [2] AA 00
1768358321.960660 can0 281 [4] BC 53 00 00
1768358321.960927 can0 481 [8] FA 1C 00 00 00 00 02 00
1768358321.960928 can0 701 [1] 05
1768358321.970490 can0 501 [6] 0F 00 99 99 03 00
1768358321.970803 can0 080 [0] 
1768358321.970804 can0 701 [0] 
1768358321.970804 can0 181 [6] 37 06 B1 8E 03 00
1768358321.970805 can0 381 [2] 98 00
1768358321.970806 can0 281 [4] 26 55 00 00
1768358321.971098 can0 481 [8] FB 1C 00 00 00 00 02 00
1768358321.971099 can0 701 [1] 85
1768358321.980600 can0 501 [6] 0F 00 99 99 03 00
1768358321.981001 can0 080 [0] 
1768358321.981002 can0 701 [0] 
1768358321.981003 can0 181 [6] 37 06 2D 8B 03 00
1768358321.981004 can0 381 [2] AD 00
1768358321.981004 can0 281 [4] 90 56 00 00
1768358321.981301 can0 481 [8] FB 1C 00 00 00 00 02 00
1768358321.981302 can0 701 [1] 05
1768358321.990830 can0 501 [6] 0F 00 99 99 03 00
1768358321.990832 can0 080 [0] 
1768358321.991118 can0 701 [0] 
1768358321.991119 can0 181 [6] 37 06 C1 8E 03 00
1768358321.991120 can0 381 [2] B6 00
1768358321.991120 can0 281 [4] F7 57 00 00
1768358321.991479 can0 481 [8] F6 1C 00 00 00 00 02 00
1768358321.991480 can0 701 [1] 85
1768358322.000973 can0 501 [6] 0F 00 99 99 03 00
1768358322.001364 can0 080 [0] 
1768358322.001366 can0 701 [0] 
1768358322.001367 can0 181 [6] 37 06 76 90 03 00
1768358322.001368 can0 381 [2] 85 00
1768358322.001369 can0 281 [4] 66 59 00 00
1768358322.001682 can0 481 [8] F8 1C 00 00 00 00 02 00
1768358322.001683 can0 701 [1] 05
1768358322.011158 can0 501 [6] 0F 00 99 99 03 00
1768358322.011520 can0 080 [0] 
1768358322.011522 can0 701 [0] 
1768358322.011523 can0 181 [6] 37 06 9E 8D 03 00
1768358322.011524 can0 381 [2] B1 00
1768358322.011525 can0 281 [4] D0 5A 00 00
1768358322.011823 can0 481 [8] F6 1C 00 00 00 00 02 00
1768358322.011824 can0 701 [1] 85
1768358322.021379 can0 501 [6] 0F 00 99 99 03 00
1768358322.021380 can0 080 [0] 
1768358322.021789 can0 701 [0] 
1768358322.021790 can0 181 [6] 37 06 30 91 03 00
1768358322.021791 can0 381 [2] 81 00
1768358322.021792 can0 281 [4] 3A 5C 00 00
1768358322.022032 can0 481 [8] F6 1C 00 00 00 00 02 00
1768358322.022033 can0 701 [1] 05
1768358322.031500 can0 501 [6] 0F 00 99 99 03 00
1768358322.031867 can0 080 [0] 
1768358322.031868 can0 701 [0] 
1768358322.031868 can0 181 [6] 37 06 B9 8F 03 00
1768358322.031869 can0 381 [2] 9E 00
1768358322.031869 can0 281 [4] A1 5D 00 00
1768358322.032161 can0 481 [8] F9 1C 00 00 00 00 02 00
1768358322.032162 can0 701 [1] 85
1768358322.041664 can0 501 [6] 0F 00 99 99 03 00
1768358322.042061 can0 080 [0] 
1768358322.042061 can0 701 [0] 
1768358322.042062 can0 181 [6] 37 06 8A 8D 03 00
1768358322.042063 can0 381 [2] A6 00
1768358322.042063 can0 281 [4] 0B 5F 00 00
1768358322.042371 can0 481 [8] F5 1C 00 00 00 00 02 00
1768358322.042372 can0 701 [1] 05
1768358322.051852 can0 501 [6] 0F 00 99 99 03 00
1768358322.052235 can0 080 [0] 
1768358322.052236 can0 701 [0] 
1768358322.052237 can0 181 [6] 37 06 18 8E 03 00
1768358322.052238 can0 381 [2] 8E 00
1768358322.052239 can0 281 [4] 71 60 00 00
1768358322.052510 can0 481 [8] F6 1C 00 00 00 00 02 00
1768358322.052510 can0 701 [1] 85
1768358322.062025 can0 501 [6] 0F 00 99 99 03 00
1768358322.062453 can0 080 [0] 
1768358322.062454 can0 701 [0] 
1768358322.062455 can0 181 [6] 37 06 C7 8C 03 00
1768358322.062455 can0 381 [2] BA 00
1768358322.062456 can0 281 [4] DB 61 00 00
1768358322.062733 can0 481 [8] F5 1C 00 00 00 00 02 00
1768358322.062734 can0 701 [1] 05
1768358322.072210 can0 501 [6] 0F 00 99 99 03 00
1768358322.072744 can0 080 [0] 
1768358322.072745 can0 701 [0] 
1768358322.073041 can0 181 [6] 37 06 E3 8D 03 00
1768358322.073042 can0 381 [2] A3 00
1768358322.073043 can0 281 [4] 56 63 00 00
1768358322.073334 can0 481 [8] F6 1C 00 00 00 00 02 00
1768358322.073335 can0 701 [1] 85
1768358322.083021 can0 501 [6] 0F 00 99 99 03 00
1768358322.083022 can0 080 [0] 
1768358322.083284 can0 701 [0] 
1768358322.083709 can0 181 [6] 37 06 41 8C 03 00
1768358322.083710 can0 381 [2] AE 00
1768358322.083712 can0 281 [4] CA 64 00 00
1768358322.083906 can0 481 [8] F9 1C 00 00 00 00 02 00
1768358322.083906 can0 701 [1] 05
1768358322.093303 can0 501 [6] 0F 00 99 99 03 00
1768358322.093304 can0 080 [0] 
1768358322.093590 can0 701 [0] 
1768358322.093590 can0 181 [6] 37 06 5B 8E 03 00
1768358322.093591 can0 381 [2] 99 00
1768358322.093591 can0 281 [4] 2E 66 00 00
1768358322.093905 can0 481 [8] F0 1C 00 00 00 00 02 00
1768358322.093905 can0 701 [1] 85
1768358322.103563 can0 501 [6] 0F 00 99 99 03 00
1768358322.103565 can0 080 [0] 
1768358322.103955 can0 701 [0] 
1768358322.103956 can0 181 [6] 37 06 1C 8F 03 00
1768358322.103957 can0 381 [2] 99 00
1768358322.103958 can0 281 [4] A0 67 00 00
1768358322.104281 can0 481 [8] F7 1C 00 00 00 00 02 00
1768358322.104283 can0 701 [1] 05
1768358322.113714 can0 501 [6] 0F 00 99 99 03 00
1768358322.114111 can0 080 [0] 
1768358322.114113 can0 701 [0] 
1768358322.114114 can0 181 [6] 37 06 64 93 03 00
1768358322.114115 can0 381 [2] 73 00
1768358322.114115 can0 281 [4] 08 69 00 00
1768358322.114367 can0 481 [8] FA 1C 00 00 00 00 02 00
1768358322.114369 can0 701 [1] 85
1768358322.123926 can0 501 [6] 0F 00 99 99 03 00
1768358322.124319 can0 080 [0] 
1768358322.124321 can0 701 [0] 
1768358322.124321 can0 181 [6] 37 06 E1 8F 03 00
1768358322.124322 can0 381 [2] 7C 00
1768358322.124323 can0 281 [4] 76 6A 00 00
1768358322.124642 can0 481 [8] F4 1C 00 00 00 00 02 00
1768358322.124643 can0 701 [1] 05
1768358322.134070 can0 501 [6] 0F 00 99 99 03 00
1768358322.134462 can0 080 [0] 
1768358322.134464 can0 701 [0] 
1768358322.134465 can0 181 [6] 37 06 3A 8D 03 00
1768358322.134466 can0 381 [2] AD 00
1768358322.134466 can0 281 [4] DD 6B 00 00
1768358322.134771 can0 481 [8] FA 1C 00 00 00 00 02 00
1768358322.134774 can0 701 [1] 85
1768358322.144255 can0 501 [6] 0F 00 99 99 03 00
1768358322.144645 can0 080 [0] 
1768358322.144647 can0 701 [0] 
1768358322.144648 can0 181 [6] 37 06 CE 90 03 00
1768358322.144650 can0 381 [2] B0 00
1768358322.144650 can0 281 [4] 47 6D 00 00
1768358322.144971 can0 481 [8] F3 1C 00 00 00 00 02 00
1768358322.144972 can0 701 [1] 05
1768358322.154477 can0 501 [6] 0F 00 99 99 03 00
1768358322.154867 can0 080 [0] 
1768358322.154869 can0 701 [0] 
1768358322.154870 can0 181 [6] 37 06 05 8B 03 00
1768358322.154871 can0 381 [2] BE 00
1768358322.154871 can0 281 [4] B1 6E 00 00
1768358322.155157 can0 481 [8] F2 1C 00 00 00 00 02 00
1768358322.155158 can0 701 [1] 85
1768358322.164628 can0 501 [6] 0F 00 99 99 03 00
1768358322.165032 can0 080 [0] 
1768358322.165033 can0 701 [0] 
1768358322.165034 can0 181 [6] 37 06 EF 8B 03 00
1768358322.165035 can0 381 [2] C1 00
1768358322.165035 can0 281 [4] 1A 70 00 00
1768358322.165354 can0 481 [8] F7 1C 00 00 00 00 02 00
1768358322.165354 can0 701 [1] 05
1768358322.174835 can0 501 [6] 0F 00 99 99 03 00
1768358322.174836 can0 080 [0] 
1768358322.175210 can0 701 [0] 
1768358322.175211 can0 181 [6] 37 06 C7 8B 03 00
1768358322.175212 can0 381 [2] C9 00
1768358322.175213 can0 281 [4] 80 71 00 00
1768358322.175517 can0 481 [8] F4 1C 00 00 00 00 02 00
1768358322.175518 can0 701 [1] 85
1768358322.184997 can0 501 [6] 0F 00 99 99 03 00
1768358322.184998 can0 080 [0] 
1768358322.185310 can0 701 [0] 
1768358322.185311 can0 181 [6] 37 06 1A 8E 03 00
1768358322.185312 can0 381 [2] B2 00
1768358322.185313 can0 281 [4] EA 72 00 00
1768358322.185617 can0 481 [8] F6 1C 00 00 00 00 02 00
1768358322.185618 can0 701 [1] 05
1768358322.195227 can0 501 [6] 0F 00 99 99 03 00
1768358322.195228 can0 080 [0] 
1768358322.195229 can0 701 [0] 
1768358322.195492 can0 181 [6] 37 06 D4 8D 03 00
1768358322.195493 can0 381 [2] C3 00
1768358322.195493 can0 281 [4] 50 74 00 00
1768358322.195780 can0 481 [8] F8 1C 00 00 00 00 02 00
1768358322.195780 can0 701 [1] 85
1768358322.205375 can0 501 [6] 0F 00 99 99 03 00
1768358322.205377 can0 080 [0] 
1768358322.205774 can0 701 [0] 
1768358322.205775 can0 181 [6] 37 06 81 92 03 00
1768358322.205776 can0 381 [2] 76 00
1768358322.205776 can0 281 [4] BB 75 00 00
1768358322.206005 can0 481 [8] F7 1C 00 00 00 00 02 00
1768358322.206006 can0 701 [1] 05
1768358322.215499 can0 501 [6] 0F 00 99 99 03 00
1768358322.215879 can0 080 [0] 
1768358322.215881 can0 701 [0] 
1768358322.215882 can0 181 [6] 37 06 38 92 03 00
1768358322.215882 can0 381 [2] 6F 00
1768358322.215883 can0 281 [4] 26 77 00 00
1768358322.216198 can0 481 [8] F3 1C 00 00 00 00 02 00
1768358322.216200 can0 701 [1] 85
1768358322.225659 can0 501 [6] 0F 00 99 99 03 00
1768358322.226027 can0 080 [0] 
1768358322.226028 can0 701 [0] 
1768358322.226030 can0 181 [6] 37 06 5B 8D 03 00
1768358322.226031 can0 381 [2] BD 00
1768358322.226032 can0 281 [4] 91 78 00 00
1768358322.226318 can0 481 [8] FA 1C 00 00 00 00 02 00
1768358322.226319 can0 701 [1] 05
1768358322.235830 can0 501 [6] 0F 00 99 99 03 00
1768358322.236229 can0 080 [0] 
1768358322.236230 can0 701 [0] 
1768358322.236231 can0 181 [6] 37 06 CC 91 03 00
1768358322.236232 can0 381 [2] 9A 00
1768358322.236233 can0 281 [4] FC 79 00 00
1768358322.236554 can0 481 [8] FA 1C 00 00 00 00 02 00
1768358322.236554 can0 701 [1] 85
1768358322.246137 can0 501 [6] 0F 00 99 99 03 00
1768358322.246139 can0 080 [0] 
1768358322.246140 can0 701 [0] 
1768358322.246490 can0 181 [6] 37 06 E7 8C 03 00
1768358322.246491 can0 381 [2] 9B 00
1768358322.246492 can0 281 [4] 66 7B 00 00
1768358322.246754 can0 481 [8] F8 1C 00 00 00 00 02 00
1768358322.246755 can0 701 [1] 05
1768358322.256330 can0 501 [6] 0F 00 99 99 03 00
1768358322.256331 can0 080 [0] 
1768358322.256332 can0 701 [0] 
1768358322.256595 can0 181 [6] 37 06 B0 8A 03 00
1768358322.256596 can0 381 [2] D2 00
1768358322.256597 can0 281 [4] CD 7C 00 00
1768358322.256864 can0 481 [8] F8 1C 00 00 00 00 02 00
1768358322.256865 can0 701 [1] 85
1768358322.266383 can0 501 [6] 0F 00 99 99 03 00
1768358322.266871 can0 080 [0] 
1768358322.266873 can0 701 [0] 
1768358322.266873 can0 181 [6] 37 06 D1 8A 03 00
1768358322.266874 can0 381 [2] BD 00
1768358322.266875 can0 281 [4] 3A 7E 00 00
1768358322.267150 can0 481 [8] F1 1C 00 00 00 00 02 00
1768358322.267151 can0 701 [1] 05
1768358322.276579 can0 501 [6] 0F 00 99 99 03 00
1768358322.276580 can0 080 [0] 
1768358322.276914 can0 701 [0] 
1768358322.276914 can0 181 [6] 37 06 4E 8A 03 00
1768358322.276915 can0 381 [2] FE 00
1768358322.276916 can0 281 [4] A0 7F 00 00
1768358322.277248 can0 481 [8] F4 1C 00 00 00 00 02 00
1768358322.277249 can0 701 [1] 85
1768358322.286728 can0 501 [6] 0F 00 99 99 03 00
1768358322.287152 can0 080 [0] 
1768358322.287153 can0 701 [0] 
1768358322.287153 can0 181 [6] 37 06 A1 87 03 00
1768358322.287154 can0 381 [2] DE 00
1768358322.287155 can0 281 [4] 09 81 00 00
1768358322.287507 can0 481 [8] F3 1C 00 00 00 00 02 00
1768358322.287508 can0 701 [1] 05
1768358322.296947 can0 501 [6] 0F 00 99 99 03 00
1768358322.297319 can0 080 [0] 
1768358322.297320 can0 701 [0] 
1768358322.297321 can0 181 [6] 37 06 16 8D 03 00
1768358322.297321 can0 381 [2] A6 00
1768358322.297322 can0 281 [4] 73 82 00 00
1768358322.297650 can0 481 [8] F6 1C 00 00 00 00 02 00
1768358322.297651 can0 701 [1] 85
1768358322.307203 can0 501 [6] 0F 00 99 99 03 00
1768358322.307205 can0 080 [0] 
1768358322.307567 can0 701 [0] 
1768358322.307568 can0 181 [6] 37 06 46 8E 03 00
1768358322.307569 can0 381 [2] D4 00
1768358322.307570 can0 281 [4] DC 83 00 00
1768358322.307897 can0 481 [8] F5 1C 00 00 00 00 02 00
1768358322.307898 can0 701 [1] 05
1768358322.317366 can0 501 [6] 0F 00 99 99 03 00
1768358322.317810 can0 080 [0] 
1768358322.317811 can0 701 [0] 
1768358322.317812 can0 181 [6] 37 06 B1 91 03 00
1768358322.317813 can0 381 [2] 6C 00
1768358322.317813 can0 281 [4] 46 85 00 00
1768358322.318151 can0 481 [8] F7 1C 00 00 00 00 02 00
1768358322.318152 can0 701 [1] 85
1768358322.327575 can0 501 [6] 0F 00 99 99 03 00
1768358322.327981 can0 080 [0] 
1768358322.327982 can0 701 [0] 
1768358322.327983 can0 181 [6] 37 06 79 8D 03 00
1768358322.327984 can0 381 [2] AD 00
1768358322.327984 can0 281 [4] B1 86 00 00
1768358322.328295 can0 481 [8] F8 1C 00 00 00 00 02 00
1768358322.328296 can0 701 [1] 05
1768358322.337889 can0 501 [6] 0F 00 99 99 03 00
1768358322.337891 can0 080 [0] 
1768358322.338248 can0 701 [0] 
1768358322.338249 can0 181 [6] 37 06 E9 93 03 00
1768358322.338250 can0 381 [2] 70 00
1768358322.338585 can0 281 [4] 23 88 00 00
1768358322.338803 can0 481 [8] F5 1C 00 00 00 00 02 00
1768358322.338804 can0 701 [1] 85
1768358322.348109 can0 501 [6] 0F 00 99 99 03 00
1768358322.348487 can0 080 [0] 
1768358322.348488 can0 701 [0] 
1768358322.348489 can0 181 [6] 37 06 33 92 03 00
1768358322.348491 can0 381 [2] 67 00
1768358322.348491 can0 281 [4] 8A 89 00 00
1768358322.348848 can0 481 [8] FB 1C 00 00 00 00 02 00
1768358322.348850 can0 701 [1] 05
1768358322.358297 can0 501 [6] 0F 00 99 99 03 00
1768358322.358706 can0 080 [0] 
1768358322.358709 can0 701 [0] 
1768358322.358710 can0 181 [6] 37 06 0B 8C 03 00
1768358322.358711 can0 381 [2] B6 00
1768358322.358711 can0 281 [4] F4 8A 00 00
1768358322.359016 can0 481 [8] F7 1C 00 00 00 00 02 00
1768358322.359016 can0 701 [1] 85
1768358322.368555 can0 501 [6] 0F 00 99 99 03 00
1768358322.368968 can0 080 [0] 
1768358322.368969 can0 701 [0] 
1768358322.368970 can0 181 [6] 37 06 B2 8B 03 00
1768358322.368971 can0 381 [2] AA 00
1768358322.368972 can0 281 [4] 61 8C 00 00
1768358322.369286 can0 481 [8] FB 1C 00 00 00 00 02 00
1768358322.369287 can0 701 [1] 05
1768358322.378738 can0 501 [6] 0F 00 99 99 03 00
1768358322.379150 can0 080 [0] 
1768358322.379151 can0 701 [0] 
1768358322.379152 can0 181 [6] 37 06 54 8C 03 00
1768358322.379153 can0 381 [2] BD 00
1768358322.379153 can0 281 [4] CB 8D 00 00
1768358322.379482 can0 481 [8] F8 1C 00 00 00 00 02 00
1768358322.379483 can0 701 [1] 85
1768358322.388965 can0 501 [6] 0F 00 99 99 03 00
1768358322.389343 can0 080 [0] 
1768358322.389344 can0 701 [0] 
1768358322.389345 can0 181 [6] 37 06 7E 8B 03 00
1768358322.389346 can0 381 [2] D1 00
1768358322.389347 can0 281 [4] 31 8F 00 00
1768358322.389642 can0 481 [8] F5 1C 00 00 00 00 02 00
1768358322.389644 can0 701 [1] 05
1768358322.399191 can0 501 [6] 0F 00 99 99 03 00
1768358322.399555 can0 080 [0] 
1768358322.399556 can0 701 [0] 
1768358322.399557 can0 181 [6] 37 06 19 89 03 00
1768358322.399558 can0 381 [2] D5 00
1768358322.399558 can0 281 [4] 9D 90 00 00
1768358322.399871 can0 481 [8] F5 1C 00 00 00 00 02 00
1768358322.399872 can0 701 [1] 85
1768358322.409397 can0 501 [6] 0F 00 99 99 03 00
1768358322.409765 can0 080 [0] 
1768358322.409766 can0 701 [0] 
1768358322.410140 can0 181 [6] 37 06 F0 88 03 00
1768358322.410142 can0 381 [2] F0 00
1768358322.410143 can0 281 [4] 0D 92 00 00
1768358322.410368 can0 481 [8] F3 1C 00 00 00 00 02 00
1768358322.410370 can0 701 [1] 05
1768358322.419574 can0 501 [6] 0F 00 99 99 03 00
1768358322.419948 can0 080 [0] 
1768358322.419950 can0 701 [0] 
1768358322.419951 can0 181 [6] 37 06 60 89 03 00
1768358322.419952 can0 381 [2] F6 00
1768358322.419952 can0 281 [4] 6F 93 00 00
1768358322.420260 can0 481 [8] F5 1C 00 00 00 00 02 00
1768358322.420261 can0 701 [1] 85
1768358322.429816 can0 501 [6] 0F 00 99 99 03 00
1768358322.429818 can0 080 [0] 
1768358322.430135 can0 701 [0] 
1768358322.430484 can0 181 [6] 37 06 1F 8A 03 00
1768358322.430485 can0 381 [2] D9 00
1768358322.430485 can0 281 [4] DD 94 00 00
1768358322.430724 can0 481 [8] F6 1C 00 00 00 00 02 00
1768358322.430725 can0 701 [1] 05
1768358322.440053 can0 501 [6] 0F 00 99 99 03 00
1768358322.440055 can0 080 [0] 
1768358322.440349 can0 701 [0] 
1768358322.440351 can0 181 [6] 37 06 3F 8D 03 00
1768358322.440352 can0 381 [2] A3 00
1768358322.440353 can0 281 [4] 43 96 00 00
1768358322.440687 can0 481 [8] F6 1C 00 00 00 00 02 00
1768358322.440688 can0 701 [1] 85
1768358322.450207 can0 501 [6] 0F 00 99 99 03 00
1768358322.450593 can0 080 [0] 
1768358322.450593 can0 701 [0] 
1768358322.450594 can0 181 [6] 37 06 54 87 03 00
1768358322.450595 can0 381 [2] B0 00
1768358322.450596 can0 281 [4] B1 97 00 00
1768358322.450897 can0 481 [8] F6 1C 00 00 00 00 02 00
1768358322.450898 can0 701 [1] 05
1768358322.460401 can0 501 [6] 0F 00 99 99 03 00
1768358322.460771 can0 080 [0] 
1768358322.460772 can0 701 [0] 
1768358322.460773 can0 181 [6] 37 06 76 8F 03 00
1768358322.460773 can0 381 [2] 8C 00
1768358322.460774 can0 281 [4] 18 99 00 00
1768358322.461061 can0 481 [8] F8 1C 00 00 00 00 02 00
1768358322.461062 can0 701 [1] 85
1768358322.470582 can0 501 [6] 0F 00 99 99 03 00
1768358322.470958 can0 080 [0] 
1768358322.470960 can0 701 [0] 
1768358322.470961 can0 181 [6] 37 06 C9 8E 03 00
1768358322.470963 can0 381 [2] 93 00
1768358322.470963 can0 281 [4] 82 9A 00 00
1768358322.471269 can0 481 [8] F7 1C 00 00 00 00 02 00
1768358322.471270 can0 701 [1] 05
1768358322.480725 can0 501 [6] 0F 00 99 99 03 00
1768358322.481116 can0 080 [0] 
1768358322.481117 can0 701 [0] 
1768358322.481118 can0 181 [6] 37 06 97 8B 03 00
1768358322.481120 can0 381 [2] D7 00
1768358322.481120 can0 281 [4] E8 9B 00 00
1768358322.481447 can0 481 [8] F7 1C 00 00 00 00 02 00
1768358322.481448 can0 701 [1] 85
1768358322.490967 can0 501 [6] 0F 00 99 99 03 00
1768358322.491333 can0 080 [0] 
1768358322.491334 can0 701 [0] 
1768358322.491335 can0 181 [6] 37 06 73 8A 03 00
1768358322.491336 can0 381 [2] B7 00
1768358322.491337 can0 281 [4] 55 9D 00 00
1768358322.491680 can0 481 [8] F8 1C 00 00 00 00 02 00
1768358322.491680 can0 701 [1] 05
1768358322.501173 can0 501 [6] 0F 00 99 99 03 00
1768358322.501560 can0 080 [0] 
1768358322.501561 can0 701 [0] 
1768358322.501562 can0 181 [6] 37 06 69 8D 03 00
1768358322.501563 can0 381 [2] AD 00
1768358322.501564 can0 281 [4] BE 9E 00 00
1768358322.501856 can0 481 [8] F6 1C 00 00 00 00 02 00
1768358322.501857 can0 701 [1] 85
1768358322.511364 can0 501 [6] 0F 00 99 99 03 00
1768358322.511868 can0 080 [0] 
1768358322.511869 can0 701 [0] 
1768358322.511870 can0 181 [6] 37 06 DF 8C 03 00
1768358322.511870 can0 381 [2] B0 00
1768358322.511871 can0 281 [4] 2B A0 00 00
1768358322.512175 can0 481 [8] FA 1C 00 00 00 00 02 00
1768358322.512176 can0 701 [1] 05
1768358322.521563 can0 501 [6] 0F 00 99 99 03 00
1768358322.521938 can0 080 [0] 
1768358322.521940 can0 701 [0] 
1768358322.521941 can0 181 [6] 37 06 8B 87 03 00
1768358322.521941 can0 381 [2] DD 00
1768358322.521942 can0 281 [4] 90 A1 00 00
1768358322.522246 can0 481 [8] F4 1C 00 00 00 00 02 00
1768358322.522248 can0 701 [1] 85
1768358322.531762 can0 501 [6] 0F 00 99 99 03 00
1768358322.532144 can0 080 [0] 
1768358322.532145 can0 701 [0] 
1768358322.532146 can0 181 [6] 37 06 67 8A 03 00
1768358322.532147 can0 381 [2] DB 00
1768358322.532148 can0 281 [4] FA A2 00 00
1768358322.532473 can0 481 [8] F6 1C 00 00 00 00 02 00
1768358322.532474 can0 701 [1] 05
1768358322.542015 can0 501 [6] 0F 00 99 99 03 00
1768358322.542017 can0 080 [0] 
1768358322.542305 can0 701 [0] 
1768358322.542306 can0 181 [6] 37 06 6B 8A 03 00
1768358322.542307 can0 381 [2] C2 00
1768358322.542308 can0 281 [4] 60 A4 00 00
1768358322.542604 can0 481 [8] F6 1C 00 00 00 00 02 00
1768358322.542605 can0 701 [1] 85
1768358322.552157 can0 501 [6] 0F 00 99 99 03 00
1768358322.552534 can0 080 [0] 
1768358322.552535 can0 701 [0] 
1768358322.552536 can0 181 [6] 37 06 2B 8A 03 00
1768358322.552537 can0 381 [2] A9 00
1768358322.552538 can0 281 [4] CD A5 00 00
1768358322.552835 can0 481 [8] F6 1C 00 00 00 00 02 00
1768358322.552836 can0 701 [1] 05
1768358322.562359 can0 501 [6] 0F 00 99 99 03 00
1768358322.562751 can0 080 [0] 
1768358322.562752 can0 701 [0] 
1768358322.562753 can0 181 [6] 37 06 D9 8E 03 00
1768358322.562754 can0 381 [2] 8F 00
1768358322.562755 can0 281 [4] 37 A7 00 00
1768358322.563050 can0 481 [8] F8 1C 00 00 00 00 02 00
1768358322.563051 can0 701 [1] 85
1768358322.572592 can0 501 [6] 0F 00 99 99 03 00
1768358322.572593 can0 080 [0] 
1768358322.572907 can0 701 [0] 
1768358322.572908 can0 181 [6] 37 06 63 8C 03 00
1768358322.572909 can0 381 [2] C7 00
1768358322.572910 can0 281 [4] A2 A8 00 00
1768358322.573225 can0 481 [8] FA 1C 00 00 00 00 02 00
1768358322.573226 can0 701 [1] 05
1768358322.582744 can0 501 [6] 0F 00 99 99 03 00
1768358322.583010 can0 080 [0] 
1768358322.583012 can0 701 [0] 
1768358322.583344 can0 181 [6] 37 06 B0 90 03 00
1768358322.583345 can0 381 [2] 93 00
1768358322.583346 can0 281 [4] 0F AA 00 00
1768358322.583651 can0 481 [8] F1 1C 00 00 00 00 02 00
1768358322.583652 can0 701 [1] 85
1768358322.592926 can0 501 [6] 0F 00 99 99 03 00
1768358322.593273 can0 080 [0] 
1768358322.593274 can0 701 [0] 
1768358322.593275 can0 181 [6] 37 06 9D 8C 03 00
1768358322.593276 can0 381 [2] AB 00
1768358322.593277 can0 281 [4] 72 AB 00 00
1768358322.593556 can0 481 [8] F7 1C 00 00 00 00 02 00
1768358322.593557 can0 701 [1] 05
1768358322.603229 can0 501 [6] 0F 00 99 99 03 00
1768358322.603646 can0 080 [0] 
1768358322.603647 can0 701 [0] 
1768358322.603647 can0 181 [6] 37 06 8C 8D 03 00
1768358322.603648 can0 381 [2] AD 00
1768358322.603649 can0 281 [4] E2 AC 00 00
1768358322.603931 can0 481 [8] F2 1C 00 00 00 00 02 00
1768358322.603933 can0 701 [1] 85
1768358322.613497 can0 501 [6] 0F 00 99 99 03 00
1768358322.613868 can0 080 [0] 
1768358322.613869 can0 701 [0] 
1768358322.613870 can0 181 [6] 37 06 37 8B 03 00
1768358322.613871 can0 381 [2] CC 00
1768358322.613872 can0 281 [4] 4C AE 00 00
1768358322.614152 can0 481 [8] F4 1C 00 00 00 00 02 00
1768358322.614153 can0 701 [1] 05
1768358322.623720 can0 501 [6] 0F 00 99 99 03 00
1768358322.624083 can0 080 [0] 
1768358322.624084 can0 701 [0] 
1768358322.624085 can0 181 [6] 37 06 5D 8A 03 00
1768358322.624086 can0 381 [2] D3 00
1768358322.624456 can0 281 [4] B8 AF 00 00
1768358322.624707 can0 481 [8] F6 1C 00 00 00 00 02 00
1768358322.624708 can0 701 [1] 85
1768358322.633969 can0 501 [6] 0F 00 99 99 03 00
1768358322.633971 can0 080 [0] 
1768358322.634261 can0 701 [0] 
1768358322.634262 can0 181 [6] 37 06 DB 8B 03 00
1768358322.634262 can0 381 [2] B9 00
1768358322.634263 can0 281 [4] 1E B1 00 00
1768358322.634577 can0 481 [8] F0 1C 00 00 00 00 02 00
1768358322.634578 can0 701 [1] 05
1768358322.644130 can0 501 [6] 0F 00 99 99 03 00
1768358322.644510 can0 080 [0] 
1768358322.644511 can0 701 [0] 
1768358322.644512 can0 181 [6] 37 06 B6 8E 03 00
1768358322.644513 can0 381 [2] B7 00
1768358322.644513 can0 281 [4] 8B B2 00 00
1768358322.644815 can0 481 [8] EF 1C 00 00 00 00 02 00
1768358322.644816 can0 701 [1] 85
1768358322.654294 can0 501 [6] 0F 00 99 99 03 00
1768358322.654647 can0 080 [0] 
1768358322.654648 can0 701 [0] 
1768358322.654649 can0 181 [6] 37 06 12 8E 03 00
1768358322.654650 can0 381 [2] 8F 00
1768358322.654650 can0 281 [4] F2 B3 00 00
1768358322.654981 can0 481 [8] F2 1C 00 00 00 00 02 00
1768358322.654983 can0 701 [1] 05
1768358322.664567 can0 501 [6] 0F 00 99 99 03 00
1768358322.664568 can0 080 [0] 
1768358322.664881 can0 701 [0] 
1768358322.664883 can0 181 [6] 37 06 D8 8E 03 00
1768358322.664884 can0 381 [2] B4 00
1768358322.664885 can0 281 [4] 5C B5 00 00
1768358322.665188 can0 481 [8] F5 1C 00 00 00 00 02 00
1768358322.665189 can0 701 [1] 85
1768358322.674764 can0 501 [6] 0F 00 99 99 03 00
1768358322.675076 can0 080 [0] 
1768358322.675078 can0 701 [0] 
1768358322.675327 can0 181 [6] 37 06 44 8E 03 00
1768358322.675328 can0 381 [2] 8C 00
1768358322.675329 can0 281 [4] CE B6 00 00
1768358322.675678 can0 481 [8] F7 1C 00 00 00 00 02 00
1768358322.675679 can0 701 [1] 05
1768358322.684989 can0 501 [6] 0F 00 99 99 03 00
1768358322.685440 can0 080 [0] 
1768358322.685441 can0 701 [0] 
1768358322.685442 can0 181 [6] 37 06 F0 89 03 00
1768358322.685443 can0 381 [2] DF 00
1768358322.685443 can0 281 [4] 34 B8 00 00
1768358322.685724 can0 481 [8] F3 1C 00 00 00 00 02 00
1768358322.685725 can0 701 [1] 85
1768358322.695296 can0 501 [6] 0F 00 99 99 03 00
1768358322.695653 can0 080 [0] 
1768358322.695667 can0 701 [0] 
1768358322.695668 can0 181 [6] 37 06 4B 8D 03 00
1768358322.695669 can0 381 [2] 9E 00
1768358322.695670 can0 281 [4] A2 B9 00 00
1768358322.695946 can0 481 [8] F3 1C 00 00 00 00 02 00
1768358322.695947 can0 701 [1] 05
1768358322.705589 can0 501 [6] 0F 00 99 99 03 00
1768358322.705956 can0 080 [0] 
1768358322.705957 can0 701 [0] 
1768358322.705957 can0 181 [6] 37 06 16 8C 03 00
1768358322.705958 can0 381 [2] C4 00
1768358322.705959 can0 281 [4] 0F BB 00 00
1768358322.706280 can0 481 [8] F2 1C 00 00 00 00 02 00
1768358322.706282 can0 701 [1] 85
1768358322.715807 can0 501 [6] 0F 00 99 99 03 00
1768358322.716249 can0 080 [0] 
1768358322.716250 can0 701 [0] 
1768358322.716251 can0 181 [6] 37 06 A5 8B 03 00
1768358322.716252 can0 381 [2] DA 00
1768358322.716252 can0 281 [4] 79 BC 00 00
1768358322.716513 can0 481 [8] F6 1C 00 00 00 00 02 00
1768358322.716515 can0 701 [1] 05
1768358322.726007 can0 501 [6] 0F 00 99 99 03 00
1768358322.726452 can0 080 [0] 
1768358322.726453 can0 701 [0] 
1768358322.726454 can0 181 [6] 37 06 A2 8C 03 00
1768358322.726456 can0 381 [2] B7 00
1768358322.726457 can0 281 [4] E6 BD 00 00
1768358322.726737 can0 481 [8] F2 1C 00 00 00 00 02 00
1768358322.726737 can0 701 [1] 85
1768358322.736276 can0 501 [6] 0F 00 99 99 03 00
1768358322.736278 can0 080 [0] 
1768358322.736597 can0 701 [0] 
1768358322.736599 can0 181 [6] 37 06 34 8D 03 00
1768358322.736599 can0 381 [2] BA 00
1768358322.736600 can0 281 [4] 4C BF 00 00
1768358322.736886 can0 481 [8] F8 1C 00 00 00 00 02 00
1768358322.736888 can0 701 [1] 05
1768358322.746400 can0 501 [6] 0F 00 99 99 03 00
1768358322.746835 can0 080 [0] 
1768358322.746836 can0 701 [0] 
1768358322.746837 can0 181 [6] 37 06 90 88 03 00
1768358322.746837 can0 381 [2] F7 00
1768358322.746838 can0 281 [4] BC C0 00 00
1768358322.747169 can0 481 [8] F3 1C 00 00 00 00 02 00
1768358322.747170 can0 701 [1] 85
1768358322.756644 can0 501 [6] 0F 00 99 99 03 00
1768358322.756645 can0 080 [0] 
1768358322.757019 can0 701 [0] 
1768358322.757020 can0 181 [6] 37 06 B2 8D 03 00
1768358322.757021 can0 381 [2] B5 00
1768358322.757022 can0 281 [4] 1F C2 00 00
1768358322.757305 can0 481 [8] F3 1C 00 00 00 00 02 00
1768358322.757307 can0 701 [1] 05
1768358322.766853 can0 501 [6] 0F 00 99 99 03 00
1768358322.767247 can0 080 [0] 
1768358322.767249 can0 701 [0] 
1768358322.767249 can0 181 [6] 37 06 70 8C 03 00
1768358322.767251 can0 381 [2] 9E 00
1768358322.767251 can0 281 [4] 8D C3 00 00
1768358322.767604 can0 481 [8] F9 1C 00 00 00 00 02 00
1768358322.767606 can0 701 [1] 85
1768358322.777045 can0 501 [6] 0F 00 99 99 03 00
1768358322.777475 can0 080 [0] 
1768358322.777476 can0 701 [0] 
1768358322.777477 can0 181 [6] 37 06 26 8F 03 00
1768358322.777478 can0 381 [2] 7B 00
1768358322.777479 can0 281 [4] F5 C4 00 00
1768358322.777740 can0 481 [8] F5 1C 00 00 00 00 02 00
1768358322.777741 can0 701 [1] 05
1768358322.787247 can0 501 [6] 0F 00 99 99 03 00
1768358322.787249 can0 080 [0] 
1768358322.787596 can0 701 [0] 
1768358322.787598 can0 181 [6] 37 06 5D 93 03 00
1768358322.787599 can0 381 [2] 78 00
1768358322.787600 can0 281 [4] 63 C6 00 00
1768358322.787946 can0 481 [8] F3 1C 00 00 00 00 02 00
1768358322.787947 can0 701 [1] 85
1768358322.797468 can0 501 [6] 0F 00 99 99 03 00
1768358322.797873 can0 080 [0] 
1768358322.797874 can0 701 [0] 
1768358322.797875 can0 181 [6] 37 06 ED 8E 03 00
1768358322.797875 can0 381 [2] A8 00
1768358322.797876 can0 281 [4] CE C7 00 00
1768358322.798175 can0 481 [8] FB 1C 00 00 00 00 02 00
1768358322.798176 can0 701 [1] 05
1768358322.807673 can0 501 [6] 0F 00 99 99 03 00
1768358322.808064 can0 080 [0] 
1768358322.808065 can0 701 [0] 
1768358322.808066 can0 181 [6] 37 06 7D 89 03 00
1768358322.808068 can0 381 [2] D4 00
1768358322.808069 can0 281 [4] 38 C9 00 00
1768358322.808351 can0 481 [8] F2 1C 00 00 00 00 02 00
1768358322.808352 can0 701 [1] 85
1768358322.817860 can0 501 [6] 0F 00 99 99 03 00
1768358322.818216 can0 080 [0] 
1768358322.818218 can0 701 [0] 
1768358322.818219 can0 181 [6] 37 06 85 8D 03 00
1768358322.818220 can0 381 [2] AB 00
1768358322.818222 can0 281 [4] A3 CA 00 00
1768358322.818510 can0 481 [8] F9 1C 00 00 00 00 02 00
1768358322.818512 can0 701 [1] 05
1768358322.828111 can0 501 [6] 0F 00 99 99 03 00
1768358322.828534 can0 080 [0] 
1768358322.828536 can0 701 [0] 
1768358322.828537 can0 181 [6] 37 06 7A 8C 03 00
1768358322.828537 can0 381 [2] D1 00
1768358322.828538 can0 281 [4] 10 CC 00 00
1768358322.828846 can0 481 [8] F5 1C 00 00 00 00 02 00
1768358322.828848 can0 701 [1] 85
1768358322.838288 can0 501 [6] 0F 00 99 99 03 00
1768358322.838677 can0 080 [0] 
1768358322.838678 can0 701 [0] 
1768358322.838679 can0 181 [6] 37 06 78 8C 03 00
1768358322.838680 can0 381 [2] AE 00
1768358322.838980 can0 281 [4] 7A CD 00 00
1768358322.839232 can0 481 [8] F7 1C 00 00 00 00 02 00
1768358322.839233 can0 701 [1] 05
1768358322.848506 can0 501 [6] 0F 00 99 99 03 00
1768358322.848888 can0 080 [0] 
1768358322.848890 can0 701 [0] 
1768358322.848891 can0 181 [6] 37 06 F0 8C 03 00
1768358322.848891 can0 381 [2] CC 00
1768358322.848892 can0 281 [4] E3 CE 00 00
1768358322.849196 can0 481 [8] F7 1C 00 00 00 00 02 00
1768358322.849197 can0 701 [1] 85
1768358322.858711 can0 501 [6] 0F 00 99 99 03 00
1768358322.858997 can0 080 [0] 
1768358322.858998 can0 701 [0] 
1768358322.859324 can0 181 [6] 37 06 70 89 03 00
1768358322.859325 can0 381 [2] F3 00
1768358322.859325 can0 281 [4] 50 D0 00 00
1768358322.859640 can0 481 [8] F2 1C 00 00 00 00 02 00
1768358322.859640 can0 701 [1] 05
1768358322.868987 can0 501 [6] 0F 00 99 99 03 00
1768358322.869355 can0 080 [0] 
1768358322.869356 can0 701 [0] 
1768358322.869357 can0 181 [6] 37 06 67 8A 03 00
1768358322.869358 can0 381 [2] D5 00
1768358322.869359 can0 281 [4] B6 D1 00 00
1768358322.869684 can0 481 [8] F5 1C 00 00 00 00 02 00
1768358322.869685 can0 701 [1] 85
1768358322.879209 can0 501 [6] 0F 00 99 99 03 00
1768358322.879578 can0 080 [0] 
1768358322.879580 can0 701 [0] 
1768358322.879580 can0 181 [6] 37 06 2F 88 03 00
1768358322.879581 can0 381 [2] DB 00
1768358322.879581 can0 281 [4] 20 D3 00 00
1768358322.879894 can0 481 [8] F7 1C 00 00 00 00 02 00
1768358322.879895 can0 701 [1] 05
1768358322.889570 can0 501 [6] 0F 00 99 99 03 00
1768358322.889572 can0 080 [0] 
1768358322.889573 can0 701 [0] 
1768358322.889818 can0 181 [6] 37 06 9C 8E 03 00
1768358322.889819 can0 381 [2] 8A 00
1768358322.889820 can0 281 [4] 8B D4 00 00
1768358322.890103 can0 481 [8] FA 1C 00 00 00 00 02 00
1768358322.890104 can0 701 [1] 85
1768358322.899685 can0 501 [6] 0F 00 99 99 03 00
1768358322.900099 can0 080 [0] 
1768358322.900099 can0 701 [0] 
1768358322.900100 can0 181 [6] 37 06 06 8C 03 00
1768358322.900101 can0 381 [2] A0 00
1768358322.900101 can0 281 [4] FC D5 00 00
1768358322.900436 can0 481 [8] F6 1C 00 00 00 00 02 00
1768358322.900437 can0 701 [1] 05
1768358322.909939 can0 501 [6] 0F 00 99 99 03 00
1768358322.909940 can0 080 [0] 
1768358322.910335 can0 701 [0] 
1768358322.910337 can0 181 [6] 37 06 F2 8D 03 00
1768358322.910338 can0 381 [2] AD 00
