1768358824.342709 can0 601 [8] 2B 40 60 00 06 00 00 00
1768358824.343487 can0 581 [8] 60 40 60 00 00 00 00 00
1768358824.444046 can0 601 [8] 2F 60 60 00 03 00 00 00
1768358824.444861 can0 581 [8] 60 60 60 00 00 00 00 00
1768358824.545614 can0 601 [8] 2B 40 60 00 07 00 00 00
1768358824.546486 can0 581 [8] 60 40 60 00 00 00 00 00
1768358824.647572 can0 601 [8] 2B 40 60 00 0F 00 00 00
1768358824.648218 can0 581 [8] 60 40 60 00 00 00 00 00
1768358824.848868 can0 601 [8] 40 61 60 00 00 00 00 00
1768358824.849588 can0 581 [8] 42 61 60 00 03 00 00 00
1768358824.849874 can0 601 [8] 40 41 60 00 00 00 00 00
1768358824.851965 can0 581 [8] 42 41 60 00 28 06 00 00
1768358824.852480 can0 601 [8] 23 FF 60 00 00 00 00 00
1768358824.853263 can0 581 [8] 60 FF 60 00 00 00 00 00
1768358824.954579 can0 601 [8] 23 FF 60 00 68 C5 FF FF
1768358824.955330 can0 581 [8] 60 FF 60 00 00 00 00 00
1768358825.077018 can0 601 [8] 23 FF 60 00 D0 8A FF FF
1768358825.077848 can0 581 [8] 60 FF 60 00 00 00 00 00
1768358825.198476 can0 601 [8] 23 FF 60 00 38 50 FF FF
1768358825.199282 can0 581 [8] 60 FF 60 00 00 00 00 00
1768358825.320926 can0 601 [8] 23 FF 60 00 A0 15 FF FF
1768358825.321727 can0 581 [8] 60 FF 60 00 00 00 00 00
1768358825.443247 can0 601 [8] 23 FF 60 00 08 DB FE FF
1768358825.444027 can0 581 [8] 60 FF 60 00 00 00 00 00
1768358825.565046 can0 601 [8] 23 FF 60 00 70 A0 FE FF
1768358825.565848 can0 581 [8] 60 FF 60 00 00 00 00 00
1768358825.686480 can0 601 [8] 23 FF 60 00 D8 65 FE FF
1768358825.687227 can0 581 [8] 60 FF 60 00 00 00 00 00
1768358825.808211 can0 601 [8] 23 FF 60 00 40 2B FE FF
1768358825.808967 can0 581 [8] 60 FF 60 00 00 00 00 00
1768358825.929498 can0 601 [8] 23 FF 60 00 A8 F0 FD FF
1768358825.930269 can0 581 [8] 60 FF 60 00 00 00 00 00
1768358826.051265 can0 601 [8] 23 FF 60 00 10 B6 FD FF
1768358826.052004 can0 581 [8] 60 FF 60 00 00 00 00 00
1768358826.172841 can0 601 [8] 23 FF 60 00 78 7B FD FF
1768358826.173624 can0 581 [8] 60 FF 60 00 00 00 00 00
1768358826.294741 can0 601 [8] 23 FF 60 00 E0 40 FD FF
1768358826.295537 can0 581 [8] 60 FF 60 00 00 00 00 00
1768358826.415968 can0 601 [8] 23 FF 60 00 14 17 FD FF
1768358826.416758 can0 581 [8] 60 FF 60 00 00 00 00 00
1768358826.537330 can0 601 [8] 40 6C 60 00 00 00 00 00
1768358826.538050 can0 581 [8] 42 6C 60 00 FF FF FF FF
1768358827.038699 can0 601 [8] 40 6C 60 00 00 00 00 00
1768358827.039509 can0 581 [8] 42 6C 60 00 FF FF FF FF
1768358827.540278 can0 601 [8] 40 6C 60 00 00 00 00 00
1768358827.541008 can0 581 [8] 42 6C 60 00 FF FF FF FF
1768358828.042172 can0 601 [8] 40 6C 60 00 00 00 00 00
1768358828.042858 can0 581 [8] 42 6C 60 00 FF FF FF FF
1768358828.543901 can0 601 [8] 40 6C 60 00 00 00 00 00
1768358828.544691 can0 581 [8] 42 6C 60 00 FF FF FF FF
1768358829.045408 can0 601 [8] 40 6C 60 00 00 00 00 00
1768358829.046092 can0 581 [8] 42 6C 60 00 FF FF FF FF
1768358829.547084 can0 601 [8] 40 6C 60 00 00 00 00 00
1768358829.547820 can0 581 [8] 42 6C 60 00 FF FF FF FF
1768358830.048388 can0 601 [8] 40 6C 60 00 00 00 00 00
1768358830.049206 can0 581 [8] 42 6C 60 00 FF FF FF FF
1768358830.549854 can0 601 [8] 40 6C 60 00 00 00 00 00
1768358830.550625 can0 581 [8] 42 6C 60 00 FF FF FF FF
1768358831.051654 can0 601 [8] 40 6C 60 00 00 00 00 00
1768358831.052485 can0 581 [8] 42 6C 60 00 FF FF FF FF
1768358831.553797 can0 601 [8] 23 FF 60 00 AC 51 FD FF
1768358831.554582 can0 581 [8] 60 FF 60 00 00 00 00 00
1768358831.663052 can0 601 [8] 23 FF 60 00 44 8C FD FF
1768358831.663814 can0 581 [8] 60 FF 60 00 00 00 00 00
1768358831.772328 can0 601 [8] 23 FF 60 00 DC C6 FD FF
1768358831.773186 can0 581 [8] 60 FF 60 00 00 00 00 00
1768358831.881707 can0 601 [8] 23 FF 60 00 74 01 FE FF
1768358831.882482 can0 581 [8] 60 FF 60 00 00 00 00 00
1768358831.991815 can0 601 [8] 23 FF 60 00 0C 3C FE FF
1768358831.992573 can0 581 [8] 60 FF 60 00 00 00 00 00
1768358832.101904 can0 601 [8] 23 FF 60 00 A4 76 FE FF
1768358832.102704 can0 581 [8] 60 FF 60 00 00 00 00 00
1768358832.211337 can0 601 [8] 23 FF 60 00 3C B1 FE FF
1768358832.212167 can0 581 [8] 60 FF 60 00 00 00 00 00
1768358832.321796 can0 601 [8] 23 FF 60 00 D4 EB FE FF
1768358832.322581 can0 581 [8] 60 FF 60 00 00 00 00 00
1768358832.431139 can0 601 [8] 23 FF 60 00 6C 26 FF FF
1768358832.431926 can0 581 [8] 60 FF 60 00 00 00 00 00
1768358832.540867 can0 601 [8] 23 FF 60 00 04 61 FF FF
1768358832.541616 can0 581 [8] 60 FF 60 00 00 00 00 00
1768358832.650173 can0 601 [8] 23 FF 60 00 9C 9B FF FF
1768358832.650969 can0 581 [8] 60 FF 60 00 00 00 00 00
1768358832.759561 can0 601 [8] 23 FF 60 00 34 D6 FF FF
1768358832.760314 can0 581 [8] 60 FF 60 00 00 00 00 00
1768358832.868938 can0 601 [8] 23 FF 60 00 00 00 00 00
1768358832.869769 can0 581 [8] 60 FF 60 00 00 00 00 00
1768358832.978377 can0 601 [8] 2B 40 60 00 07 00 00 00
1768358832.979342 can0 581 [8] 60 40 60 00 00 00 00 00
1768358833.029800 can0 601 [8] 2B 40 60 00 06 00 00 00
1768358833.030561 can0 581 [8] 60 40 60 00 00 00 00 00
1768358833.081293 can0 601 [8] 23 FF 60 00 00 00 00 00
1768358833.082163 can0 581 [8] 60 FF 60 00 00 00 00 00
1768358833.082584 can0 601 [8] 2B 40 60 00 07 00 00 00
1768358833.083441 can0 581 [8] 60 40 60 00 00 00 00 00
1768358833.133944 can0 601 [8] 2B 40 60 00 06 00 00 00
1768358833.134656 can0 581 [8] 60 40 60 00 00 00 00 00
1768358846.051748 can0 602 [8] 2B 40 60 00 06 00 00 00
1768358846.052462 can0 582 [8] 60 40 60 00 00 00 00 00
1768358846.153040 can0 602 [8] 2F 60 60 00 03 00 00 00
1768358846.153756 can0 582 [8] 60 60 60 00 00 00 00 00
1768358846.254731 can0 602 [8] 2B 40 60 00 07 00 00 00
1768358846.255468 can0 582 [8] 60 40 60 00 00 00 00 00
1768358846.357097 can0 602 [8] 2B 40 60 00 0F 00 00 00
1768358846.357822 can0 582 [8] 60 40 60 00 00 00 00 00
1768358846.559036 can0 602 [8] 40 61 60 00 00 00 00 00
1768358846.559787 can0 582 [8] 42 61 60 00 03 00 00 00
1768358846.560090 can0 602 [8] 40 41 60 00 00 00 00 00
1768358846.560906 can0 582 [8] 42 41 60 00 37 02 00 00
1768358846.561152 can0 602 [8] 23 FF 60 00 00 00 00 00
1768358846.562219 can0 582 [8] 60 FF 60 00 00 00 00 00
1768358846.663379 can0 602 [8] 23 FF 60 00 68 C5 FF FF
1768358846.664120 can0 582 [8] 60 FF 60 00 00 00 00 00
1768358846.784647 can0 602 [8] 23 FF 60 00 D0 8A FF FF
1768358846.785460 can0 582 [8] 60 FF 60 00 00 00 00 00
1768358846.905989 can0 602 [8] 23 FF 60 00 38 50 FF FF
1768358846.906732 can0 582 [8] 60 FF 60 00 00 00 00 00
1768358847.027278 can0 602 [8] 23 FF 60 00 A0 15 FF FF
1768358847.028116 can0 582 [8] 60 FF 60 00 00 00 00 00
1768358847.149135 can0 602 [8] 23 FF 60 00 08 DB FE FF
1768358847.150012 can0 582 [8] 60 FF 60 00 00 00 00 00
1768358847.270531 can0 602 [8] 23 FF 60 00 70 A0 FE FF
1768358847.271352 can0 582 [8] 60 FF 60 00 00 00 00 00
1768358847.392334 can0 602 [8] 23 FF 60 00 D8 65 FE FF
1768358847.393119 can0 582 [8] 60 FF 60 00 00 00 00 00
1768358847.513696 can0 602 [8] 23 FF 60 00 40 2B FE FF
1768358847.514494 can0 582 [8] 60 FF 60 00 00 00 00 00
1768358847.635383 can0 602 [8] 23 FF 60 00 A8 F0 FD FF
1768358847.636204 can0 582 [8] 60 FF 60 00 00 00 00 00
1768358847.756961 can0 602 [8] 23 FF 60 00 10 B6 FD FF
1768358847.757778 can0 582 [8] 60 FF 60 00 00 00 00 00
1768358847.878784 can0 602 [8] 23 FF 60 00 78 7B FD FF
1768358847.879596 can0 582 [8] 60 FF 60 00 00 00 00 00
1768358848.000711 can0 602 [8] 23 FF 60 00 E0 40 FD FF
1768358848.001435 can0 582 [8] 60 FF 60 00 00 00 00 00
1768358848.121976 can0 602 [8] 23 FF 60 00 14 17 FD FF
1768358848.122773 can0 582 [8] 60 FF 60 00 00 00 00 00
1768358848.243836 can0 602 [8] 40 6C 60 00 00 00 00 00
1768358848.244622 can0 582 [8] 42 6C 60 00 00 00 00 00
1768358848.745214 can0 602 [8] 40 6C 60 00 00 00 00 00
1768358848.746027 can0 582 [8] 42 6C 60 00 00 00 00 00
1768358849.247564 can0 602 [8] 40 6C 60 00 00 00 00 00
1768358849.248348 can0 582 [8] 42 6C 60 00 00 00 00 00
1768358849.748960 can0 602 [8] 40 6C 60 00 00 00 00 00
1768358849.749715 can0 582 [8] 42 6C 60 00 00 00 00 00
1768358850.250219 can0 602 [8] 40 6C 60 00 00 00 00 00
1768358850.250997 can0 582 [8] 42 6C 60 00 00 00 00 00
1768358850.751992 can0 602 [8] 40 6C 60 00 00 00 00 00
1768358850.752834 can0 582 [8] 42 6C 60 00 00 00 00 00
1768358851.253942 can0 602 [8] 40 6C 60 00 00 00 00 00
1768358851.254663 can0 582 [8] 42 6C 60 00 00 00 00 00
1768358851.755273 can0 602 [8] 40 6C 60 00 00 00 00 00
1768358851.756050 can0 582 [8] 42 6C 60 00 00 00 00 00
1768358852.257709 can0 602 [8] 40 6C 60 00 00 00 00 00
1768358852.258452 can0 582 [8] 42 6C 60 00 00 00 00 00
1768358852.759457 can0 602 [8] 40 6C 60 00 00 00 00 00
1768358852.760237 can0 582 [8] 42 6C 60 00 00 00 00 00
1768358853.261178 can0 602 [8] 23 FF 60 00 AC 51 FD FF
1768358853.261943 can0 582 [8] 60 FF 60 00 00 00 00 00
1768358853.370449 can0 602 [8] 23 FF 60 00 44 8C FD FF
1768358853.371269 can0 582 [8] 60 FF 60 00 00 00 00 00
1768358853.481115 can0 602 [8] 23 FF 60 00 DC C6 FD FF
1768358853.481897 can0 582 [8] 60 FF 60 00 00 00 00 00
1768358853.590660 can0 602 [8] 23 FF 60 00 74 01 FE FF
1768358853.591407 can0 582 [8] 60 FF 60 00 00 00 00 00
1768358853.700745 can0 602 [8] 23 FF 60 00 0C 3C FE FF
1768358853.701577 can0 582 [8] 60 FF 60 00 00 00 00 00
1768358853.810574 can0 602 [8] 23 FF 60 00 A4 76 FE FF
1768358853.811378 can0 582 [8] 60 FF 60 00 00 00 00 00
1768358853.920226 can0 602 [8] 23 FF 60 00 3C B1 FE FF
1768358853.920963 can0 582 [8] 60 FF 60 00 00 00 00 00
1768358854.030737 can0 602 [8] 23 FF 60 00 D4 EB FE FF
1768358854.031481 can0 582 [8] 60 FF 60 00 00 00 00 00
1768358854.140288 can0 602 [8] 23 FF 60 00 6C 26 FF FF
1768358854.141045 can0 582 [8] 60 FF 60 00 00 00 00 00
1768358854.249722 can0 602 [8] 23 FF 60 00 04 61 FF FF
1768358854.250512 can0 582 [8] 60 FF 60 00 00 00 00 00
1768358854.359392 can0 602 [8] 23 FF 60 00 9C 9B FF FF
1768358854.360213 can0 582 [8] 60 FF 60 00 00 00 00 00
1768358854.468726 can0 602 [8] 23 FF 60 00 34 D6 FF FF
1768358854.469512 can0 582 [8] 60 FF 60 00 00 00 00 00
1768358854.578848 can0 602 [8] 23 FF 60 00 00 00 00 00
1768358854.579760 can0 582 [8] 60 FF 60 00 00 00 00 00
1768358854.689235 can0 602 [8] 2B 40 60 00 07 00 00 00
1768358854.690005 can0 582 [8] 60 40 60 00 00 00 00 00
1768358854.740926 can0 602 [8] 2B 40 60 00 06 00 00 00
1768358854.741648 can0 582 [8] 60 40 60 00 00 00 00 00
1768358854.792226 can0 602 [8] 23 FF 60 00 00 00 00 00
1768358854.793012 can0 582 [8] 60 FF 60 00 00 00 00 00
1768358854.793315 can0 602 [8] 2B 40 60 00 07 00 00 00
1768358854.794101 can0 582 [8] 60 40 60 00 00 00 00 00
1768358854.844622 can0 602 [8] 2B 40 60 00 06 00 00 00
1768358854.845332 can0 582 [8] 60 40 60 00 00 00 00 00
1768358860.730086 can0 603 [8] 2B 40 60 00 06 00 00 00
1768358861.331494 can0 603 [8] 2F 60 60 00 03 00 00 00
1768358861.932776 can0 603 [8] 2B 40 60 00 07 00 00 00
1768358862.534065 can0 603 [8] 2B 40 60 00 0F 00 00 00
1768358863.235171 can0 603 [8] 40 61 60 00 00 00 00 00
1768358863.736227 can0 603 [8] 40 41 60 00 00 00 00 00
1768358864.237933 can0 603 [8] 23 FF 60 00 00 00 00 00
1768358864.839058 can0 603 [8] 23 FF 60 00 68 C5 FF FF
1768358865.461660 can0 603 [8] 23 FF 60 00 D0 8A FF FF
1768358866.083871 can0 603 [8] 23 FF 60 00 38 50 FF FF
1768358866.705728 can0 603 [8] 23 FF 60 00 A0 15 FF FF
1768358867.326598 can0 603 [8] 23 FF 60 00 08 DB FE FF
1768358867.676322 can0 603 [8] 23 FF 60 00 00 00 00 00
1768358868.177037 can0 603 [8] 2B 40 60 00 07 00 00 00
1768358868.727913 can0 603 [8] 2B 40 60 00 06 00 00 00
1768358874.731641 can0 601 [8] 2B 40 60 00 06 00 00 00
1768358874.732442 can0 581 [8] 60 40 60 00 00 00 00 00
1768358874.832939 can0 601 [8] 2F 60 60 00 03 00 00 00
1768358874.833679 can0 581 [8] 60 60 60 00 00 00 00 00
1768358874.934646 can0 601 [8] 2B 40 60 00 07 00 00 00
1768358874.935437 can0 581 [8] 60 40 60 00 00 00 00 00
1768358875.037143 can0 601 [8] 2B 40 60 00 0F 00 00 00
1768358875.037933 can0 581 [8] 60 40 60 00 00 00 00 00
1768358875.238519 can0 601 [8] 40 61 60 00 00 00 00 00
1768358875.239276 can0 581 [8] 42 61 60 00 03 00 00 00
1768358875.239537 can0 601 [8] 40 41 60 00 00 00 00 00
1768358875.240378 can0 581 [8] 42 41 60 00 28 06 00 00
1768358875.240853 can0 601 [8] 23 FF 60 00 00 00 00 00
1768358875.241669 can0 581 [8] 60 FF 60 00 00 00 00 00
1768358875.342318 can0 601 [8] 23 FF 60 00 68 C5 FF FF
1768358875.343093 can0 581 [8] 60 FF 60 00 00 00 00 00
1768358875.463631 can0 601 [8] 23 FF 60 00 D0 8A FF FF
1768358875.464426 can0 581 [8] 60 FF 60 00 00 00 00 00
1768358875.584985 can0 601 [8] 23 FF 60 00 38 50 FF FF
1768358875.585775 can0 581 [8] 60 FF 60 00 00 00 00 00
1768358875.706506 can0 601 [8] 23 FF 60 00 A0 15 FF FF
1768358875.707177 can0 581 [8] 60 FF 60 00 00 00 00 00
1768358875.828687 can0 601 [8] 23 FF 60 00 08 DB FE FF
1768358875.829557 can0 581 [8] 60 FF 60 00 00 00 00 00
1768358875.950052 can0 601 [8] 23 FF 60 00 70 A0 FE FF
1768358875.951028 can0 581 [8] 60 FF 60 00 00 00 00 00
1768358876.071544 can0 601 [8] 23 FF 60 00 D8 65 FE FF
1768358876.072400 can0 581 [8] 60 FF 60 00 00 00 00 00
1768358876.194010 can0 601 [8] 23 FF 60 00 40 2B FE FF
1768358876.194891 can0 581 [8] 60 FF 60 00 00 00 00 00
1768358876.315885 can0 601 [8] 23 FF 60 00 A8 F0 FD FF
1768358876.316703 can0 581 [8] 60 FF 60 00 00 00 00 00
1768358876.438134 can0 601 [8] 23 FF 60 00 10 B6 FD FF
1768358876.438870 can0 581 [8] 60 FF 60 00 00 00 00 00
1768358876.560096 can0 601 [8] 23 FF 60 00 78 7B FD FF
1768358876.560877 can0 581 [8] 60 FF 60 00 00 00 00 00
1768358876.681498 can0 601 [8] 23 FF 60 00 E0 40 FD FF
1768358876.682278 can0 581 [8] 60 FF 60 00 00 00 00 00
1768358876.802913 can0 601 [8] 23 FF 60 00 14 17 FD FF
1768358876.803686 can0 581 [8] 60 FF 60 00 00 00 00 00
1768358876.924706 can0 601 [8] 40 6C 60 00 00 00 00 00
1768358876.925478 can0 581 [8] 42 6C 60 00 FF FF FF FF
1768358877.426512 can0 601 [8] 40 6C 60 00 00 00 00 00
1768358877.427203 can0 581 [8] 42 6C 60 00 FF FF FF FF
1768358877.927754 can0 601 [8] 40 6C 60 00 00 00 00 00
1768358877.928559 can0 581 [8] 42 6C 60 00 FF FF FF FF
1768358878.430237 can0 601 [8] 40 6C 60 00 00 00 00 00
1768358878.430942 can0 581 [8] 42 6C 60 00 FF FF FF FF
1768358878.931572 can0 601 [8] 40 6C 60 00 00 00 00 00
1768358878.932391 can0 581 [8] 42 6C 60 00 FF FF FF FF
1768358879.433485 can0 601 [8] 40 6C 60 00 00 00 00 00
1768358879.434160 can0 581 [8] 42 6C 60 00 FF FF FF FF
1768358879.935677 can0 601 [8] 40 6C 60 00 00 00 00 00
1768358879.936476 can0 581 [8] 42 6C 60 00 FF FF FF FF
1768358880.437625 can0 601 [8] 40 6C 60 00 00 00 00 00
1768358880.438489 can0 581 [8] 42 6C 60 00 FF FF FF FF
1768358880.939617 can0 601 [8] 40 6C 60 00 00 00 00 00
1768358880.940474 can0 581 [8] 42 6C 60 00 FF FF FF FF
1768358881.441945 can0 601 [8] 40 6C 60 00 00 00 00 00
1768358881.442683 can0 581 [8] 42 6C 60 00 FF FF FF FF
1768358881.943546 can0 601 [8] 23 FF 60 00 AC 51 FD FF
1768358881.944438 can0 581 [8] 60 FF 60 00 00 00 00 00
1768358882.053748 can0 601 [8] 23 FF 60 00 44 8C FD FF
1768358882.054553 can0 581 [8] 60 FF 60 00 00 00 00 00
1768358882.163400 can0 601 [8] 23 FF 60 00 DC C6 FD FF
1768358882.164171 can0 581 [8] 60 FF 60 00 00 00 00 00
1768358882.272784 can0 601 [8] 23 FF 60 00 74 01 FE FF
1768358882.273569 can0 581 [8] 60 FF 60 00 00 00 00 00
1768358882.382103 can0 601 [8] 23 FF 60 00 0C 3C FE FF
1768358882.382852 can0 581 [8] 60 FF 60 00 00 00 00 00
1768358882.491370 can0 601 [8] 23 FF 60 00 A4 76 FE FF
1768358882.492148 can0 581 [8] 60 FF 60 00 00 00 00 00
1768358882.600697 can0 601 [8] 23 FF 60 00 3C B1 FE FF
1768358882.601497 can0 581 [8] 60 FF 60 00 00 00 00 00
1768358882.710964 can0 601 [8] 23 FF 60 00 D4 EB FE FF
1768358882.711738 can0 581 [8] 60 FF 60 00 00 00 00 00
1768358882.821468 can0 601 [8] 23 FF 60 00 6C 26 FF FF
1768358882.822274 can0 581 [8] 60 FF 60 00 00 00 00 00
1768358882.931742 can0 601 [8] 23 FF 60 00 04 61 FF FF
1768358882.932505 can0 581 [8] 60 FF 60 00 00 00 00 00
1768358883.041110 can0 601 [8] 23 FF 60 00 9C 9B FF FF
1768358883.041898 can0 581 [8] 60 FF 60 00 00 00 00 00
1768358883.150568 can0 601 [8] 23 FF 60 00 34 D6 FF FF
1768358883.151421 can0 581 [8] 60 FF 60 00 00 00 00 00
1768358883.260287 can0 601 [8] 23 FF 60 00 00 00 00 00
1768358883.261039 can0 581 [8] 60 FF 60 00 00 00 00 00
1768358883.369785 can0 601 [8] 2B 40 60 00 07 00 00 00
1768358883.370483 can0 581 [8] 60 40 60 00 00 00 00 00
1768358883.421138 can0 601 [8] 2B 40 60 00 06 00 00 00
1768358883.421870 can0 581 [8] 60 40 60 00 00 00 00 00
1768358883.473515 can0 601 [8] 23 FF 60 00 00 00 00 00
1768358883.474408 can0 581 [8] 60 FF 60 00 00 00 00 00
1768358883.474679 can0 601 [8] 2B 40 60 00 07 00 00 00
1768358883.475549 can0 581 [8] 60 40 60 00 00 00 00 00
1768358883.526183 can0 601 [8] 2B 40 60 00 06 00 00 00
1768358883.526895 can0 581 [8] 60 40 60 00 00 00 00 00
1768358930.214988 can0 000 [2] 80 00
1768358930.315496 can0 000 [2] 01 00
1768358930.415936 can0 601 [8] 40 61 60 00 00 00 00 00
1768358930.416668 can0 581 [8] 42 61 60 00 03 00 00 00
1768358930.417041 can0 601 [8] 2B 40 60 00 06 00 00 00
1768358930.417813 can0 581 [8] 60 40 60 00 00 00 00 00
1768358930.518363 can0 601 [8] 2F 60 60 00 03 00 00 00
1768358930.519126 can0 581 [8] 60 60 60 00 00 00 00 00
1768358930.620079 can0 601 [8] 2B 40 60 00 07 00 00 00
1768358930.620849 can0 581 [8] 60 40 60 00 00 00 00 00
1768358930.722389 can0 601 [8] 2B 40 60 00 0F 00 00 00
1768358930.723125 can0 581 [8] 60 40 60 00 00 00 00 00
1768358930.924772 can0 601 [8] 40 61 60 00 00 00 00 00
1768358930.925592 can0 581 [8] 42 61 60 00 03 00 00 00
1768358930.925864 can0 601 [8] 40 41 60 00 00 00 00 00
1768358930.926651 can0 581 [8] 42 41 60 00 28 06 00 00
1768358930.926901 can0 601 [8] 23 FF 60 00 00 00 00 00
1768358930.927757 can0 581 [8] 60 FF 60 00 00 00 00 00
1768358931.029004 can0 601 [8] 23 FF 60 00 68 C5 FF FF
1768358931.029855 can0 581 [8] 60 FF 60 00 00 00 00 00
1768358931.151330 can0 601 [8] 23 FF 60 00 D0 8A FF FF
1768358931.152031 can0 581 [8] 60 FF 60 00 00 00 00 00
1768358931.272566 can0 601 [8] 23 FF 60 00 38 50 FF FF
1768358931.273313 can0 581 [8] 60 FF 60 00 00 00 00 00
1768358931.394683 can0 601 [8] 23 FF 60 00 A0 15 FF FF
1768358931.395466 can0 581 [8] 60 FF 60 00 00 00 00 00
1768358931.516450 can0 601 [8] 23 FF 60 00 08 DB FE FF
1768358931.517280 can0 581 [8] 60 FF 60 00 00 00 00 00
1768358931.637881 can0 601 [8] 23 FF 60 00 70 A0 FE FF
1768358931.638703 can0 581 [8] 60 FF 60 00 00 00 00 00
1768358931.759633 can0 601 [8] 23 FF 60 00 D8 65 FE FF
1768358931.760419 can0 581 [8] 60 FF 60 00 00 00 00 00
1768358931.881157 can0 601 [8] 23 FF 60 00 40 2B FE FF
1768358931.881917 can0 581 [8] 60 FF 60 00 00 00 00 00
1768358932.002390 can0 601 [8] 23 FF 60 00 A8 F0 FD FF
1768358932.003268 can0 581 [8] 60 FF 60 00 00 00 00 00
1768358932.124696 can0 601 [8] 23 FF 60 00 10 B6 FD FF
1768358932.125466 can0 581 [8] 60 FF 60 00 00 00 00 00
1768358932.246053 can0 601 [8] 23 FF 60 00 78 7B FD FF
1768358932.246795 can0 581 [8] 60 FF 60 00 00 00 00 00
1768358932.368598 can0 601 [8] 23 FF 60 00 E0 40 FD FF
1768358932.369421 can0 581 [8] 60 FF 60 00 00 00 00 00
1768358932.491211 can0 601 [8] 23 FF 60 00 14 17 FD FF
1768358932.491959 can0 581 [8] 60 FF 60 00 00 00 00 00
1768358932.613008 can0 601 [8] 40 6C 60 00 00 00 00 00
1768358932.613741 can0 581 [8] 42 6C 60 00 FF FF FF FF
1768358933.114354 can0 601 [8] 40 6C 60 00 00 00 00 00
1768358933.115135 can0 581 [8] 42 6C 60 00 FF FF FF FF
1768358933.615686 can0 601 [8] 40 6C 60 00 00 00 00 00
1768358933.616520 can0 581 [8] 42 6C 60 00 FF FF FF FF
1768358934.117548 can0 601 [8] 40 6C 60 00 00 00 00 00
1768358934.118356 can0 581 [8] 42 6C 60 00 FF FF FF FF
1768358934.619336 can0 601 [8] 40 6C 60 00 00 00 00 00
1768358934.620089 can0 581 [8] 42 6C 60 00 FF FF FF FF
1768358935.120636 can0 601 [8] 40 6C 60 00 00 00 00 00
1768358935.121477 can0 581 [8] 42 6C 60 00 FF FF FF FF
1768358935.623004 can0 601 [8] 40 6C 60 00 00 00 00 00
1768358935.623809 can0 581 [8] 42 6C 60 00 FF FF FF FF
1768358936.124636 can0 601 [8] 40 6C 60 00 00 00 00 00
1768358936.125434 can0 581 [8] 42 6C 60 00 FF FF FF FF
1768358936.626445 can0 601 [8] 40 6C 60 00 00 00 00 00
1768358936.627226 can0 581 [8] 42 6C 60 00 FF FF FF FF
1768358937.128012 can0 601 [8] 40 6C 60 00 00 00 00 00
1768358937.128767 can0 581 [8] 42 6C 60 00 FF FF FF FF
1768358937.629617 can0 601 [8] 23 FF 60 00 AC 51 FD FF
1768358937.630625 can0 581 [8] 60 FF 60 00 00 00 00 00
1768358937.739243 can0 601 [8] 23 FF 60 00 44 8C FD FF
1768358937.740052 can0 581 [8] 60 FF 60 00 00 00 00 00
1768358937.848615 can0 601 [8] 23 FF 60 00 DC C6 FD FF
1768358937.849366 can0 581 [8] 60 FF 60 00 00 00 00 00
1768358937.957973 can0 601 [8] 23 FF 60 00 74 01 FE FF
1768358937.958739 can0 581 [8] 60 FF 60 00 00 00 00 00
1768358938.067731 can0 601 [8] 23 FF 60 00 0C 3C FE FF
1768358938.068519 can0 581 [8] 60 FF 60 00 00 00 00 00
1768358938.177003 can0 601 [8] 23 FF 60 00 A4 76 FE FF
1768358938.177756 can0 581 [8] 60 FF 60 00 00 00 00 00
1768358938.286744 can0 601 [8] 23 FF 60 00 3C B1 FE FF
1768358938.287578 can0 581 [8] 60 FF 60 00 00 00 00 00
1768358938.396188 can0 601 [8] 23 FF 60 00 D4 EB FE FF
1768358938.396995 can0 581 [8] 60 FF 60 00 00 00 00 00
1768358938.505578 can0 601 [8] 23 FF 60 00 6C 26 FF FF
1768358938.506381 can0 581 [8] 60 FF 60 00 00 00 00 00
1768358938.616189 can0 601 [8] 23 FF 60 00 04 61 FF FF
1768358938.616926 can0 581 [8] 60 FF 60 00 00 00 00 00
1768358938.725409 can0 601 [8] 23 FF 60 00 9C 9B FF FF
1768358938.726161 can0 581 [8] 60 FF 60 00 00 00 00 00
1768358938.834770 can0 601 [8] 23 FF 60 00 34 D6 FF FF
1768358938.835583 can0 581 [8] 60 FF 60 00 00 00 00 00
1768358938.944179 can0 601 [8] 23 FF 60 00 00 00 00 00
1768358938.944949 can0 581 [8] 60 FF 60 00 00 00 00 00
1768358939.054175 can0 601 [8] 23 FF 60 00 00 00 00 00
1768358939.054959 can0 581 [8] 60 FF 60 00 00 00 00 00
1768358939.156224 can0 601 [8] 2B 40 60 00 07 00 00 00
1768358939.156936 can0 581 [8] 60 40 60 00 00 00 00 00
1768358939.208613 can0 601 [8] 2B 40 60 00 06 00 00 00
1768358939.209410 can0 581 [8] 60 40 60 00 00 00 00 00
