1768352725.369875 can0 601 [8] 2B 40 60 00 06 00 00 00
1768352725.370662 can0 581 [8] 60 40 60 00 00 00 00 00
1768352725.471058 can0 601 [8] 2F 60 60 00 03 00 00 00
1768352725.471837 can0 581 [8] 60 60 60 00 00 00 00 00
1768352725.572305 can0 601 [8] 2B 40 60 00 07 00 00 00
1768352725.573043 can0 581 [8] 60 40 60 00 00 00 00 00
1768352725.673335 can0 601 [8] 2B 40 60 00 0F 00 00 00
1768352725.674153 can0 581 [8] 60 40 60 00 00 00 00 00
1768352725.874509 can0 601 [8] 23 FF 60 00 00 00 00 00
1768352725.875346 can0 581 [8] 60 FF 60 00 00 00 00 00
1768352726.025702 can0 601 [8] 23 FF 60 00 E8 03 00 00
1768352726.026488 can0 581 [8] 60 FF 60 00 00 00 00 00
1768352726.176915 can0 601 [8] 23 FF 60 00 D0 07 00 00
1768352726.177732 can0 581 [8] 60 FF 60 00 00 00 00 00
1768352726.328138 can0 601 [8] 23 FF 60 00 B8 0B 00 00
1768352726.328928 can0 581 [8] 60 FF 60 00 00 00 00 00
1768352726.479331 can0 601 [8] 23 FF 60 00 A0 0F 00 00
1768352726.480084 can0 581 [8] 60 FF 60 00 00 00 00 00
1768352726.630442 can0 601 [8] 23 FF 60 00 88 13 00 00
1768352726.631375 can0 581 [8] 60 FF 60 00 00 00 00 00
1768352726.781780 can0 601 [8] 23 FF 60 00 70 17 00 00
1768352726.782579 can0 581 [8] 60 FF 60 00 00 00 00 00
1768352726.932944 can0 601 [8] 23 FF 60 00 58 1B 00 00
1768352726.933688 can0 581 [8] 60 FF 60 00 00 00 00 00
1768352727.084146 can0 601 [8] 23 FF 60 00 40 1F 00 00
1768352727.084837 can0 581 [8] 60 FF 60 00 00 00 00 00
1768352727.235301 can0 601 [8] 23 FF 60 00 28 23 00 00
1768352727.236131 can0 581 [8] 60 FF 60 00 00 00 00 00
1768352727.386490 can0 601 [8] 23 FF 60 00 10 27 00 00
1768352727.387330 can0 581 [8] 60 FF 60 00 00 00 00 00
1768352727.387530 can0 601 [8] 40 6C 60 00 00 00 00 00
1768352727.388436 can0 581 [8] 42 6C 60 00 C4 15 00 00
1768352727.888748 can0 601 [8] 40 6C 60 00 00 00 00 00
1768352727.889548 can0 581 [8] 42 6C 60 00 84 20 00 00
1768352728.389882 can0 601 [8] 40 6C 60 00 00 00 00 00
1768352728.390661 can0 581 [8] 42 6C 60 00 9F 14 00 00
1768352728.891061 can0 601 [8] 40 6C 60 00 00 00 00 00
1768352728.891829 can0 581 [8] 42 6C 60 00 A0 1B 00 00
1768352729.392343 can0 601 [8] 40 6C 60 00 00 00 00 00
1768352729.393137 can0 581 [8] 42 6C 60 00 1A 12 00 00
1768352729.893497 can0 601 [8] 40 6C 60 00 00 00 00 00
1768352729.894343 can0 581 [8] 42 6C 60 00 12 14 00 00
1768352730.394783 can0 601 [8] 40 6C 60 00 00 00 00 00
1768352730.395531 can0 581 [8] 42 6C 60 00 D5 1E 00 00
1768352730.895914 can0 601 [8] 40 6C 60 00 00 00 00 00
1768352730.896670 can0 581 [8] 42 6C 60 00 E6 19 00 00
1768352731.397131 can0 601 [8] 40 6C 60 00 00 00 00 00
1768352731.397866 can0 581 [8] 42 6C 60 00 45 1E 00 00
1768352731.898374 can0 601 [8] 40 6C 60 00 00 00 00 00
1768352731.899234 can0 581 [8] 42 6C 60 00 45 1D 00 00
1768352732.400432 can0 601 [8] 23 FF 60 00 10 27 00 00
1768352732.401588 can0 581 [8] 60 FF 60 00 00 00 00 00
1768352732.522905 can0 601 [8] 23 FF 60 00 28 23 00 00
1768352732.523660 can0 581 [8] 60 FF 60 00 00 00 00 00
1768352732.644660 can0 601 [8] 23 FF 60 00 40 1F 00 00
1768352732.645508 can0 581 [8] 60 FF 60 00 00 00 00 00
1768352732.766097 can0 601 [8] 23 FF 60 00 58 1B 00 00
1768352732.766856 can0 581 [8] 60 FF 60 00 00 00 00 00
1768352732.888517 can0 601 [8] 23 FF 60 00 70 17 00 00
1768352732.889362 can0 581 [8] 60 FF 60 00 00 00 00 00
1768352733.009718 can0 601 [8] 23 FF 60 00 88 13 00 00
1768352733.010461 can0 581 [8] 60 FF 60 00 00 00 00 00
1768352733.130843 can0 601 [8] 23 FF 60 00 A0 0F 00 00
1768352733.131663 can0 581 [8] 60 FF 60 00 00 00 00 00
1768352733.252109 can0 601 [8] 23 FF 60 00 B8 0B 00 00
1768352733.252899 can0 581 [8] 60 FF 60 00 00 00 00 00
1768352733.373376 can0 601 [8] 23 FF 60 00 D0 07 00 00
1768352733.374229 can0 581 [8] 60 FF 60 00 00 00 00 00
1768352733.494934 can0 601 [8] 23 FF 60 00 E8 03 00 00
1768352733.495740 can0 581 [8] 60 FF 60 00 00 00 00 00
1768352733.616269 can0 601 [8] 23 FF 60 00 00 00 00 00
1768352733.617081 can0 581 [8] 60 FF 60 00 00 00 00 00
1768352733.717565 can0 601 [8] 2B 40 60 00 07 00 00 00
1768352733.718361 can0 581 [8] 60 40 60 00 00 00 00 00
1768352733.768758 can0 601 [8] 2B 40 60 00 06 00 00 00
1768352733.769498 can0 581 [8] 60 40 60 00 00 00 00 00
1768352733.819932 can0 601 [8] 23 FF 60 00 00 00 00 00
1768352733.820733 can0 581 [8] 60 FF 60 00 00 00 00 00
