1768417350.803905 can0 000 [2] 80 02
1768417351.404276 can0 602 [8] 42 02 20 05 00 00 00 00
1768417351.405078 can0 582 [8] 42 02 20 05 43 00 00 00
1768417351.405523 can0 602 [8] 42 00 14 01 00 00 00 00
1768417351.406263 can0 582 [8] 42 00 14 01 01 02 00 80
1768417351.406470 can0 602 [8] 23 00 14 01 01 02 00 80
1768417351.407343 can0 582 [8] 60 00 14 01 00 00 00 00
1768417351.407635 can0 602 [8] 42 01 14 01 00 00 00 00
1768417351.408454 can0 582 [8] 42 01 14 01 01 03 00 80
1768417351.408746 can0 602 [8] 23 01 14 01 01 03 00 80
1768417351.409641 can0 582 [8] 60 01 14 01 00 00 00 00
1768417351.409819 can0 602 [8] 42 02 14 01 00 00 00 00
1768417351.410637 can0 582 [8] 42 02 14 01 01 05 00 80
1768417351.410783 can0 602 [8] 23 02 14 01 01 05 00 80
1768417351.411723 can0 582 [8] 60 02 14 01 00 00 00 00
1768417351.411891 can0 602 [8] 42 03 14 01 00 00 00 00
1768417351.412724 can0 582 [8] 42 03 14 01 01 05 00 80
1768417351.412856 can0 602 [8] 23 03 14 01 01 05 00 80
1768417351.413786 can0 582 [8] 60 03 14 01 00 00 00 00
1768417351.413957 can0 602 [8] 42 04 14 01 00 00 00 00
1768417351.414793 can0 582 [8] 42 04 14 01 21 04 00 80
1768417351.414972 can0 602 [8] 23 04 14 01 21 04 00 80
1768417351.415889 can0 582 [8] 60 04 14 01 00 00 00 00
1768417351.416014 can0 602 [8] 42 14 14 01 00 00 00 00
1768417351.416891 can0 582 [8] 42 14 14 01 01 05 00 80
1768417351.417059 can0 602 [8] 23 14 14 01 01 05 00 80
1768417351.417941 can0 582 [8] 60 14 14 01 00 00 00 00
1768417351.418078 can0 602 [8] 42 15 14 01 00 00 00 00
1768417351.418947 can0 582 [8] 42 15 14 01 11 05 00 80
1768417351.419066 can0 602 [8] 23 15 14 01 11 05 00 80
1768417351.420038 can0 582 [8] 60 15 14 01 00 00 00 00
1768417351.420241 can0 602 [8] 42 16 14 01 00 00 00 00
1768417351.421035 can0 582 [8] 42 16 14 01 21 05 00 80
1768417351.421152 can0 602 [8] 23 16 14 01 21 05 00 80
1768417351.422136 can0 582 [8] 60 16 14 01 00 00 00 00
1768417351.422254 can0 602 [8] 42 17 14 01 00 00 00 00
1768417351.423129 can0 582 [8] 42 17 14 01 31 05 00 80
1768417351.423241 can0 602 [8] 23 17 14 01 31 05 00 80
1768417351.424245 can0 582 [8] 60 17 14 01 00 00 00 00
1768417351.424364 can0 602 [8] 42 19 14 01 00 00 00 00
1768417351.425251 can0 582 [8] 42 19 14 01 00 05 00 80
1768417351.425425 can0 602 [8] 23 19 14 01 00 05 00 80
1768417351.426336 can0 582 [8] 60 19 14 01 00 00 00 00
1768417351.426449 can0 602 [8] 42 20 14 01 00 00 00 00
1768417351.427382 can0 582 [8] 42 20 14 01 51 05 00 80
1768417351.427510 can0 602 [8] 23 20 14 01 51 05 00 80
1768417351.428472 can0 582 [8] 60 20 14 01 00 00 00 00
1768417351.428596 can0 602 [8] 42 21 14 01 00 00 00 00
1768417351.429429 can0 582 [8] 42 21 14 01 61 05 00 80
1768417351.429548 can0 602 [8] 23 21 14 01 61 05 00 80
1768417351.430527 can0 582 [8] 60 21 14 01 00 00 00 00
1768417351.430660 can0 602 [8] 42 CA 20 07 00 00 00 00
1768417351.431632 can0 582 [8] 42 CA 20 07 00 00 00 00
1768417351.431789 can0 602 [8] 42 CA 20 08 00 00 00 00
1768417351.432733 can0 582 [8] 42 CA 20 08 00 00 00 00
1768417351.432862 can0 602 [8] 42 CA 20 09 00 00 00 00
1768417351.433854 can0 582 [8] 42 CA 20 09 00 00 00 00
1768417351.434018 can0 602 [8] 42 CA 20 0A 00 00 00 00
1768417351.434964 can0 582 [8] 42 CA 20 0A 00 00 00 00
1768417351.435114 can0 602 [8] 42 D8 20 09 00 00 00 00
1768417351.436243 can0 582 [8] 42 D8 20 09 70 03 00 00
1768417351.436345 can0 602 [8] 42 0F 20 01 00 00 00 00
1768417351.437246 can0 582 [8] 42 0F 20 01 F2 1C 00 00
1768417351.437408 can0 602 [8] 42 D8 20 0C 00 00 00 00
1768417351.438577 can0 582 [8] 42 D8 20 0C C8 00 00 00
1768417351.438704 can0 602 [8] 42 D8 20 24 00 00 00 00
1768417351.439885 can0 582 [8] 42 D8 20 24 00 00 14 00
1768417351.440019 can0 602 [8] 21 3C 20 09 08 00 00 00
1768417351.440894 can0 582 [8] 60 3C 20 09 00 00 00 00
1768417351.441018 can0 602 [8] 00 FF 40 55 55 0D 00 00
1768417351.441845 can0 582 [8] 20 FF 40 55 00 00 00 00
1768417351.442038 can0 602 [8] 11 00 40 55 55 0D 00 00
1768417351.443096 can0 582 [8] 30 00 40 55 00 00 00 00
1768417351.443252 can0 602 [8] 40 3C 20 09 00 00 00 00
1768417351.444246 can0 582 [8] 40 3C 20 09 00 00 00 00
1768417351.444375 can0 602 [8] 60 3C 20 09 00 00 00 00
1768417351.445246 can0 582 [8] 00 FF 40 55 55 0D 00 00
1768417351.445378 can0 602 [8] 70 3C 20 09 00 00 00 00
1768417351.446136 can0 582 [8] 11 00 20 09 55 0D 00 00
1768417351.446310 can0 602 [8] 23 37 20 01 00 00 1E 00
1768417351.447249 can0 582 [8] 60 37 20 01 00 00 00 00
1768417351.447369 can0 602 [8] 23 37 20 02 11 11 00 00
1768417351.448334 can0 582 [8] 60 37 20 02 00 00 00 00
1768417351.448513 can0 602 [8] 23 37 20 03 11 11 00 00
1768417351.449392 can0 582 [8] 60 37 20 03 00 00 00 00
1768417351.449524 can0 602 [8] 23 37 20 04 55 55 00 00
1768417351.450380 can0 582 [8] 60 37 20 04 00 00 00 00
1768417351.450507 can0 602 [8] 23 37 20 05 AA AA 1A 00
1768417351.451385 can0 582 [8] 60 37 20 05 00 00 00 00
1768417351.451564 can0 602 [8] 23 37 20 06 56 55 E5 FF
1768417351.452434 can0 582 [8] 60 37 20 06 00 00 00 00
1768417351.452592 can0 602 [8] 23 37 20 07 00 00 00 00
1768417351.453483 can0 582 [8] 60 37 20 07 00 00 00 00
1768417351.453597 can0 602 [8] 23 39 20 01 00 00 00 00
1768417351.454533 can0 582 [8] 60 39 20 01 00 00 00 00
1768417351.454652 can0 602 [8] 23 39 20 02 00 00 00 00
1768417351.455597 can0 582 [8] 60 39 20 02 00 00 00 00
1768417351.455721 can0 602 [8] 23 39 20 03 00 00 00 40
1768417351.456682 can0 582 [8] 60 39 20 03 00 00 00 00
1768417351.456856 can0 602 [8] 23 39 20 04 00 00 00 80
1768417351.457816 can0 582 [8] 60 39 20 04 00 00 00 00
1768417351.458041 can0 602 [8] 23 39 20 05 64 00 00 00
1768417351.458975 can0 582 [8] 60 39 20 05 00 00 00 00
1768417351.459095 can0 602 [8] 23 39 20 06 64 00 00 00
1768417351.460038 can0 582 [8] 60 39 20 06 00 00 00 00
1768417351.460243 can0 602 [8] 23 39 20 07 A0 0F 00 00
1768417351.461253 can0 582 [8] 60 39 20 07 00 00 00 00
1768417351.461378 can0 602 [8] 23 39 20 08 00 00 00 40
1768417351.462294 can0 582 [8] 60 39 20 08 00 00 00 00
1768417351.462459 can0 602 [8] 23 39 20 09 00 00 00 80
1768417351.463386 can0 582 [8] 60 39 20 09 00 00 00 00
1768417351.463519 can0 602 [8] 23 39 20 0A 00 00 00 00
1768417351.464435 can0 582 [8] 60 39 20 0A 00 00 00 00
1768417351.464561 can0 602 [8] 23 39 20 0B 00 00 00 00
1768417351.465550 can0 582 [8] 60 39 20 0B 00 00 00 00
1768417351.465695 can0 602 [8] 42 03 14 01 00 00 00 00
1768417351.466536 can0 582 [8] 42 03 14 01 01 05 00 80
1768417351.466722 can0 000 [2] 80 02
1768417351.769328 can0 602 [8] 2B 40 60 00 80 00 00 00
1768417351.770073 can0 582 [8] 60 40 60 00 00 00 00 00
1768417351.870522 can0 602 [8] 2F 60 60 00 03 00 00 00
1768417351.871250 can0 582 [8] 60 60 60 00 00 00 00 00
1768417351.972454 can0 602 [8] 23 FF 60 00 00 00 00 00
1768417351.973293 can0 582 [8] 60 FF 60 00 00 00 00 00
1768417352.074455 can0 602 [8] 2B 40 60 00 06 00 00 00
1768417352.075191 can0 582 [8] 60 40 60 00 00 00 00 00
1768417352.175857 can0 602 [8] 2B 40 60 00 07 00 00 00
1768417352.176730 can0 582 [8] 60 40 60 00 00 00 00 00
1768417352.277529 can0 602 [8] 2B 40 60 00 0F 00 00 00
1768417352.278285 can0 582 [8] 60 40 60 00 00 00 00 00
1768417352.379847 can0 000 [2] 01 02
1768417356.887067 can0 000 [2] 80 00
1768417356.987333 can0 000 [2] 01 00
1768417357.088239 can0 602 [8] 2B 40 60 00 06 00 00 00
1768417357.088989 can0 582 [8] 60 40 60 00 00 00 00 00
1768417357.190859 can0 602 [8] 2F 60 60 00 03 00 00 00
1768417357.191585 can0 582 [8] 60 60 60 00 00 00 00 00
1768417357.293970 can0 602 [8] 2B 40 60 00 07 00 00 00
1768417357.294028 can0 582 [8] 60 40 60 00 00 00 00 00
1768417357.394464 can0 602 [8] 2B 40 60 00 0F 00 00 00
1768417357.395217 can0 582 [8] 60 40 60 00 00 00 00 00
1768417357.596349 can0 602 [8] 40 61 60 00 00 00 00 00
1768417357.597073 can0 582 [8] 42 61 60 00 03 00 00 00
1768417357.597443 can0 602 [8] 40 41 60 00 00 00 00 00
1768417357.598171 can0 582 [8] 42 41 60 00 37 06 00 00
1768417357.598411 can0 602 [8] 23 FF 60 00 00 00 00 00
1768417357.599228 can0 582 [8] 60 FF 60 00 00 00 00 00
1768417357.699697 can0 602 [8] 23 FF 60 00 68 C5 FF FF
1768417357.700540 can0 582 [8] 60 FF 60 00 00 00 00 00
1768417357.820979 can0 602 [8] 23 FF 60 00 D0 8A FF FF
1768417357.821794 can0 582 [8] 60 FF 60 00 00 00 00 00
1768417357.942555 can0 602 [8] 23 FF 60 00 38 50 FF FF
1768417357.943386 can0 582 [8] 60 FF 60 00 00 00 00 00
1768417358.064569 can0 602 [8] 23 FF 60 00 A0 15 FF FF
1768417358.065397 can0 582 [8] 60 FF 60 00 00 00 00 00
1768417358.186399 can0 602 [8] 23 FF 60 00 08 DB FE FF
1768417358.187143 can0 582 [8] 60 FF 60 00 00 00 00 00
1768417358.307771 can0 602 [8] 23 FF 60 00 70 A0 FE FF
1768417358.308542 can0 582 [8] 60 FF 60 00 00 00 00 00
1768417358.429981 can0 602 [8] 23 FF 60 00 D8 65 FE FF
1768417358.430780 can0 582 [8] 60 FF 60 00 00 00 00 00
1768417358.551844 can0 602 [8] 23 FF 60 00 40 2B FE FF
1768417358.552639 can0 582 [8] 60 FF 60 00 00 00 00 00
1768417358.673168 can0 602 [8] 23 FF 60 00 A8 F0 FD FF
1768417358.674500 can0 582 [8] 60 FF 60 00 00 00 00 00
1768417358.794895 can0 602 [8] 23 FF 60 00 10 B6 FD FF
1768417358.795787 can0 582 [8] 60 FF 60 00 00 00 00 00
1768417358.916357 can0 602 [8] 23 FF 60 00 78 7B FD FF
1768417358.917159 can0 582 [8] 60 FF 60 00 00 00 00 00
1768417359.038534 can0 602 [8] 23 FF 60 00 E0 40 FD FF
1768417359.039364 can0 582 [8] 60 FF 60 00 00 00 00 00
1768417359.160605 can0 602 [8] 23 FF 60 00 48 06 FD FF
1768417359.161583 can0 582 [8] 60 FF 60 00 00 00 00 00
1768417359.283384 can0 602 [8] 23 FF 60 00 B0 CB FC FF
1768417359.284176 can0 582 [8] 60 FF 60 00 00 00 00 00
1768417359.404752 can0 602 [8] 23 FF 60 00 18 91 FC FF
1768417359.405637 can0 582 [8] 60 FF 60 00 00 00 00 00
1768417359.526329 can0 602 [8] 23 FF 60 00 80 56 FC FF
1768417359.527119 can0 582 [8] 60 FF 60 00 00 00 00 00
1768417359.647692 can0 602 [8] 23 FF 60 00 E8 1B FC FF
1768417359.648547 can0 582 [8] 60 FF 60 00 00 00 00 00
1768417359.769463 can0 602 [8] 23 FF 60 00 50 E1 FB FF
1768417359.770370 can0 582 [8] 60 FF 60 00 00 00 00 00
1768417359.890907 can0 602 [8] 23 FF 60 00 B8 A6 FB FF
1768417359.891788 can0 582 [8] 60 FF 60 00 00 00 00 00
1768417360.012718 can0 602 [8] 23 FF 60 00 20 6C FB FF
1768417360.013536 can0 582 [8] 60 FF 60 00 00 00 00 00
1768417360.135230 can0 602 [8] 23 FF 60 00 20 58 FB FF
1768417360.135998 can0 582 [8] 60 FF 60 00 00 00 00 00
1768417360.256514 can0 602 [8] 40 6C 60 00 00 00 00 00
1768417360.257402 can0 582 [8] 42 6C 60 00 00 00 00 00
1768417360.758525 can0 602 [8] 40 6C 60 00 00 00 00 00
1768417360.759351 can0 582 [8] 42 6C 60 00 00 00 00 00
1768417361.261201 can0 602 [8] 40 6C 60 00 00 00 00 00
1768417361.261996 can0 582 [8] 42 6C 60 00 00 00 00 00
1768417361.762390 can0 602 [8] 40 6C 60 00 00 00 00 00
1768417361.763165 can0 582 [8] 42 6C 60 00 00 00 00 00
1768417361.998840 can0 602 [8] 23 FF 60 00 00 00 00 00
1768417361.999705 can0 582 [8] 60 FF 60 00 00 00 00 00
1768417362.101461 can0 602 [8] 2B 40 60 00 07 00 00 00
1768417362.102171 can0 582 [8] 60 40 60 00 00 00 00 00
1768417362.152816 can0 602 [8] 2B 40 60 00 06 00 00 00
1768417362.153519 can0 582 [8] 60 40 60 00 00 00 00 00
