1768353020.290319 can0 601 [8] 2B 40 60 00 06 00 00 00
1768353020.291110 can0 581 [8] 60 40 60 00 00 00 00 00
1768353020.391469 can0 601 [8] 2F 60 60 00 03 00 00 00
1768353020.392260 can0 581 [8] 60 60 60 00 00 00 00 00
1768353020.492611 can0 601 [8] 2B 40 60 00 07 00 00 00
1768353020.493409 can0 581 [8] 60 40 60 00 00 00 00 00
1768353020.593778 can0 601 [8] 2B 40 60 00 0F 00 00 00
1768353020.594507 can0 581 [8] 60 40 60 00 00 00 00 00
1768353020.794852 can0 601 [8] 23 FF 60 00 00 00 00 00
1768353020.795622 can0 581 [8] 60 FF 60 00 00 00 00 00
1768353020.996013 can0 601 [8] 23 FF 60 00 98 3A 00 00
1768353020.996912 can0 581 [8] 60 FF 60 00 00 00 00 00
1768353021.197332 can0 601 [8] 23 FF 60 00 30 75 00 00
1768353021.198116 can0 581 [8] 60 FF 60 00 00 00 00 00
1768353021.398483 can0 601 [8] 40 6C 60 00 00 00 00 00
1768353021.399283 can0 581 [8] 42 6C 60 00 94 6A 00 00
1768353021.599631 can0 601 [8] 40 6C 60 00 00 00 00 00
1768353021.600382 can0 581 [8] 42 6C 60 00 F0 63 00 00
1768353021.800763 can0 601 [8] 40 6C 60 00 00 00 00 00
1768353021.801503 can0 581 [8] 42 6C 60 00 13 64 00 00
1768353022.002019 can0 601 [8] 40 6C 60 00 00 00 00 00
1768353022.002858 can0 581 [8] 42 6C 60 00 93 6A 00 00
1768353022.203269 can0 601 [8] 40 6C 60 00 00 00 00 00
1768353022.203996 can0 581 [8] 42 6C 60 00 E5 69 00 00
1768353022.404385 can0 601 [8] 40 6C 60 00 00 00 00 00
1768353022.405140 can0 581 [8] 42 6C 60 00 A8 6C 00 00
1768353022.605601 can0 601 [8] 40 6C 60 00 00 00 00 00
1768353022.606372 can0 581 [8] 42 6C 60 00 B5 60 00 00
1768353022.806752 can0 601 [8] 40 6C 60 00 00 00 00 00
1768353022.807525 can0 581 [8] 42 6C 60 00 24 69 00 00
1768353023.007991 can0 601 [8] 40 6C 60 00 00 00 00 00
1768353023.008852 can0 581 [8] 42 6C 60 00 C9 61 00 00
1768353023.209270 can0 601 [8] 40 6C 60 00 00 00 00 00
1768353023.210116 can0 581 [8] 42 6C 60 00 0C 68 00 00
1768353023.410596 can0 601 [8] 40 6C 60 00 00 00 00 00
1768353023.411366 can0 581 [8] 42 6C 60 00 F1 63 00 00
1768353023.611797 can0 601 [8] 40 6C 60 00 00 00 00 00
1768353023.612515 can0 581 [8] 42 6C 60 00 0B 65 00 00
1768353023.813019 can0 601 [8] 40 6C 60 00 00 00 00 00
1768353023.813838 can0 581 [8] 42 6C 60 00 25 66 00 00
1768353024.014335 can0 601 [8] 40 6C 60 00 00 00 00 00
1768353024.015116 can0 581 [8] 42 6C 60 00 57 65 00 00
1768353024.215566 can0 601 [8] 40 6C 60 00 00 00 00 00
1768353024.216349 can0 581 [8] 42 6C 60 00 6F 6C 00 00
1768353024.416852 can0 601 [8] 40 6C 60 00 00 00 00 00
1768353024.417713 can0 581 [8] 42 6C 60 00 59 65 00 00
1768353024.618238 can0 601 [8] 40 6C 60 00 00 00 00 00
1768353024.619065 can0 581 [8] 42 6C 60 00 14 6B 00 00
1768353024.819489 can0 601 [8] 40 6C 60 00 00 00 00 00
1768353024.820237 can0 581 [8] 42 6C 60 00 5D 61 00 00
1768353025.020663 can0 601 [8] 40 6C 60 00 00 00 00 00
1768353025.021451 can0 581 [8] 42 6C 60 00 81 65 00 00
1768353025.221901 can0 601 [8] 40 6C 60 00 00 00 00 00
1768353025.222651 can0 581 [8] 42 6C 60 00 23 6B 00 00
1768353025.423129 can0 601 [8] 40 6C 60 00 00 00 00 00
1768353025.423859 can0 581 [8] 42 6C 60 00 F4 64 00 00
1768353025.624360 can0 601 [8] 40 6C 60 00 00 00 00 00
1768353025.625100 can0 581 [8] 42 6C 60 00 1A 68 00 00
1768353025.825627 can0 601 [8] 40 6C 60 00 00 00 00 00
1768353025.826383 can0 581 [8] 42 6C 60 00 0F 65 00 00
1768353026.026822 can0 601 [8] 40 6C 60 00 00 00 00 00
1768353026.027578 can0 581 [8] 42 6C 60 00 8E 6A 00 00
1768353026.228036 can0 601 [8] 40 6C 60 00 00 00 00 00
1768353026.228838 can0 581 [8] 42 6C 60 00 D7 6B 00 00
1768353026.429379 can0 601 [8] 40 6C 60 00 00 00 00 00
1768353026.430130 can0 581 [8] 42 6C 60 00 77 70 00 00
1768353026.630588 can0 601 [8] 40 6C 60 00 00 00 00 00
1768353026.631333 can0 581 [8] 42 6C 60 00 34 64 00 00
1768353026.831790 can0 601 [8] 40 6C 60 00 00 00 00 00
1768353026.832531 can0 581 [8] 42 6C 60 00 48 68 00 00
1768353027.032902 can0 601 [8] 40 6C 60 00 00 00 00 00
1768353027.033668 can0 581 [8] 42 6C 60 00 56 6C 00 00
1768353027.234087 can0 601 [8] 40 6C 60 00 00 00 00 00
1768353027.234879 can0 581 [8] 42 6C 60 00 A2 6C 00 00
1768353027.435405 can0 601 [8] 40 6C 60 00 00 00 00 00
1768353027.436122 can0 581 [8] 42 6C 60 00 17 69 00 00
1768353027.636627 can0 601 [8] 40 6C 60 00 00 00 00 00
1768353027.637381 can0 581 [8] 42 6C 60 00 90 65 00 00
1768353027.837806 can0 601 [8] 40 6C 60 00 00 00 00 00
1768353027.838556 can0 581 [8] 42 6C 60 00 92 6C 00 00
1768353028.039054 can0 601 [8] 40 6C 60 00 00 00 00 00
1768353028.039801 can0 581 [8] 42 6C 60 00 B2 66 00 00
1768353028.240221 can0 601 [8] 40 6C 60 00 00 00 00 00
1768353028.241030 can0 581 [8] 42 6C 60 00 F9 6C 00 00
1768353028.441358 can0 601 [8] 40 6C 60 00 00 00 00 00
1768353028.442116 can0 581 [8] 42 6C 60 00 83 65 00 00
1768353028.642512 can0 601 [8] 40 6C 60 00 00 00 00 00
1768353028.643215 can0 581 [8] 42 6C 60 00 85 6A 00 00
1768353028.843656 can0 601 [8] 40 6C 60 00 00 00 00 00
1768353028.844403 can0 581 [8] 42 6C 60 00 BE 64 00 00
1768353029.044753 can0 601 [8] 40 6C 60 00 00 00 00 00
1768353029.045489 can0 581 [8] 42 6C 60 00 AA 69 00 00
1768353029.245939 can0 601 [8] 40 6C 60 00 00 00 00 00
1768353029.246792 can0 581 [8] 42 6C 60 00 61 69 00 00
1768353029.447219 can0 601 [8] 40 6C 60 00 00 00 00 00
1768353029.448055 can0 581 [8] 42 6C 60 00 4D 67 00 00
1768353029.648481 can0 601 [8] 40 6C 60 00 00 00 00 00
1768353029.649163 can0 581 [8] 42 6C 60 00 F7 65 00 00
1768353029.849622 can0 601 [8] 40 6C 60 00 00 00 00 00
1768353029.850373 can0 581 [8] 42 6C 60 00 A9 65 00 00
1768353030.050755 can0 601 [8] 40 6C 60 00 00 00 00 00
1768353030.051516 can0 581 [8] 42 6C 60 00 1D 6A 00 00
1768353030.251873 can0 601 [8] 40 6C 60 00 00 00 00 00
1768353030.252785 can0 581 [8] 42 6C 60 00 77 69 00 00
1768353030.453203 can0 601 [8] 40 6C 60 00 00 00 00 00
1768353030.454019 can0 581 [8] 42 6C 60 00 D2 6B 00 00
1768353030.654421 can0 601 [8] 40 6C 60 00 00 00 00 00
1768353030.655160 can0 581 [8] 42 6C 60 00 FC 60 00 00
1768353030.855598 can0 601 [8] 40 6C 60 00 00 00 00 00
1768353030.856356 can0 581 [8] 42 6C 60 00 1D 66 00 00
1768353031.056708 can0 601 [8] 40 6C 60 00 00 00 00 00
1768353031.057470 can0 581 [8] 42 6C 60 00 50 69 00 00
1768353031.258573 can0 601 [8] 40 6C 60 00 00 00 00 00
1768353031.259316 can0 581 [8] 42 6C 60 00 DD 69 00 00
1768353031.460160 can0 601 [8] 23 FF 60 00 00 00 00 00
1768353031.460937 can0 581 [8] 60 FF 60 00 00 00 00 00
1768353031.561599 can0 601 [8] 2B 40 60 00 07 00 00 00
1768353031.562311 can0 581 [8] 60 40 60 00 00 00 00 00
1768353031.612905 can0 601 [8] 2B 40 60 00 06 00 00 00
1768353031.613826 can0 581 [8] 60 40 60 00 00 00 00 00
