1768417655.774280 can0 000 [2] 80 02
1768417656.374672 can0 602 [8] 42 02 20 05 00 00 00 00
1768417656.375449 can0 582 [8] 42 02 20 05 43 00 00 00
1768417656.375746 can0 602 [8] 42 00 14 01 00 00 00 00
1768417656.376621 can0 582 [8] 42 00 14 01 01 02 00 80
1768417656.376820 can0 602 [8] 23 00 14 01 01 02 00 80
1768417656.377701 can0 582 [8] 60 00 14 01 00 00 00 00
1768417656.377898 can0 602 [8] 42 01 14 01 00 00 00 00
1768417656.378689 can0 582 [8] 42 01 14 01 01 03 00 80
1768417656.378882 can0 602 [8] 23 01 14 01 01 03 00 80
1768417656.379749 can0 582 [8] 60 01 14 01 00 00 00 00
1768417656.379939 can0 602 [8] 42 02 14 01 00 00 00 00
1768417656.380721 can0 582 [8] 42 02 14 01 01 05 00 80
1768417656.380896 can0 602 [8] 23 02 14 01 01 05 00 80
1768417656.381835 can0 582 [8] 60 02 14 01 00 00 00 00
1768417656.382028 can0 602 [8] 42 03 14 01 00 00 00 00
1768417656.382802 can0 582 [8] 42 03 14 01 01 05 00 80
1768417656.382924 can0 602 [8] 23 03 14 01 01 05 00 80
1768417656.383849 can0 582 [8] 60 03 14 01 00 00 00 00
1768417656.384057 can0 602 [8] 42 04 14 01 00 00 00 00
1768417656.384885 can0 582 [8] 42 04 14 01 21 04 00 80
1768417656.385022 can0 602 [8] 23 04 14 01 21 04 00 80
1768417656.385912 can0 582 [8] 60 04 14 01 00 00 00 00
1768417656.386048 can0 602 [8] 42 14 14 01 00 00 00 00
1768417656.386901 can0 582 [8] 42 14 14 01 01 05 00 80
1768417656.387048 can0 602 [8] 23 14 14 01 01 05 00 80
1768417656.387998 can0 582 [8] 60 14 14 01 00 00 00 00
1768417656.388123 can0 602 [8] 42 15 14 01 00 00 00 00
1768417656.389004 can0 582 [8] 42 15 14 01 11 05 00 80
1768417656.389118 can0 602 [8] 23 15 14 01 11 05 00 80
1768417656.390097 can0 582 [8] 60 15 14 01 00 00 00 00
1768417656.390208 can0 602 [8] 42 16 14 01 00 00 00 00
1768417656.391086 can0 582 [8] 42 16 14 01 21 05 00 80
1768417656.391198 can0 602 [8] 23 16 14 01 21 05 00 80
1768417656.392048 can0 582 [8] 60 16 14 01 00 00 00 00
1768417656.392173 can0 602 [8] 42 17 14 01 00 00 00 00
1768417656.393053 can0 582 [8] 42 17 14 01 31 05 00 80
1768417656.393172 can0 602 [8] 23 17 14 01 31 05 00 80
1768417656.394145 can0 582 [8] 60 17 14 01 00 00 00 00
1768417656.394266 can0 602 [8] 42 19 14 01 00 00 00 00
1768417656.395153 can0 582 [8] 42 19 14 01 00 05 00 80
1768417656.395264 can0 602 [8] 23 19 14 01 00 05 00 80
1768417656.396255 can0 582 [8] 60 19 14 01 00 00 00 00
1768417656.396379 can0 602 [8] 42 20 14 01 00 00 00 00
1768417656.397289 can0 582 [8] 42 20 14 01 51 05 00 80
1768417656.397405 can0 602 [8] 23 20 14 01 51 05 00 80
1768417656.398392 can0 582 [8] 60 20 14 01 00 00 00 00
1768417656.398582 can0 602 [8] 42 21 14 01 00 00 00 00
1768417656.399441 can0 582 [8] 42 21 14 01 61 05 00 80
1768417656.399591 can0 602 [8] 23 21 14 01 61 05 00 80
1768417656.400581 can0 582 [8] 60 21 14 01 00 00 00 00
1768417656.400704 can0 602 [8] 42 CA 20 07 00 00 00 00
1768417656.401645 can0 582 [8] 42 CA 20 07 00 00 00 00
1768417656.401772 can0 602 [8] 42 CA 20 08 00 00 00 00
1768417656.402744 can0 582 [8] 42 CA 20 08 00 00 00 00
1768417656.402864 can0 602 [8] 42 CA 20 09 00 00 00 00
1768417656.403851 can0 582 [8] 42 CA 20 09 00 00 00 00
1768417656.403972 can0 602 [8] 42 CA 20 0A 00 00 00 00
1768417656.404949 can0 582 [8] 42 CA 20 0A 00 00 00 00
1768417656.405061 can0 602 [8] 42 D8 20 09 00 00 00 00
1768417656.406257 can0 582 [8] 42 D8 20 09 70 03 00 00
1768417656.406393 can0 602 [8] 42 0F 20 01 00 00 00 00
1768417656.407254 can0 582 [8] 42 0F 20 01 E6 1C 00 00
1768417656.407411 can0 602 [8] 42 D8 20 0C 00 00 00 00
1768417656.408585 can0 582 [8] 42 D8 20 0C C8 00 00 00
1768417656.408694 can0 602 [8] 42 D8 20 24 00 00 00 00
1768417656.409799 can0 582 [8] 42 D8 20 24 00 00 14 00
1768417656.409914 can0 602 [8] 21 3C 20 09 08 00 00 00
1768417656.410747 can0 582 [8] 60 3C 20 09 00 00 00 00
1768417656.410865 can0 602 [8] 00 FF 40 55 55 0D 00 00
1768417656.411642 can0 582 [8] 20 FF 40 55 00 00 00 00
1768417656.411767 can0 602 [8] 11 00 40 55 55 0D 00 00
1768417656.412800 can0 582 [8] 30 00 40 55 00 00 00 00
1768417656.412908 can0 602 [8] 40 3C 20 09 00 00 00 00
1768417656.413852 can0 582 [8] 40 3C 20 09 00 00 00 00
1768417656.413965 can0 602 [8] 60 3C 20 09 00 00 00 00
1768417656.414746 can0 582 [8] 00 FF 40 55 55 0D 00 00
1768417656.414860 can0 602 [8] 70 3C 20 09 00 00 00 00
1768417656.415609 can0 582 [8] 11 00 20 09 55 0D 00 00
1768417656.415740 can0 602 [8] 23 37 20 01 00 00 1E 00
1768417656.416646 can0 582 [8] 60 37 20 01 00 00 00 00
1768417656.416767 can0 602 [8] 23 37 20 02 11 11 00 00
1768417656.417745 can0 582 [8] 60 37 20 02 00 00 00 00
1768417656.417865 can0 602 [8] 23 37 20 03 11 11 00 00
1768417656.418843 can0 582 [8] 60 37 20 03 00 00 00 00
1768417656.419022 can0 602 [8] 23 37 20 04 55 55 00 00
1768417656.419912 can0 582 [8] 60 37 20 04 00 00 00 00
1768417656.420044 can0 602 [8] 23 37 20 05 AA AA 1A 00
1768417656.421010 can0 582 [8] 60 37 20 05 00 00 00 00
1768417656.421136 can0 602 [8] 23 37 20 06 56 55 E5 FF
1768417656.422096 can0 582 [8] 60 37 20 06 00 00 00 00
1768417656.422221 can0 602 [8] 23 37 20 07 00 00 00 00
1768417656.423200 can0 582 [8] 60 37 20 07 00 00 00 00
1768417656.423321 can0 602 [8] 23 39 20 01 00 00 00 00
1768417656.424348 can0 582 [8] 60 39 20 01 00 00 00 00
1768417656.424583 can0 602 [8] 23 39 20 02 00 00 00 00
1768417656.425581 can0 582 [8] 60 39 20 02 00 00 00 00
1768417656.425710 can0 602 [8] 23 39 20 03 00 00 00 40
1768417656.426702 can0 582 [8] 60 39 20 03 00 00 00 00
1768417656.426857 can0 602 [8] 23 39 20 04 00 00 00 80
1768417656.427850 can0 582 [8] 60 39 20 04 00 00 00 00
1768417656.428007 can0 602 [8] 23 39 20 05 64 00 00 00
1768417656.428992 can0 582 [8] 60 39 20 05 00 00 00 00
1768417656.429178 can0 602 [8] 23 39 20 06 64 00 00 00
1768417656.430148 can0 582 [8] 60 39 20 06 00 00 00 00
1768417656.430309 can0 602 [8] 23 39 20 07 A0 0F 00 00
1768417656.431258 can0 582 [8] 60 39 20 07 00 00 00 00
1768417656.431400 can0 602 [8] 23 39 20 08 00 00 00 40
1768417656.432397 can0 582 [8] 60 39 20 08 00 00 00 00
1768417656.432583 can0 602 [8] 23 39 20 09 00 00 00 80
1768417656.433580 can0 582 [8] 60 39 20 09 00 00 00 00
1768417656.433727 can0 602 [8] 23 39 20 0A 00 00 00 00
1768417656.434714 can0 582 [8] 60 39 20 0A 00 00 00 00
1768417656.434886 can0 602 [8] 23 39 20 0B 00 00 00 00
1768417656.435852 can0 582 [8] 60 39 20 0B 00 00 00 00
1768417656.436021 can0 602 [8] 42 03 14 01 00 00 00 00
1768417656.436845 can0 582 [8] 42 03 14 01 01 05 00 80
1768417656.437000 can0 602 [8] 23 03 14 01 02 05 00 80
1768417656.437949 can0 582 [8] 60 03 14 01 00 00 00 00
1768417656.438076 can0 602 [8] 23 03 14 01 02 05 00 00
1768417656.439006 can0 582 [8] 60 03 14 01 00 00 00 00
1768417656.439146 can0 602 [8] 2F 03 14 02 01 00 00 00
1768417656.440056 can0 582 [8] 60 03 14 02 00 00 00 00
1768417656.440192 can0 602 [8] 42 03 18 01 00 00 00 00
1768417656.441044 can0 582 [8] 42 03 18 01 81 01 00 00
1768417656.441180 can0 602 [8] 23 03 18 01 82 01 00 80
1768417656.442101 can0 582 [8] 60 03 18 01 00 00 00 00
1768417656.442220 can0 602 [8] 23 03 18 01 82 01 00 00
1768417656.443200 can0 582 [8] 60 03 18 01 00 00 00 00
1768417656.443322 can0 602 [8] 2F 03 18 02 01 00 00 00
1768417656.444237 can0 582 [8] 60 03 18 02 00 00 00 00
1768417656.444401 can0 602 [8] 42 14 18 01 00 00 00 00
1768417656.445209 can0 582 [8] 42 14 18 01 81 02 00 00
1768417656.445352 can0 602 [8] 23 14 18 01 82 02 00 80
1768417656.446298 can0 582 [8] 60 14 18 01 00 00 00 00
1768417656.446412 can0 602 [8] 23 14 18 01 82 02 00 00
1768417656.447400 can0 582 [8] 60 14 18 01 00 00 00 00
1768417656.447569 can0 602 [8] 2F 14 18 02 01 00 00 00
1768417656.448450 can0 582 [8] 60 14 18 02 00 00 00 00
1768417656.448577 can0 602 [8] 42 16 18 01 00 00 00 00
1768417656.449444 can0 582 [8] 42 16 18 01 D1 02 00 80
1768417656.449614 can0 602 [8] 23 16 18 01 82 03 00 80
1768417656.450581 can0 582 [8] 60 16 18 01 00 00 00 00
1768417656.450711 can0 602 [8] 23 16 18 01 82 03 00 00
1768417656.451655 can0 582 [8] 60 16 18 01 00 00 00 00
1768417656.451785 can0 602 [8] 2F 16 18 02 01 00 00 00
1768417656.452706 can0 582 [8] 60 16 18 02 00 00 00 00
1768417656.452847 can0 602 [8] 42 19 18 01 00 00 00 00
1768417656.453709 can0 582 [8] 42 19 18 01 81 04 00 00
1768417656.453821 can0 602 [8] 23 19 18 01 82 04 00 80
1768417656.454805 can0 582 [8] 60 19 18 01 00 00 00 00
1768417656.454975 can0 602 [8] 2F 19 1A 00 00 00 00 00
1768417656.455856 can0 582 [8] 60 19 1A 00 00 00 00 00
1768417656.455987 can0 602 [8] 23 19 1A 01 10 01 0F 20
1768417656.456894 can0 582 [8] 60 19 1A 01 00 00 00 00
1768417656.457013 can0 602 [8] 23 19 1A 02 10 02 02 20
1768417656.457945 can0 582 [8] 60 19 1A 02 00 00 00 00
1768417656.458131 can0 602 [8] 23 19 1A 03 10 03 02 20
1768417656.458993 can0 582 [8] 60 19 1A 03 00 00 00 00
1768417656.459113 can0 602 [8] 23 19 1A 04 10 05 02 20
1768417656.460042 can0 582 [8] 60 19 1A 04 00 00 00 00
1768417656.460168 can0 602 [8] 2F 19 1A 00 04 00 00 00
1768417656.461053 can0 582 [8] 60 19 1A 00 00 00 00 00
1768417656.461182 can0 602 [8] 23 19 18 01 82 04 00 00
1768417656.462155 can0 582 [8] 60 19 18 01 00 00 00 00
1768417656.462333 can0 602 [8] 2F 19 18 02 01 00 00 00
1768417656.463201 can0 582 [8] 60 19 18 02 00 00 00 00
1768417656.463326 can0 000 [2] 80 02
1768417656.765051 can0 602 [8] 2B 40 60 00 80 00 00 00
1768417656.765793 can0 582 [8] 60 40 60 00 00 00 00 00
1768417656.866427 can0 602 [8] 2F 60 60 00 03 00 00 00
1768417656.867035 can0 582 [8] 60 60 60 00 00 00 00 00
1768417656.967703 can0 602 [8] 23 FF 60 00 00 00 00 00
1768417656.968446 can0 582 [8] 60 FF 60 00 00 00 00 00
1768417657.068881 can0 602 [8] 2B 40 60 00 80 00 00 00
1768417657.069627 can0 582 [8] 60 40 60 00 00 00 00 00
1768417657.170796 can0 602 [8] 2B 40 60 00 06 00 00 00
1768417657.171609 can0 582 [8] 60 40 60 00 00 00 00 00
1768417657.273638 can0 602 [8] 2B 40 60 00 07 00 00 00
1768417657.274406 can0 582 [8] 60 40 60 00 00 00 00 00
1768417657.374883 can0 602 [8] 2B 40 60 00 0F 00 00 00
1768417657.375625 can0 582 [8] 60 40 60 00 00 00 00 00
1768417657.476650 can0 000 [2] 01 02
1768417658.078343 can0 602 [8] 2B 86 60 00 02 00 00 00
1768417658.079104 can0 582 [8] 60 86 60 00 00 00 00 00
1768417658.079624 can0 602 [8] 21 3C 20 01 06 00 00 00
1768417658.080365 can0 582 [8] 60 3C 20 01 00 00 00 00
1768417658.080665 can0 602 [8] 01 3E C3 AE 00 00 00 00
1768417658.081726 can0 582 [8] 20 3E C3 AE 00 00 00 00
1768417658.081929 can0 602 [8] 21 3C 20 02 06 00 00 00
1768417658.082775 can0 582 [8] 60 3C 20 02 00 00 00 00
1768417658.083083 can0 602 [8] 01 3E C3 AE 00 00 00 00
1768417658.084159 can0 582 [8] 20 3E C3 AE 00 00 00 00
1768417658.084347 can0 602 [8] 21 3C 20 03 06 00 00 00
1768417658.085144 can0 582 [8] 60 3C 20 03 00 00 00 00
1768417658.085392 can0 602 [8] 01 3E C3 AE 00 00 00 00
1768417658.086593 can0 582 [8] 20 3E C3 AE 00 00 00 00
1768417658.086711 can0 602 [8] 21 3C 20 04 06 00 00 00
1768417658.087594 can0 582 [8] 60 3C 20 04 00 00 00 00
1768417658.087766 can0 602 [8] 01 3E C3 AE 00 00 00 00
1768417658.088887 can0 582 [8] 20 3E C3 AE 00 00 00 00
1768417658.089028 can0 602 [8] 2B 0C 10 00 0A 00 00 00
1768417658.089840 can0 582 [8] 60 0C 10 00 00 00 00 00
1768417658.089972 can0 602 [8] 2F 0D 10 00 FA 00 00 00
1768417658.090741 can0 582 [8] 60 0D 10 00 00 00 00 00
1768417658.090858 can0 602 [8] 2B 5A 20 40 00 00 00 00
1768417658.092445 can0 582 [8] 60 5A 20 40 00 00 00 00
1768417658.092587 can0 602 [8] 2B 5A 20 2E 01 00 00 00
1768417658.094244 can0 582 [8] 60 5A 20 2E 00 00 00 00
1768417658.094376 can0 602 [8] 2B 5A 20 01 00 00 00 00
1768417658.095991 can0 582 [8] 60 5A 20 01 00 00 00 00
1768417658.096129 can0 602 [8] 2B 65 20 2B 0A 00 00 00
1768417658.097497 can0 582 [8] 60 65 20 2B 00 00 00 00
1768417658.097603 can0 602 [8] 42 41 60 00 00 00 00 00
1768417658.098336 can0 582 [8] 42 41 60 00 37 06 00 00
1768417658.300297 can0 502 [8] 80 00 00 00 00 00 00 00
1768417658.302638 can0 080 [0] 
1768417658.303390 can0 181 [6] 21 06 00 00 00 00
1768417658.303392 can0 381 [2] 10 00
1768417658.303828 can0 182 [6] 37 06 00 00 00 00
1768417658.303829 can0 281 [4] 00 00 00 00
1768417658.303830 can0 382 [2] FC FF
1768417658.303832 can0 282 [4] 00 00 00 00
1768417658.303832 can0 481 [8] DA 1C 00 00 00 00 43 00
1768417658.304051 can0 482 [8] DC 1C 00 00 00 00 43 00
1768417658.310755 can0 502 [8] 06 00 00 00 00 00 00 00
1768417658.312876 can0 080 [0] 
1768417658.313639 can0 181 [6] 21 06 00 00 00 00
1768417658.314123 can0 182 [6] 37 06 00 00 00 00
1768417658.314124 can0 381 [2] FA FF
1768417658.314125 can0 281 [4] 00 00 00 00
1768417658.314126 can0 382 [2] F7 FF
1768417658.314127 can0 282 [4] 00 00 00 00
1768417658.314127 can0 481 [8] DB 1C 00 00 00 00 43 00
1768417658.314355 can0 482 [8] E0 1C 00 00 00 00 43 00
1768417658.321019 can0 502 [8] 06 00 00 00 00 00 00 00
1768417658.323116 can0 080 [0] 
1768417658.323888 can0 181 [6] 21 06 00 00 00 00
1768417658.324400 can0 182 [6] 21 06 00 00 00 00
1768417658.324402 can0 381 [2] FE FF
1768417658.324403 can0 281 [4] 00 00 00 00
1768417658.324404 can0 382 [2] 02 00
1768417658.324405 can0 282 [4] 00 00 00 00
1768417658.324405 can0 481 [8] E2 1C 00 00 00 00 43 00
1768417658.324602 can0 482 [8] DE 1C 00 00 00 00 43 00
1768417658.331210 can0 502 [8] 06 00 00 00 00 00 00 00
1768417658.333337 can0 080 [0] 
1768417658.334033 can0 181 [6] 21 06 00 00 00 00
1768417658.334594 can0 182 [6] 21 06 00 00 00 00
1768417658.334595 can0 381 [2] FD FF
1768417658.334595 can0 281 [4] 00 00 00 00
1768417658.334595 can0 382 [2] FE FF
1768417658.334596 can0 282 [4] 00 00 00 00
1768417658.334596 can0 481 [8] DD 1C 00 00 00 00 43 00
1768417658.334817 can0 482 [8] E3 1C 00 00 00 00 43 00
1768417658.341463 can0 502 [8] 06 00 00 00 00 00 00 00
1768417658.343597 can0 080 [0] 
1768417658.344288 can0 181 [6] 21 06 00 00 00 00
1768417658.344790 can0 182 [6] 21 06 00 00 00 00
1768417658.344791 can0 381 [2] FA FF
1768417658.344792 can0 281 [4] 00 00 00 00
1768417658.344792 can0 382 [2] 02 00
1768417658.344793 can0 282 [4] 00 00 00 00
1768417658.344793 can0 481 [8] E2 1C 00 00 00 00 43 00
1768417658.345015 can0 482 [8] E3 1C 00 00 00 00 43 00
1768417658.351681 can0 502 [8] 06 00 00 00 00 00 00 00
1768417658.353808 can0 080 [0] 
1768417658.354600 can0 181 [6] 21 06 00 00 00 00
1768417658.355045 can0 182 [6] 21 06 00 00 00 00
1768417658.355045 can0 381 [2] ED FF
1768417658.355046 can0 281 [4] 00 00 00 00
1768417658.355046 can0 382 [2] F5 FF
1768417658.355046 can0 282 [4] 00 00 00 00
1768417658.355047 can0 481 [8] DE 1C 00 00 00 00 43 00
1768417658.355273 can0 482 [8] DE 1C 00 00 00 00 43 00
1768417658.361951 can0 502 [8] 07 00 00 00 00 00 00 00
1768417658.364058 can0 080 [0] 
1768417658.364799 can0 182 [6] 21 06 00 00 00 00
1768417658.365299 can0 181 [6] 21 06 00 00 00 00
1768417658.365299 can0 381 [2] FC FF
1768417658.365300 can0 281 [4] 00 00 00 00
1768417658.365300 can0 382 [2] F9 FF
1768417658.365300 can0 282 [4] 00 00 00 00
1768417658.365301 can0 481 [8] E0 1C 00 00 00 00 43 00
1768417658.365594 can0 482 [8] DD 1C 00 00 00 00 43 00
1768417658.372204 can0 502 [8] 07 00 00 00 00 00 00 00
1768417658.374301 can0 080 [0] 
1768417658.374996 can0 182 [6] 23 06 00 00 00 00
1768417658.375495 can0 181 [6] 21 06 00 00 00 00
1768417658.375495 can0 381 [2] 01 00
1768417658.375496 can0 281 [4] 00 00 00 00
1768417658.375496 can0 382 [2] 02 00
1768417658.375497 can0 282 [4] 00 00 00 00
1768417658.375497 can0 481 [8] DB 1C 00 00 00 00 43 00
1768417658.375773 can0 482 [8] DC 1C 00 00 00 00 43 00
1768417658.382429 can0 502 [8] 07 00 00 00 00 00 00 00
1768417658.384600 can0 080 [0] 
1768417658.385295 can0 182 [6] 23 06 00 00 00 00
1768417658.385792 can0 181 [6] 21 06 00 00 00 00
1768417658.385792 can0 381 [2] 0B 00
1768417658.385793 can0 281 [4] 00 00 00 00
1768417658.385793 can0 382 [2] FA FF
1768417658.385798 can0 282 [4] 00 00 00 00
1768417658.385798 can0 481 [8] DA 1C 00 00 00 00 43 00
1768417658.386021 can0 482 [8] E1 1C 00 00 00 00 43 00
1768417658.392675 can0 502 [8] 07 00 00 00 00 00 00 00
1768417658.394759 can0 080 [0] 
1768417658.395598 can0 181 [6] 21 06 00 00 00 00
1768417658.395599 can0 381 [2] EA FF
1768417658.396015 can0 182 [6] 23 06 00 00 00 00
1768417658.396016 can0 281 [4] 00 00 00 00
1768417658.396017 can0 382 [2] 04 00
1768417658.396017 can0 282 [4] 00 00 00 00
1768417658.396018 can0 481 [8] DD 1C 00 00 00 00 43 00
1768417658.396244 can0 482 [8] E0 1C 00 00 00 00 43 00
1768417658.402889 can0 502 [8] 07 00 00 00 00 00 00 00
1768417658.405011 can0 080 [0] 
1768417658.405768 can0 182 [6] 23 06 00 00 00 00
1768417658.405769 can0 382 [2] FE FF
1768417658.406206 can0 181 [6] 21 06 00 00 00 00
1768417658.406207 can0 282 [4] 00 00 00 00
1768417658.406208 can0 381 [2] 1E 00
1768417658.406208 can0 281 [4] 00 00 00 00
1768417658.406208 can0 481 [8] E3 1C 00 00 00 00 43 00
1768417658.406437 can0 482 [8] E0 1C 00 00 00 00 43 00
1768417658.413154 can0 502 [8] 0F 00 00 00 00 00 00 00
1768417658.415264 can0 080 [0] 
1768417658.416025 can0 181 [6] 21 06 00 00 00 00
1768417658.416480 can0 182 [6] 23 06 00 00 00 00
1768417658.416481 can0 381 [2] 04 00
1768417658.416481 can0 281 [4] 00 00 00 00
1768417658.416483 can0 382 [2] 0F 00
1768417658.416483 can0 282 [4] 00 00 00 00
1768417658.416484 can0 481 [8] E4 1C 00 00 00 00 43 00
1768417658.416778 can0 482 [8] E3 1C 00 00 00 00 43 00
1768417658.423407 can0 502 [8] 0F 00 00 00 00 00 00 00
1768417658.425639 can0 080 [0] 
1768417658.426322 can0 181 [6] 21 06 00 00 00 00
1768417658.426824 can0 182 [6] 37 06 00 00 00 00
1768417658.426825 can0 381 [2] 09 00
1768417658.426826 can0 281 [4] 00 00 00 00
1768417658.426826 can0 382 [2] 01 00
1768417658.426827 can0 282 [4] 00 00 00 00
1768417658.426828 can0 481 [8] DF 1C 00 00 00 00 43 00
1768417658.427004 can0 482 [8] D8 1C 00 00 00 00 43 00
1768417658.433695 can0 502 [8] 0F 00 00 00 00 00 00 00
1768417658.435771 can0 080 [0] 
1768417658.436513 can0 181 [6] 21 06 00 00 00 00
1768417658.437058 can0 182 [6] 37 06 00 00 00 00
1768417658.437060 can0 381 [2] 01 00
1768417658.437061 can0 281 [4] 00 00 00 00
1768417658.437061 can0 382 [2] 01 00
1768417658.437062 can0 282 [4] 00 00 00 00
1768417658.437063 can0 481 [8] DB 1C 00 00 00 00 43 00
1768417658.437286 can0 482 [8] DC 1C 00 00 00 00 43 00
1768417658.443921 can0 502 [8] 0F 00 00 00 00 00 00 00
1768417658.446054 can0 080 [0] 
1768417658.446761 can0 181 [6] 21 06 00 00 00 00
1768417658.447265 can0 182 [6] 37 06 00 00 00 00
1768417658.447266 can0 381 [2] DF FF
1768417658.447267 can0 281 [4] 00 00 00 00
1768417658.447268 can0 382 [2] FA FF
1768417658.447268 can0 282 [4] 00 00 00 00
1768417658.447269 can0 481 [8] D9 1C 00 00 00 00 43 00
1768417658.447495 can0 482 [8] DC 1C 00 00 00 00 43 00
1768417658.454190 can0 502 [8] 0F 00 00 00 00 00 00 00
1768417658.456292 can0 080 [0] 
1768417658.457058 can0 182 [6] 37 06 00 00 00 00
1768417658.457520 can0 181 [6] 21 06 00 00 00 00
1768417658.457521 can0 381 [2] 0D 00
1768417658.457522 can0 281 [4] 00 00 00 00
1768417658.457522 can0 382 [2] 01 00
1768417658.457522 can0 282 [4] 00 00 00 00
1768417658.457523 can0 481 [8] DB 1C 00 00 00 00 43 00
1768417658.457790 can0 482 [8] D9 1C 00 00 00 00 43 00
1768417658.464432 can0 502 [8] 0F 00 00 00 00 00 00 00
1768417658.466619 can0 080 [0] 
1768417658.467395 can0 181 [6] 21 06 00 00 00 00
1768417658.467396 can0 381 [2] F2 FF
1768417658.467795 can0 182 [6] 37 06 00 00 00 00
1768417658.467796 can0 281 [4] 00 00 00 00
1768417658.467797 can0 382 [2] FB FF
1768417658.467798 can0 282 [4] 00 00 00 00
1768417658.467798 can0 481 [8] D3 1C 00 00 00 00 43 00
1768417658.468019 can0 482 [8] D7 1C 00 00 00 00 43 00
1768417658.474683 can0 502 [8] 0F 00 00 00 00 00 00 00
1768417658.476774 can0 080 [0] 
1768417658.477598 can0 181 [6] 21 06 00 00 00 00
1768417658.477599 can0 381 [2] 0B 00
1768417658.478050 can0 182 [6] 37 06 00 00 00 00
1768417658.478050 can0 281 [4] 00 00 00 00
1768417658.478051 can0 382 [2] FD FF
1768417658.478051 can0 282 [4] 00 00 00 00
1768417658.478052 can0 481 [8] DB 1C 00 00 00 00 43 00
1768417658.478052 can0 482 [8] D7 1C 00 00 00 00 43 00
1768417658.484885 can0 502 [8] 0F 00 00 00 00 00 00 00
1768417658.486991 can0 080 [0] 
1768417658.487674 can0 181 [6] 21 06 00 00 00 00
1768417658.488169 can0 182 [6] 37 06 00 00 00 00
1768417658.488169 can0 381 [2] 17 00
1768417658.488170 can0 281 [4] 00 00 00 00
1768417658.488170 can0 382 [2] 02 00
1768417658.488171 can0 282 [4] 00 00 00 00
1768417658.488171 can0 481 [8] D8 1C 00 00 00 00 43 00
1768417658.488403 can0 482 [8] D7 1C 00 00 00 00 43 00
1768417658.495120 can0 502 [8] 0F 00 00 00 00 00 00 00
1768417658.497264 can0 080 [0] 
1768417658.498004 can0 181 [6] 21 06 00 00 00 00
1768417658.498471 can0 182 [6] 37 06 00 00 00 00
1768417658.498471 can0 381 [2] 0B 00
1768417658.498471 can0 281 [4] 00 00 00 00
1768417658.498472 can0 382 [2] 01 00
1768417658.498472 can0 282 [4] 00 00 00 00
1768417658.498473 can0 481 [8] DA 1C 00 00 00 00 43 00
1768417658.498784 can0 482 [8] D8 1C 00 00 00 00 43 00
1768417658.505395 can0 502 [8] 0F 00 00 00 00 00 00 00
1768417658.507482 can0 080 [0] 
1768417658.508214 can0 182 [6] 37 06 00 00 00 00
1768417658.508688 can0 181 [6] 21 06 00 00 00 00
1768417658.508689 can0 381 [2] EE FF
1768417658.508690 can0 281 [4] 00 00 00 00
1768417658.508690 can0 382 [2] FB FF
1768417658.508691 can0 282 [4] 00 00 00 00
1768417658.508691 can0 481 [8] DD 1C 00 00 00 00 43 00
1768417658.508924 can0 482 [8] DC 1C 00 00 00 00 43 00
1768417672.912071 can0 000 [2] 80 00
1768417673.012343 can0 000 [2] 01 00
1768417673.112815 can0 602 [8] 2B 40 60 00 06 00 00 00
1768417673.113536 can0 582 [8] 60 40 60 00 00 00 00 00
1768417673.214622 can0 602 [8] 2F 60 60 00 03 00 00 00
1768417673.215491 can0 582 [8] 60 60 60 00 00 00 00 00
1768417673.315919 can0 602 [8] 2B 40 60 00 07 00 00 00
1768417673.316714 can0 582 [8] 60 40 60 00 00 00 00 00
1768417673.418219 can0 602 [8] 2B 40 60 00 0F 00 00 00
1768417673.418937 can0 582 [8] 60 40 60 00 00 00 00 00
1768417673.620182 can0 602 [8] 40 61 60 00 00 00 00 00
1768417673.620855 can0 582 [8] 42 61 60 00 03 00 00 00
1768417673.621103 can0 602 [8] 40 41 60 00 00 00 00 00
1768417673.621878 can0 582 [8] 42 41 60 00 37 06 00 00
1768417673.622130 can0 602 [8] 23 FF 60 00 00 00 00 00
1768417673.622932 can0 582 [8] 60 FF 60 00 00 00 00 00
1768417673.723956 can0 602 [8] 23 FF 60 00 68 C5 FF FF
1768417673.724761 can0 582 [8] 60 FF 60 00 00 00 00 00
1768417673.845192 can0 602 [8] 23 FF 60 00 D0 8A FF FF
1768417673.845985 can0 582 [8] 60 FF 60 00 00 00 00 00
1768417673.967021 can0 602 [8] 23 FF 60 00 38 50 FF FF
1768417673.967794 can0 582 [8] 60 FF 60 00 00 00 00 00
1768417674.088846 can0 602 [8] 23 FF 60 00 A0 15 FF FF
1768417674.089569 can0 582 [8] 60 FF 60 00 00 00 00 00
1768417674.210788 can0 602 [8] 23 FF 60 00 08 DB FE FF
1768417674.211538 can0 582 [8] 60 FF 60 00 00 00 00 00
1768417674.332624 can0 602 [8] 23 FF 60 00 70 A0 FE FF
1768417674.333456 can0 582 [8] 60 FF 60 00 00 00 00 00
1768417674.454888 can0 602 [8] 23 FF 60 00 D8 65 FE FF
1768417674.455683 can0 582 [8] 60 FF 60 00 00 00 00 00
1768417674.576267 can0 602 [8] 23 FF 60 00 40 2B FE FF
1768417674.577059 can0 582 [8] 60 FF 60 00 00 00 00 00
1768417674.698063 can0 602 [8] 23 FF 60 00 A8 F0 FD FF
1768417674.698883 can0 582 [8] 60 FF 60 00 00 00 00 00
1768417674.819485 can0 602 [8] 23 FF 60 00 10 B6 FD FF
1768417674.820225 can0 582 [8] 60 FF 60 00 00 00 00 00
1768417674.940811 can0 602 [8] 23 FF 60 00 78 7B FD FF
1768417674.941580 can0 582 [8] 60 FF 60 00 00 00 00 00
1768417675.062421 can0 602 [8] 23 FF 60 00 E0 40 FD FF
1768417675.063271 can0 582 [8] 60 FF 60 00 00 00 00 00
1768417675.184313 can0 602 [8] 23 FF 60 00 48 06 FD FF
1768417675.185174 can0 582 [8] 60 FF 60 00 00 00 00 00
1768417675.305803 can0 602 [8] 23 FF 60 00 B0 CB FC FF
1768417675.306645 can0 582 [8] 60 FF 60 00 00 00 00 00
1768417675.427639 can0 602 [8] 23 FF 60 00 18 91 FC FF
1768417675.428486 can0 582 [8] 60 FF 60 00 00 00 00 00
1768417675.550366 can0 602 [8] 23 FF 60 00 80 56 FC FF
1768417675.551218 can0 582 [8] 60 FF 60 00 00 00 00 00
1768417675.672359 can0 602 [8] 23 FF 60 00 E8 1B FC FF
1768417675.673130 can0 582 [8] 60 FF 60 00 00 00 00 00
1768417675.794631 can0 602 [8] 23 FF 60 00 50 E1 FB FF
1768417675.795375 can0 582 [8] 60 FF 60 00 00 00 00 00
1768417675.916501 can0 602 [8] 23 FF 60 00 B8 A6 FB FF
1768417675.917269 can0 582 [8] 60 FF 60 00 00 00 00 00
1768417676.038799 can0 602 [8] 23 FF 60 00 20 6C FB FF
1768417676.039578 can0 582 [8] 60 FF 60 00 00 00 00 00
1768417676.161263 can0 602 [8] 23 FF 60 00 20 58 FB FF
1768417676.162227 can0 582 [8] 60 FF 60 00 00 00 00 00
1768417676.283803 can0 602 [8] 40 6C 60 00 00 00 00 00
1768417676.284527 can0 582 [8] 42 6C 60 00 11 6D FB FF
1768417676.785190 can0 602 [8] 40 6C 60 00 00 00 00 00
1768417676.785907 can0 582 [8] 42 6C 60 00 63 61 FB FF
1768417677.286521 can0 602 [8] 40 6C 60 00 00 00 00 00
1768417677.287199 can0 582 [8] 42 6C 60 00 86 67 FB FF
1768417677.787810 can0 602 [8] 40 6C 60 00 00 00 00 00
1768417677.788616 can0 582 [8] 42 6C 60 00 9F 67 FB FF
1768417678.289823 can0 602 [8] 40 6C 60 00 00 00 00 00
1768417678.290551 can0 582 [8] 42 6C 60 00 CD 69 FB FF
1768417678.791649 can0 602 [8] 40 6C 60 00 00 00 00 00
1768417678.792519 can0 582 [8] 42 6C 60 00 DA 63 FB FF
1768417679.293582 can0 602 [8] 40 6C 60 00 00 00 00 00
1768417679.294301 can0 582 [8] 42 6C 60 00 97 6B FB FF
1768417679.794922 can0 602 [8] 40 6C 60 00 00 00 00 00
1768417679.795658 can0 582 [8] 42 6C 60 00 15 6A FB FF
1768417680.296742 can0 602 [8] 40 6C 60 00 00 00 00 00
1768417680.297499 can0 582 [8] 42 6C 60 00 9B 62 FB FF
1768417680.798460 can0 602 [8] 40 6C 60 00 00 00 00 00
1768417680.799290 can0 582 [8] 42 6C 60 00 65 6D FB FF
1768417681.300680 can0 602 [8] 23 FF 60 00 B8 92 FB FF
1768417681.301548 can0 582 [8] 60 FF 60 00 00 00 00 00
1768417681.411348 can0 602 [8] 23 FF 60 00 50 CD FB FF
1768417681.412073 can0 582 [8] 60 FF 60 00 00 00 00 00
1768417681.520921 can0 602 [8] 23 FF 60 00 E8 07 FC FF
1768417681.521647 can0 582 [8] 60 FF 60 00 00 00 00 00
1768417681.630261 can0 602 [8] 23 FF 60 00 80 42 FC FF
1768417681.631143 can0 582 [8] 60 FF 60 00 00 00 00 00
1768417681.740841 can0 602 [8] 23 FF 60 00 18 7D FC FF
1768417681.741642 can0 582 [8] 60 FF 60 00 00 00 00 00
1768417681.851019 can0 602 [8] 23 FF 60 00 B0 B7 FC FF
1768417681.851833 can0 582 [8] 60 FF 60 00 00 00 00 00
1768417681.960211 can0 602 [8] 23 FF 60 00 48 F2 FC FF
1768417681.960983 can0 582 [8] 60 FF 60 00 00 00 00 00
1768417682.069555 can0 602 [8] 23 FF 60 00 E0 2C FD FF
1768417682.070405 can0 582 [8] 60 FF 60 00 00 00 00 00
1768417682.178865 can0 602 [8] 23 FF 60 00 78 67 FD FF
1768417682.179647 can0 582 [8] 60 FF 60 00 00 00 00 00
1768417682.288045 can0 602 [8] 23 FF 60 00 10 A2 FD FF
1768417682.288814 can0 582 [8] 60 FF 60 00 00 00 00 00
1768417682.397807 can0 602 [8] 23 FF 60 00 A8 DC FD FF
1768417682.398597 can0 582 [8] 60 FF 60 00 00 00 00 00
1768417682.507196 can0 602 [8] 23 FF 60 00 40 17 FE FF
1768417682.508050 can0 582 [8] 60 FF 60 00 00 00 00 00
1768417682.616482 can0 602 [8] 23 FF 60 00 D8 51 FE FF
1768417682.617252 can0 582 [8] 60 FF 60 00 00 00 00 00
1768417682.725669 can0 602 [8] 23 FF 60 00 70 8C FE FF
1768417682.726443 can0 582 [8] 60 FF 60 00 00 00 00 00
1768417682.834796 can0 602 [8] 23 FF 60 00 08 C7 FE FF
1768417682.835558 can0 582 [8] 60 FF 60 00 00 00 00 00
1768417682.943889 can0 602 [8] 23 FF 60 00 A0 01 FF FF
1768417682.944707 can0 582 [8] 60 FF 60 00 00 00 00 00
1768417683.053056 can0 602 [8] 23 FF 60 00 38 3C FF FF
1768417683.053849 can0 582 [8] 60 FF 60 00 00 00 00 00
1768417683.162184 can0 602 [8] 23 FF 60 00 D0 76 FF FF
1768417683.162949 can0 582 [8] 60 FF 60 00 00 00 00 00
1768417683.271305 can0 602 [8] 23 FF 60 00 68 B1 FF FF
1768417683.272089 can0 582 [8] 60 FF 60 00 00 00 00 00
1768417683.380415 can0 602 [8] 23 FF 60 00 00 EC FF FF
1768417683.381250 can0 582 [8] 60 FF 60 00 00 00 00 00
1768417683.489543 can0 602 [8] 23 FF 60 00 00 00 00 00
1768417683.490443 can0 582 [8] 60 FF 60 00 00 00 00 00
1768417683.598908 can0 602 [8] 23 FF 60 00 00 00 00 00
1768417683.599680 can0 582 [8] 60 FF 60 00 00 00 00 00
1768417683.700650 can0 602 [8] 2B 40 60 00 07 00 00 00
1768417683.701402 can0 582 [8] 60 40 60 00 00 00 00 00
1768417683.752235 can0 602 [8] 2B 40 60 00 06 00 00 00
1768417683.752962 can0 582 [8] 60 40 60 00 00 00 00 00
1768417825.631232 can0 501 [8] 0F 00 EC E8 02 00 00 00
1768417825.632448 can0 502 [8] 0F 00 EC E8 02 00 00 00
1768417825.633653 can0 080 [0] 
1768417825.634428 can0 182 [6] 21 06 FF FF FF FF
1768417825.634429 can0 382 [2] 04 00
1768417825.634864 can0 181 [6] 21 06 00 00 00 00
1768417825.634866 can0 282 [4] 56 C7 FA FF
1768417825.634867 can0 381 [2] E5 FF
1768417825.634868 can0 281 [4] 00 00 00 00
1768417825.634869 can0 482 [8] D9 1C 00 00 00 00 03 00
1768417825.635062 can0 481 [8] DA 1C 00 00 00 00 43 00
1768417825.641881 can0 501 [8] 0F 00 EC E8 02 00 00 00
1768417825.642979 can0 502 [8] 0F 00 EC E8 02 00 00 00
1768417825.644101 can0 080 [0] 
1768417825.644902 can0 182 [6] 37 02 FF FF FF FF
1768417825.645395 can0 181 [6] 37 02 00 00 00 00
1768417825.645396 can0 381 [2] D0 01
1768417825.645396 can0 281 [4] 01 00 00 00
1768417825.645396 can0 382 [2] C9 01
1768417825.645397 can0 282 [4] 56 C7 FA FF
1768417825.645397 can0 481 [8] C7 1C 00 00 00 00 61 00
1768417825.645622 can0 482 [8] CC 1C 00 00 00 00 21 00
1768417825.652288 can0 501 [8] 0F 00 EC E8 02 00 00 00
1768417825.653372 can0 502 [8] 0F 00 EC E8 02 00 00 00
1768417825.654470 can0 080 [0] 
1768417825.655183 can0 182 [6] 37 02 00 00 00 00
1768417825.655669 can0 181 [6] 37 02 88 03 00 00
1768417825.655670 can0 381 [2] 85 05
1768417825.655670 can0 281 [4] 02 00 00 00
1768417825.655671 can0 382 [2] A8 05
1768417825.655671 can0 282 [4] 57 C7 FA FF
1768417825.655671 can0 481 [8] CA 1C 00 00 00 00 65 00
1768417825.655899 can0 482 [8] C7 1C 00 00 00 00 25 00
1768417825.662686 can0 501 [8] 0F 00 EC E8 02 00 00 00
1768417825.663747 can0 502 [8] 0F 00 EC E8 02 00 00 00
1768417825.664846 can0 080 [0] 
1768417825.665569 can0 182 [6] 37 02 00 00 00 00
1768417825.666095 can0 181 [6] 37 02 92 01 00 00
1768417825.666096 can0 381 [2] 6E 09
1768417825.666096 can0 281 [4] 02 00 00 00
1768417825.666097 can0 382 [2] 8E 09
1768417825.666098 can0 282 [4] 57 C7 FA FF
1768417825.666098 can0 481 [8] BD 1C 00 00 00 00 65 00
1768417825.666326 can0 482 [8] C2 1C 00 00 00 00 25 00
1768417825.673037 can0 501 [8] 0F 00 EC E8 02 00 00 00
1768417825.674191 can0 502 [8] 0F 00 EC E8 02 00 00 00
1768417825.675279 can0 080 [0] 
1768417825.676018 can0 182 [6] 37 02 F1 00 00 00
1768417825.676511 can0 181 [6] 37 02 8A 01 00 00
1768417825.676512 can0 381 [2] 4A 0D
1768417825.676512 can0 281 [4] 03 00 00 00
1768417825.676512 can0 382 [2] 3E 0D
1768417825.676513 can0 282 [4] 58 C7 FA FF
1768417825.676514 can0 481 [8] B3 1C 00 00 00 00 65 00
1768417825.676727 can0 482 [8] B2 1C 00 00 00 00 25 00
1768417825.683416 can0 501 [8] 0F 00 EC E8 02 00 00 00
1768417825.684508 can0 502 [8] 0F 00 EC E8 02 00 00 00
1768417825.685592 can0 080 [0] 
1768417825.686339 can0 181 [6] 37 02 5C 22 01 00
1768417825.686844 can0 182 [6] 37 02 0A 22 01 00
1768417825.686845 can0 381 [2] A2 01
1768417825.686846 can0 281 [4] 54 00 00 00
1768417825.686846 can0 382 [2] D7 01
1768417825.686846 can0 282 [4] A3 C7 FA FF
1768417825.686847 can0 481 [8] E0 1C 00 00 00 00 60 00
1768417825.687073 can0 482 [8] E2 1C 00 00 00 00 20 00
1768417825.693732 can0 501 [8] 0F 00 EC E8 02 00 00 00
1768417825.694841 can0 502 [8] 0F 00 EC E8 02 00 00 00
1768417825.695993 can0 080 [0] 
1768417825.696766 can0 181 [6] 37 02 53 70 01 00
1768417825.696766 can0 381 [2] 20 01
1768417825.697202 can0 182 [6] 37 02 D9 63 01 00
1768417825.697202 can0 281 [4] DC 00 00 00
1768417825.697203 can0 382 [2] AE 01
1768417825.697203 can0 282 [4] 29 C8 FA FF
1768417825.697204 can0 481 [8] E2 1C 00 00 00 00 60 00
1768417825.697428 can0 482 [8] DF 1C 00 00 00 00 20 00
1768417825.704022 can0 501 [8] 0F 00 EC E8 02 00 00 00
1768417825.705111 can0 502 [8] 0F 00 EC E8 02 00 00 00
1768417825.706230 can0 080 [0] 
1768417825.706990 can0 182 [6] 37 02 6D A8 01 00
1768417825.707442 can0 181 [6] 37 02 1D AF 01 00
1768417825.707443 can0 381 [2] 75 01
1768417825.707443 can0 281 [4] 7D 01 00 00
1768417825.707443 can0 382 [2] 9C 01
1768417825.707444 can0 282 [4] C6 C8 FA FF
1768417825.707444 can0 481 [8] D7 1C 00 00 00 00 20 00
1768417825.707671 can0 482 [8] DF 1C 00 00 00 00 20 00
1768417825.714362 can0 501 [8] 0F 00 EC E8 02 00 00 00
1768417825.715482 can0 502 [8] 0F 00 EC E8 02 00 00 00
1768417825.716587 can0 080 [0] 
1768417825.717306 can0 181 [6] 37 02 77 F7 01 00
1768417825.717307 can0 381 [2] 6E 01
1768417825.717747 can0 182 [6] 37 02 0D F5 01 00
1768417825.717748 can0 281 [4] 39 02 00 00
1768417825.717749 can0 382 [2] 99 01
1768417825.717750 can0 282 [4] 85 C9 FA FF
1768417825.717751 can0 481 [8] DF 1C 00 00 00 00 20 00
1768417825.717981 can0 482 [8] D9 1C 00 00 00 00 20 00
1768417825.724703 can0 501 [8] 0F 00 EC E8 02 00 00 00
1768417825.725789 can0 502 [8] 0F 00 EC E8 02 00 00 00
1768417825.726873 can0 080 [0] 
1768417825.727648 can0 181 [6] 37 02 F8 3A 02 00
1768417825.727649 can0 381 [2] 7F 01
1768417825.728090 can0 182 [6] 37 02 65 40 02 00
1768417825.728091 can0 281 [4] 14 03 00 00
1768417825.728091 can0 382 [2] 84 01
1768417825.728092 can0 282 [4] 60 CA FA FF
1768417825.728093 can0 481 [8] D6 1C 00 00 00 00 20 00
1768417825.728326 can0 482 [8] DB 1C 00 00 00 00 20 00
1768417825.735010 can0 501 [8] 0F 00 EC E8 02 00 00 00
1768417825.736111 can0 502 [8] 0F 00 EC E8 02 00 00 00
1768417825.737204 can0 080 [0] 
1768417825.737987 can0 182 [6] 37 02 A6 83 02 00
1768417825.738455 can0 181 [6] 37 02 2A 80 02 00
1768417825.738456 can0 381 [2] A2 01
1768417825.738456 can0 281 [4] 0C 04 00 00
1768417825.738457 can0 382 [2] 86 01
1768417825.738457 can0 282 [4] 53 CB FA FF
1768417825.738458 can0 481 [8] D9 1C 00 00 00 00 20 00
1768417825.738703 can0 482 [8] DC 1C 00 00 00 00 20 00
1768417825.745352 can0 501 [8] 0F 00 EC E8 02 00 00 00
1768417825.746455 can0 502 [8] 0F 00 EC E8 02 00 00 00
1768417825.747555 can0 080 [0] 
1768417825.748313 can0 182 [6] 37 02 5C C4 02 00
1768417825.748774 can0 181 [6] 37 02 0C C8 02 00
1768417825.748775 can0 381 [2] A3 01
1768417825.748775 can0 281 [4] 1F 05 00 00
1768417825.748776 can0 382 [2] B8 01
1768417825.748777 can0 282 [4] 66 CC FA FF
1768417825.748777 can0 481 [8] D7 1C 00 00 00 00 20 00
1768417825.749007 can0 482 [8] D8 1C 00 00 00 00 20 00
1768417825.755747 can0 501 [8] 0F 00 EC E8 02 00 00 00
1768417825.756844 can0 502 [8] 0F 00 EC E8 02 00 00 00
1768417825.757992 can0 080 [0] 
1768417825.758755 can0 181 [6] 37 06 9A D9 02 00
1768417825.759207 can0 182 [6] 37 06 13 E0 02 00
1768417825.759207 can0 381 [2] D7 00
1768417825.759208 can0 281 [4] 47 06 00 00
1768417825.759208 can0 382 [2] 97 00
1768417825.759209 can0 282 [4] 92 CD FA FF
1768417825.759210 can0 481 [8] DE 1C 00 00 00 00 02 00
1768417825.759436 can0 482 [8] E1 1C 00 00 00 00 02 00
1768417825.766016 can0 501 [8] 0F 00 EC E8 02 00 00 00
1768417825.767122 can0 502 [8] 0F 00 EC E8 02 00 00 00
1768417825.768216 can0 080 [0] 
1768417825.769001 can0 181 [6] 37 06 D7 DF 02 00
1768417825.769002 can0 381 [2] 83 00
1768417825.769461 can0 182 [6] 37 06 03 E0 02 00
1768417825.769462 can0 281 [4] 6A 07 00 00
1768417825.769463 can0 382 [2] 9D 00
1768417825.769463 can0 282 [4] B9 CE FA FF
1768417825.769464 can0 481 [8] DB 1C 00 00 00 00 02 00
1768417825.769690 can0 482 [8] DD 1C 00 00 00 00 02 00
1768417825.776379 can0 501 [8] 0F 00 EC E8 02 00 00 00
1768417825.777498 can0 502 [8] 0F 00 EC E8 02 00 00 00
1768417825.778625 can0 080 [0] 
1768417825.779373 can0 182 [6] 37 06 F9 DE 02 00
1768417825.779825 can0 181 [6] 37 06 5B DE 02 00
1768417825.779825 can0 381 [2] A6 00
1768417825.779826 can0 281 [4] 97 08 00 00
1768417825.779827 can0 382 [2] 8A 00
1768417825.779827 can0 282 [4] E1 CF FA FF
1768417825.779827 can0 481 [8] DB 1C 00 00 00 00 02 00
1768417825.780058 can0 482 [8] D9 1C 00 00 00 00 02 00
1768417825.786771 can0 501 [8] 0F 00 EC E8 02 00 00 00
1768417825.787884 can0 502 [8] 0F 00 EC E8 02 00 00 00
1768417825.788981 can0 080 [0] 
1768417825.789672 can0 182 [6] 37 06 80 DC 02 00
1768417825.790169 can0 181 [6] 37 06 4A E0 02 00
1768417825.790169 can0 381 [2] 7C 00
1768417825.790170 can0 281 [4] BE 09 00 00
1768417825.790170 can0 382 [2] 88 00
1768417825.790171 can0 282 [4] 08 D1 FA FF
1768417825.790171 can0 481 [8] DE 1C 00 00 00 00 02 00
1768417825.790398 can0 482 [8] DC 1C 00 00 00 00 02 00
1768417825.797144 can0 501 [8] 0F 00 EC E8 02 00 00 00
1768417825.798266 can0 502 [8] 0F 00 EC E8 02 00 00 00
1768417825.799365 can0 080 [0] 
1768417825.800165 can0 182 [6] 37 06 CC E1 02 00
1768417825.800627 can0 181 [6] 37 06 96 DD 02 00
1768417825.800627 can0 381 [2] AE 00
1768417825.800628 can0 281 [4] EC 0A 00 00
1768417825.800628 can0 382 [2] 7C 00
1768417825.800629 can0 282 [4] 35 D2 FA FF
1768417825.800629 can0 481 [8] DD 1C 00 00 00 00 02 00
1768417825.800855 can0 482 [8] DF 1C 00 00 00 00 02 00
1768417825.807493 can0 501 [8] 0F 00 EC E8 02 00 00 00
1768417825.808595 can0 502 [8] 0F 00 EC E8 02 00 00 00
1768417825.809677 can0 080 [0] 
1768417825.810425 can0 181 [6] 37 06 2C DE 02 00
1768417825.810889 can0 182 [6] 37 06 E6 DE 02 00
1768417825.810891 can0 381 [2] AE 00
1768417825.810891 can0 281 [4] 11 0C 00 00
1768417825.810892 can0 382 [2] B1 00
1768417825.810892 can0 282 [4] 5C D3 FA FF
1768417825.810893 can0 481 [8] D9 1C 00 00 00 00 02 00
1768417825.811163 can0 482 [8] D8 1C 00 00 00 00 02 00
1768417825.817827 can0 501 [8] 0F 00 EC E8 02 00 00 00
1768417825.818990 can0 502 [8] 0F 00 EC E8 02 00 00 00
1768417825.820056 can0 080 [0] 
1768417825.820833 can0 181 [6] 37 06 F6 DD 02 00
1768417825.821331 can0 182 [6] 37 06 B5 D8 02 00
1768417825.821332 can0 381 [2] A4 00
1768417825.821332 can0 281 [4] 3B 0D 00 00
1768417825.821332 can0 382 [2] 04 01
1768417825.821333 can0 282 [4] 88 D4 FA FF
1768417825.821333 can0 481 [8] DC 1C 00 00 00 00 02 00
1768417825.821558 can0 482 [8] DC 1C 00 00 00 00 02 00
1768417825.828195 can0 501 [8] 0F 00 EC E8 02 00 00 00
1768417825.829293 can0 502 [8] 0F 00 EC E8 02 00 00 00
1768417825.830401 can0 080 [0] 
1768417825.831121 can0 182 [6] 37 06 43 D9 02 00
1768417825.831622 can0 181 [6] 37 06 43 E0 02 00
1768417825.831623 can0 381 [2] 84 00
1768417825.831623 can0 281 [4] 63 0E 00 00
1768417825.831624 can0 382 [2] DE 00
1768417825.831625 can0 282 [4] AC D5 FA FF
1768417825.831625 can0 481 [8] DF 1C 00 00 00 00 02 00
1768417825.831851 can0 482 [8] DB 1C 00 00 00 00 02 00
1768417825.838566 can0 501 [8] 0F 00 EC E8 02 00 00 00
1768417825.839669 can0 502 [8] 0F 00 EC E8 02 00 00 00
1768417825.840764 can0 080 [0] 
1768417825.841489 can0 181 [6] 37 06 98 DB 02 00
1768417825.841986 can0 182 [6] 37 06 48 DF 02 00
1768417825.841987 can0 381 [2] 94 00
1768417825.841988 can0 281 [4] 8D 0F 00 00
1768417825.841988 can0 382 [2] AD 00
1768417825.841989 can0 282 [4] D5 D6 FA FF
1768417825.841989 can0 481 [8] D9 1C 00 00 00 00 02 00
1768417825.842218 can0 482 [8] DD 1C 00 00 00 00 02 00
1768417825.848985 can0 501 [8] 0F 00 EC E8 02 00 00 00
1768417825.850140 can0 502 [8] 0F 00 EC E8 02 00 00 00
1768417825.851231 can0 080 [0] 
1768417825.851991 can0 182 [6] 37 06 98 DC 02 00
1768417825.852462 can0 181 [6] 37 06 27 E3 02 00
1768417825.852463 can0 381 [2] 6A 00
1768417825.852463 can0 281 [4] BA 10 00 00
1768417825.852464 can0 382 [2] B7 00
1768417825.852464 can0 282 [4] FE D7 FA FF
1768417825.852465 can0 481 [8] DA 1C 00 00 00 00 02 00
1768417825.852691 can0 482 [8] DB 1C 00 00 00 00 02 00
1768417825.859405 can0 501 [8] 0F 00 EC E8 02 00 00 00
1768417825.860513 can0 502 [8] 0F 00 EC E8 02 00 00 00
1768417825.861607 can0 080 [0] 
1768417825.862406 can0 181 [6] 37 06 C4 DB 02 00
1768417825.862837 can0 182 [6] 37 06 24 DA 02 00
1768417825.862838 can0 381 [2] AA 00
1768417825.862838 can0 281 [4] E0 11 00 00
1768417825.862839 can0 382 [2] D9 00
1768417825.862839 can0 282 [4] 29 D9 FA FF
1768417825.862840 can0 481 [8] D9 1C 00 00 00 00 02 00
1768417825.863068 can0 482 [8] DB 1C 00 00 00 00 02 00
1768417825.869761 can0 501 [8] 0F 00 EC E8 02 00 00 00
1768417825.870833 can0 502 [8] 0F 00 EC E8 02 00 00 00
1768417825.871984 can0 080 [0] 
1768417825.872760 can0 182 [6] 37 06 55 D5 02 00
1768417825.872761 can0 382 [2] DE 00
1768417825.873171 can0 181 [6] 37 06 2D DB 02 00
1768417825.873172 can0 282 [4] 4F DA FA FF
1768417825.873172 can0 381 [2] A0 00
1768417825.873173 can0 281 [4] 0C 13 00 00
1768417825.873173 can0 482 [8] DD 1C 00 00 00 00 02 00
1768417825.873405 can0 481 [8] DB 1C 00 00 00 00 02 00
1768417825.880084 can0 501 [8] 0F 00 EC E8 02 00 00 00
1768417825.881186 can0 502 [8] 0F 00 EC E8 02 00 00 00
1768417825.882285 can0 080 [0] 
1768417825.883074 can0 182 [6] 37 06 E7 DC 02 00
1768417825.883074 can0 382 [2] 9C 00
1768417825.883494 can0 282 [4] 73 DB FA FF
1768417825.883495 can0 181 [6] 37 06 E5 DC 02 00
1768417825.883495 can0 381 [2] 94 00
1768417825.883496 can0 281 [4] 33 14 00 00
1768417825.883496 can0 482 [8] D9 1C 00 00 00 00 02 00
1768417825.883728 can0 481 [8] D9 1C 00 00 00 00 02 00
1768417825.890414 can0 501 [8] 0F 00 EC E8 02 00 00 00
1768417825.891519 can0 502 [8] 0F 00 EC E8 02 00 00 00
1768417825.892624 can0 080 [0] 
1768417825.893357 can0 182 [6] 37 06 CB E4 02 00
1768417825.893819 can0 181 [6] 37 06 78 DB 02 00
1768417825.893820 can0 381 [2] 9F 00
1768417825.893821 can0 281 [4] 59 15 00 00
1768417825.893821 can0 382 [2] 79 00
1768417825.893821 can0 282 [4] 9D DC FA FF
1768417825.893822 can0 481 [8] DB 1C 00 00 00 00 02 00
1768417825.894048 can0 482 [8] DC 1C 00 00 00 00 02 00
1768417825.900752 can0 501 [8] 0F 00 EC E8 02 00 00 00
1768417825.901872 can0 502 [8] 0F 00 EC E8 02 00 00 00
1768417825.902991 can0 080 [0] 
1768417825.903762 can0 182 [6] 37 06 2C D7 02 00
1768417825.904216 can0 181 [6] 37 06 BA DB 02 00
1768417825.904216 can0 381 [2] A9 00
1768417825.904217 can0 281 [4] 80 16 00 00
1768417825.904217 can0 382 [2] AA 00
1768417825.904217 can0 282 [4] C7 DD FA FF
1768417825.904218 can0 481 [8] DB 1C 00 00 00 00 02 00
1768417825.904450 can0 482 [8] DC 1C 00 00 00 00 02 00
1768417825.911103 can0 501 [8] 0F 00 EC E8 02 00 00 00
1768417825.912222 can0 502 [8] 0F 00 EC E8 02 00 00 00
1768417825.913330 can0 080 [0] 
1768417825.914060 can0 182 [6] 37 06 BB DA 02 00
1768417825.914523 can0 181 [6] 37 06 8F E0 02 00
1768417825.914524 can0 381 [2] 8B 00
1768417825.914525 can0 281 [4] AA 17 00 00
1768417825.914525 can0 382 [2] 82 00
1768417825.914526 can0 282 [4] EF DE FA FF
1768417825.914526 can0 481 [8] DA 1C 00 00 00 00 02 00
1768417825.914752 can0 482 [8] DF 1C 00 00 00 00 02 00
1768417825.921448 can0 501 [8] 0F 00 EC E8 02 00 00 00
1768417825.922582 can0 502 [8] 0F 00 EC E8 02 00 00 00
1768417825.923699 can0 080 [0] 
1768417825.924433 can0 182 [6] 37 06 09 DE 02 00
1768417825.924883 can0 181 [6] 37 06 06 DD 02 00
1768417825.924884 can0 381 [2] 8E 00
1768417825.924885 can0 281 [4] D1 18 00 00
1768417825.924885 can0 382 [2] C6 00
1768417825.924886 can0 282 [4] 19 E0 FA FF
1768417825.924886 can0 481 [8] DA 1C 00 00 00 00 02 00
1768417825.925165 can0 482 [8] DB 1C 00 00 00 00 02 00
1768417825.931842 can0 501 [8] 0F 00 EC E8 02 00 00 00
1768417825.932997 can0 502 [8] 0F 00 EC E8 02 00 00 00
1768417825.934083 can0 080 [0] 
1768417825.934791 can0 181 [6] 37 06 EC D9 02 00
1768417825.935290 can0 182 [6] 37 06 63 D8 02 00
1768417825.935291 can0 381 [2] C0 00
1768417825.935291 can0 281 [4] FB 19 00 00
1768417825.935292 can0 382 [2] C4 00
1768417825.935292 can0 282 [4] 42 E1 FA FF
1768417825.935293 can0 481 [8] D9 1C 00 00 00 00 02 00
1768417825.935524 can0 482 [8] E0 1C 00 00 00 00 02 00
1768417825.942209 can0 501 [8] 0F 00 EC E8 02 00 00 00
1768417825.943299 can0 502 [8] 0F 00 EC E8 02 00 00 00
1768417825.944404 can0 080 [0] 
1768417825.945188 can0 181 [6] 37 06 5D DA 02 00
1768417825.945641 can0 182 [6] 37 06 0E D6 02 00
1768417825.945642 can0 381 [2] B9 00
1768417825.945642 can0 281 [4] 23 1B 00 00
1768417825.945642 can0 382 [2] E2 00
1768417825.945643 can0 282 [4] 6C E2 FA FF
1768417825.945643 can0 481 [8] D3 1C 00 00 00 00 02 00
1768417825.945864 can0 482 [8] DD 1C 00 00 00 00 02 00
1768417825.952619 can0 501 [8] 0F 00 EC E8 02 00 00 00
1768417825.953700 can0 502 [8] 0F 00 EC E8 02 00 00 00
1768417825.954785 can0 080 [0] 
1768417825.955612 can0 182 [6] 37 06 52 DB 02 00
1768417825.955612 can0 382 [2] FB 00
1768417825.955994 can0 181 [6] 37 06 75 DB 02 00
1768417825.955995 can0 282 [4] 8E E3 FA FF
1768417825.955995 can0 381 [2] 94 00
1768417825.955996 can0 281 [4] 50 1C 00 00
1768417825.955997 can0 482 [8] DB 1C 00 00 00 00 02 00
1768417825.956229 can0 481 [8] DC 1C 00 00 00 00 02 00
1768417825.963042 can0 501 [8] 0F 00 EC E8 02 00 00 00
1768417825.964199 can0 502 [8] 0F 00 EC E8 02 00 00 00
1768417825.965288 can0 080 [0] 
1768417825.966054 can0 182 [6] 37 06 16 DD 02 00
1768417825.966494 can0 181 [6] 37 06 FF E1 02 00
1768417825.966495 can0 381 [2] 62 00
1768417825.966495 can0 281 [4] 7B 1D 00 00
1768417825.966496 can0 382 [2] EE 00
1768417825.966496 can0 282 [4] BC E4 FA FF
1768417825.966497 can0 481 [8] DD 1C 00 00 00 00 02 00
1768417825.966703 can0 482 [8] DF 1C 00 00 00 00 02 00
1768417825.973388 can0 501 [8] 0F 00 EC E8 02 00 00 00
1768417825.974476 can0 502 [8] 0F 00 EC E8 02 00 00 00
1768417825.975615 can0 080 [0] 
1768417825.976376 can0 182 [6] 37 06 C8 D3 02 00
1768417825.976377 can0 382 [2] E8 00
1768417825.976795 can0 181 [6] 37 06 4A DE 02 00
1768417825.976796 can0 282 [4] E2 E5 FA FF
1768417825.976796 can0 381 [2] 8A 00
1768417825.976797 can0 281 [4] A5 1E 00 00
1768417825.976797 can0 482 [8] E0 1C 00 00 00 00 02 00
1768417825.977026 can0 481 [8] D7 1C 00 00 00 00 02 00
1768417825.983727 can0 501 [8] 0F 00 EC E8 02 00 00 00
1768417825.984825 can0 502 [8] 0F 00 EC E8 02 00 00 00
1768417825.985996 can0 080 [0] 
1768417825.986750 can0 182 [6] 37 06 2A DA 02 00
1768417825.987178 can0 181 [6] 37 06 B1 D9 02 00
1768417825.987179 can0 381 [2] DA 00
1768417825.987179 can0 281 [4] CB 1F 00 00
1768417825.987180 can0 382 [2] 9B 00
1768417825.987180 can0 282 [4] 0B E7 FA FF
1768417825.987181 can0 481 [8] D4 1C 00 00 00 00 02 00
1768417825.987412 can0 482 [8] DA 1C 00 00 00 00 02 00
1768417825.994035 can0 501 [8] 0F 00 EC E8 02 00 00 00
1768417825.995131 can0 502 [8] 0F 00 EC E8 02 00 00 00
1768417825.996252 can0 080 [0] 
1768417825.997030 can0 181 [6] 37 06 07 DC 02 00
1768417825.997526 can0 182 [6] 37 06 46 D7 02 00
1768417825.997526 can0 381 [2] B2 00
1768417825.997527 can0 281 [4] F2 20 00 00
1768417825.997528 can0 382 [2] E6 00
1768417825.997528 can0 282 [4] 30 E8 FA FF
1768417825.997528 can0 481 [8] DC 1C 00 00 00 00 02 00
1768417825.997760 can0 482 [8] E0 1C 00 00 00 00 02 00
1768417826.004401 can0 501 [8] 0F 00 EC E8 02 00 00 00
1768417826.005496 can0 502 [8] 0F 00 EC E8 02 00 00 00
1768417826.006589 can0 080 [0] 
1768417826.007370 can0 182 [6] 37 06 CC DB 02 00
1768417826.007821 can0 181 [6] 37 06 FD DC 02 00
1768417826.007821 can0 381 [2] B3 00
1768417826.007822 can0 281 [4] 19 22 00 00
1768417826.007822 can0 382 [2] 9D 00
1768417826.007823 can0 282 [4] 57 E9 FA FF
1768417826.007823 can0 481 [8] DC 1C 00 00 00 00 02 00
1768417826.008045 can0 482 [8] DC 1C 00 00 00 00 02 00
1768417826.014746 can0 501 [8] 0F 00 EC E8 02 00 00 00
1768417826.015836 can0 502 [8] 0F 00 EC E8 02 00 00 00
1768417826.016993 can0 080 [0] 
1768417826.017712 can0 182 [6] 37 06 CF DC 02 00
1768417826.018173 can0 181 [6] 37 06 E4 DB 02 00
1768417826.018174 can0 381 [2] C2 00
1768417826.018175 can0 281 [4] 45 23 00 00
1768417826.018175 can0 382 [2] C4 00
1768417826.018176 can0 282 [4] 7D EA FA FF
1768417826.018176 can0 481 [8] DC 1C 00 00 00 00 02 00
1768417826.018402 can0 482 [8] DF 1C 00 00 00 00 02 00
1768417826.025051 can0 501 [8] 0F 00 EC E8 02 00 00 00
1768417826.026162 can0 502 [8] 0F 00 EC E8 02 00 00 00
1768417826.027237 can0 080 [0] 
1768417826.027993 can0 181 [6] 37 06 01 DC 02 00
1768417826.028458 can0 182 [6] 37 06 5C DD 02 00
1768417826.028459 can0 381 [2] C0 00
1768417826.028460 can0 281 [4] 66 24 00 00
1768417826.028460 can0 382 [2] 7E 00
1768417826.028460 can0 282 [4] A7 EB FA FF
1768417826.028461 can0 481 [8] DD 1C 00 00 00 00 02 00
1768417826.028686 can0 482 [8] DC 1C 00 00 00 00 02 00
1768417826.035350 can0 501 [8] 0F 00 EC E8 02 00 00 00
1768417826.036443 can0 502 [8] 0F 00 EC E8 02 00 00 00
1768417826.037536 can0 080 [0] 
1768417826.038311 can0 182 [6] 37 06 3E D8 02 00
1768417826.038781 can0 181 [6] 37 06 7A DB 02 00
1768417826.038782 can0 381 [2] CD 00
1768417826.038782 can0 281 [4] 90 25 00 00
1768417826.038783 can0 382 [2] C0 00
1768417826.038784 can0 282 [4] CA EC FA FF
1768417826.038784 can0 481 [8] D8 1C 00 00 00 00 02 00
1768417826.039001 can0 482 [8] D9 1C 00 00 00 00 02 00
1768417826.045731 can0 501 [8] 0F 00 EC E8 02 00 00 00
1768417826.046842 can0 502 [8] 0F 00 EC E8 02 00 00 00
1768417826.047985 can0 080 [0] 
1768417826.048712 can0 182 [6] 37 06 C8 DC 02 00
1768417826.049177 can0 181 [6] 37 06 48 D9 02 00
1768417826.049178 can0 381 [2] BA 00
1768417826.049178 can0 281 [4] B9 26 00 00
1768417826.049179 can0 382 [2] 86 00
1768417826.049180 can0 282 [4] F4 ED FA FF
1768417826.049180 can0 481 [8] DE 1C 00 00 00 00 02 00
1768417826.049403 can0 482 [8] DE 1C 00 00 00 00 02 00
1768417826.056151 can0 501 [8] 0F 00 EC E8 02 00 00 00
1768417826.057266 can0 502 [8] 0F 00 EC E8 02 00 00 00
1768417826.058359 can0 080 [0] 
1768417826.059155 can0 182 [6] 37 06 CA DE 02 00
1768417826.059614 can0 181 [6] 37 06 C3 DE 02 00
1768417826.059615 can0 381 [2] 8F 00
1768417826.059616 can0 281 [4] E3 27 00 00
1768417826.059616 can0 382 [2] 9A 00
1768417826.059617 can0 282 [4] 22 EF FA FF
1768417826.059617 can0 481 [8] D7 1C 00 00 00 00 02 00
1768417826.059841 can0 482 [8] DD 1C 00 00 00 00 02 00
1768417826.066548 can0 501 [8] 0F 00 EC E8 02 00 00 00
1768417826.067657 can0 502 [8] 0F 00 EC E8 02 00 00 00
1768417826.068759 can0 080 [0] 
1768417826.069523 can0 181 [6] 37 06 0F DE 02 00
1768417826.069991 can0 182 [6] 37 06 F9 E4 02 00
1768417826.069992 can0 381 [2] 79 00
1768417826.069992 can0 281 [4] 0D 29 00 00
1768417826.069993 can0 382 [2] 60 00
1768417826.069993 can0 282 [4] 4C F0 FA FF
1768417826.069993 can0 481 [8] D9 1C 00 00 00 00 02 00
1768417826.070217 can0 482 [8] DD 1C 00 00 00 00 02 00
1768417826.076988 can0 501 [8] 0F 00 EC E8 02 00 00 00
1768417826.078116 can0 502 [8] 0F 00 EC E8 02 00 00 00
1768417826.079251 can0 080 [0] 
1768417826.080055 can0 181 [6] 37 06 9F E0 02 00
1768417826.080056 can0 381 [2] 8C 00
1768417826.080473 can0 182 [6] 37 06 07 E5 02 00
1768417826.080473 can0 281 [4] 37 2A 00 00
1768417826.080474 can0 382 [2] 52 00
1768417826.080475 can0 282 [4] 78 F1 FA FF
1768417826.080475 can0 481 [8] DA 1C 00 00 00 00 02 00
1768417826.080700 can0 482 [8] DB 1C 00 00 00 00 02 00
1768417826.087427 can0 501 [8] 0F 00 EC E8 02 00 00 00
1768417826.088516 can0 502 [8] 0F 00 EC E8 02 00 00 00
1768417826.089639 can0 080 [0] 
1768417826.090358 can0 182 [6] 37 06 25 D5 02 00
1768417826.090820 can0 181 [6] 37 06 01 DF 02 00
1768417826.090820 can0 381 [2] 74 00
1768417826.090821 can0 281 [4] 64 2B 00 00
1768417826.090821 can0 382 [2] C1 00
1768417826.090822 can0 282 [4] 9F F2 FA FF
1768417826.090822 can0 481 [8] DF 1C 00 00 00 00 02 00
1768417826.091045 can0 482 [8] DB 1C 00 00 00 00 02 00
1768417826.097755 can0 501 [8] 0F 00 EC E8 02 00 00 00
1768417826.098848 can0 502 [8] 0F 00 EC E8 02 00 00 00
1768417826.099995 can0 080 [0] 
1768417826.100668 can0 182 [6] 37 06 D4 DE 02 00
1768417826.101166 can0 181 [6] 37 06 03 E0 02 00
1768417826.101167 can0 381 [2] 96 00
1768417826.101167 can0 281 [4] 8C 2C 00 00
1768417826.101168 can0 382 [2] B6 00
1768417826.101168 can0 282 [4] C5 F3 FA FF
1768417826.101169 can0 481 [8] DC 1C 00 00 00 00 02 00
1768417826.101402 can0 482 [8] DB 1C 00 00 00 00 02 00
1768417826.108044 can0 501 [8] 0F 00 EC E8 02 00 00 00
1768417826.109128 can0 502 [8] 0F 00 EC E8 02 00 00 00
1768417826.110228 can0 080 [0] 
1768417826.110991 can0 182 [6] 37 06 24 D7 02 00
1768417826.111450 can0 181 [6] 37 06 D4 DA 02 00
1768417826.111451 can0 381 [2] AC 00
1768417826.111452 can0 281 [4] B0 2D 00 00
1768417826.111452 can0 382 [2] C8 00
1768417826.111453 can0 282 [4] EB F4 FA FF
1768417826.111453 can0 481 [8] DB 1C 00 00 00 00 02 00
1768417826.111670 can0 482 [8] DD 1C 00 00 00 00 02 00
1768417826.118389 can0 501 [8] 0F 00 EC E8 02 00 00 00
1768417826.119479 can0 502 [8] 0F 00 EC E8 02 00 00 00
1768417826.120564 can0 080 [0] 
1768417826.121317 can0 182 [6] 37 06 7A DF 02 00
1768417826.121778 can0 181 [6] 37 06 B2 DE 02 00
1768417826.121778 can0 381 [2] 9F 00
1768417826.121778 can0 281 [4] DB 2E 00 00
1768417826.121779 can0 382 [2] AC 00
1768417826.121779 can0 282 [4] 14 F6 FA FF
1768417826.121780 can0 481 [8] D7 1C 00 00 00 00 02 00
1768417826.121992 can0 482 [8] D9 1C 00 00 00 00 02 00
1768417826.128696 can0 501 [8] 0F 00 EC E8 02 00 00 00
1768417826.129798 can0 502 [8] 0F 00 EC E8 02 00 00 00
1768417826.130891 can0 080 [0] 
1768417826.131636 can0 181 [6] 37 06 6A DF 02 00
1768417826.132102 can0 182 [6] 37 06 09 DA 02 00
1768417826.132103 can0 381 [2] 75 00
1768417826.132104 can0 281 [4] 02 30 00 00
1768417826.132104 can0 382 [2] BD 00
1768417826.132105 can0 282 [4] 3A F7 FA FF
1768417826.132105 can0 481 [8] DD 1C 00 00 00 00 02 00
1768417826.132326 can0 482 [8] DF 1C 00 00 00 00 02 00
1768417826.139062 can0 501 [8] 0F 00 EC E8 02 00 00 00
1768417826.140181 can0 502 [8] 0F 00 EC E8 02 00 00 00
1768417826.141267 can0 080 [0] 
1768417826.142015 can0 182 [6] 37 06 4A D3 02 00
1768417826.142475 can0 181 [6] 37 06 CC DB 02 00
1768417826.142476 can0 381 [2] AB 00
1768417826.142476 can0 281 [4] 2B 31 00 00
1768417826.142477 can0 382 [2] BB 00
1768417826.142477 can0 282 [4] 63 F8 FA FF
1768417826.142478 can0 481 [8] DB 1C 00 00 00 00 02 00
1768417826.142705 can0 482 [8] D8 1C 00 00 00 00 02 00
1768417826.149399 can0 501 [8] 0F 00 EC E8 02 00 00 00
1768417826.150497 can0 502 [8] 0F 00 EC E8 02 00 00 00
1768417826.151615 can0 080 [0] 
1768417826.152340 can0 181 [6] 37 06 29 E1 02 00
1768417826.152797 can0 182 [6] 37 06 92 DE 02 00
1768417826.152798 can0 381 [2] 77 00
1768417826.152798 can0 281 [4] 51 32 00 00
1768417826.152798 can0 382 [2] B0 00
1768417826.152799 can0 282 [4] 89 F9 FA FF
1768417826.152799 can0 481 [8] DB 1C 00 00 00 00 02 00
1768417826.153031 can0 482 [8] DA 1C 00 00 00 00 02 00
1768417826.159736 can0 501 [8] 0F 00 EC E8 02 00 00 00
1768417826.160841 can0 502 [8] 0F 00 EC E8 02 00 00 00
1768417826.161995 can0 080 [0] 
1768417826.162707 can0 182 [6] 37 06 1B E0 02 00
1768417826.163209 can0 181 [6] 37 06 40 DC 02 00
1768417826.163210 can0 381 [2] AE 00
1768417826.163211 can0 281 [4] 7A 33 00 00
1768417826.163211 can0 382 [2] 95 00
1768417826.163212 can0 282 [4] B1 FA FA FF
1768417826.163212 can0 481 [8] D7 1C 00 00 00 00 02 00
1768417826.163438 can0 482 [8] D8 1C 00 00 00 00 02 00
1768417826.170053 can0 501 [8] 0F 00 EC E8 02 00 00 00
1768417826.171161 can0 502 [8] 0F 00 EC E8 02 00 00 00
1768417826.172256 can0 080 [0] 
1768417826.173018 can0 182 [6] 37 06 65 E5 02 00
1768417826.173470 can0 181 [6] 37 06 3A DC 02 00
1768417826.173471 can0 381 [2] A4 00
1768417826.173471 can0 281 [4] A1 34 00 00
1768417826.173472 can0 382 [2] 5B 00
1768417826.173472 can0 282 [4] D5 FB FA FF
1768417826.173473 can0 481 [8] DB 1C 00 00 00 00 02 00
1768417826.173703 can0 482 [8] D9 1C 00 00 00 00 02 00
1768417826.180396 can0 501 [8] 0F 00 EC E8 02 00 00 00
1768417826.181506 can0 502 [8] 0F 00 EC E8 02 00 00 00
1768417826.182599 can0 080 [0] 
1768417826.183358 can0 182 [6] 37 06 4A DD 02 00
1768417826.183820 can0 181 [6] 37 06 7F DB 02 00
1768417826.183820 can0 381 [2] CB 00
1768417826.183820 can0 281 [4] CA 35 00 00
1768417826.183821 can0 382 [2] 6B 00
1768417826.183821 can0 282 [4] FF FC FA FF
1768417826.183822 can0 481 [8] DC 1C 00 00 00 00 02 00
1768417826.184049 can0 482 [8] DD 1C 00 00 00 00 02 00
1768417826.190733 can0 501 [8] 0F 00 EC E8 02 00 00 00
1768417826.191821 can0 502 [8] 0F 00 EC E8 02 00 00 00
1768417826.192988 can0 080 [0] 
1768417826.193753 can0 182 [6] 37 06 E3 DB 02 00
1768417826.194216 can0 181 [6] 37 06 7E DB 02 00
1768417826.194216 can0 381 [2] 9D 00
1768417826.194217 can0 281 [4] F1 36 00 00
1768417826.194217 can0 382 [2] 9D 00
1768417826.194218 can0 282 [4] 2A FE FA FF
1768417826.194218 can0 481 [8] DB 1C 00 00 00 00 02 00
1768417826.194443 can0 482 [8] E0 1C 00 00 00 00 02 00
1768417826.201048 can0 501 [8] 0F 00 EC E8 02 00 00 00
1768417826.202162 can0 502 [8] 0F 00 EC E8 02 00 00 00
1768417826.203248 can0 080 [0] 
1768417826.204013 can0 182 [6] 37 06 F0 E2 02 00
1768417826.204474 can0 181 [6] 37 06 AA DE 02 00
1768417826.204475 can0 381 [2] 87 00
1768417826.204475 can0 281 [4] 18 38 00 00
1768417826.204476 can0 382 [2] 67 00
1768417826.204476 can0 282 [4] 51 FF FA FF
1768417826.204477 can0 481 [8] D8 1C 00 00 00 00 02 00
1768417826.204703 can0 482 [8] D9 1C 00 00 00 00 02 00
1768417826.211386 can0 501 [8] 0F 00 EC E8 02 00 00 00
1768417826.212479 can0 502 [8] 0F 00 EC E8 02 00 00 00
1768417826.213558 can0 080 [0] 
1768417826.214266 can0 182 [6] 37 06 D9 E0 02 00
1768417826.214764 can0 181 [6] 37 06 50 E1 02 00
1768417826.214765 can0 381 [2] 62 00
1768417826.214765 can0 281 [4] 40 39 00 00
1768417826.214765 can0 382 [2] 80 00
1768417826.214766 can0 282 [4] 77 00 FB FF
1768417826.214766 can0 481 [8] DE 1C 00 00 00 00 02 00
1768417826.214988 can0 482 [8] DB 1C 00 00 00 00 02 00
1768417826.221699 can0 501 [8] 0F 00 EC E8 02 00 00 00
1768417826.222804 can0 502 [8] 0F 00 EC E8 02 00 00 00
1768417826.223892 can0 080 [0] 
1768417826.224655 can0 181 [6] 37 06 DC DB 02 00
1768417826.224656 can0 381 [2] B3 00
1768417826.225093 can0 182 [6] 37 06 BF DB 02 00
1768417826.225094 can0 281 [4] 68 3A 00 00
1768417826.225095 can0 382 [2] 8D 00
1768417826.225095 can0 282 [4] A4 01 FB FF
1768417826.225096 can0 481 [8] D7 1C 00 00 00 00 02 00
1768417826.225321 can0 482 [8] D8 1C 00 00 00 00 02 00
1768417826.232032 can0 501 [8] 0F 00 EC E8 02 00 00 00
1768417826.233130 can0 502 [8] 0F 00 EC E8 02 00 00 00
1768417826.234208 can0 080 [0] 
1768417826.235004 can0 181 [6] 37 06 3A E0 02 00
1768417826.235005 can0 381 [2] 7C 00
1768417826.235439 can0 182 [6] 37 06 13 DD 02 00
1768417826.235440 can0 281 [4] 90 3B 00 00
1768417826.235440 can0 382 [2] 96 00
1768417826.235440 can0 282 [4] CB 02 FB FF
1768417826.235441 can0 481 [8] DB 1C 00 00 00 00 02 00
1768417826.235668 can0 482 [8] D9 1C 00 00 00 00 02 00
1768417826.242371 can0 501 [8] 0F 00 EC E8 02 00 00 00
1768417826.243445 can0 502 [8] 0F 00 EC E8 02 00 00 00
1768417826.244557 can0 080 [0] 
1768417826.245317 can0 182 [6] 37 06 F5 E5 02 00
1768417826.245777 can0 181 [6] 37 06 9D E0 02 00
1768417826.245777 can0 381 [2] 74 00
1768417826.245778 can0 281 [4] BA 3C 00 00
1768417826.245778 can0 382 [2] B1 00
1768417826.245779 can0 282 [4] F1 03 FB FF
1768417826.245780 can0 481 [8] DB 1C 00 00 00 00 02 00
1768417826.246008 can0 482 [8] DB 1C 00 00 00 00 02 00
1768417826.252691 can0 501 [8] 0F 00 EC E8 02 00 00 00
1768417826.253776 can0 502 [8] 0F 00 EC E8 02 00 00 00
1768417826.254858 can0 080 [0] 
1768417826.255580 can0 181 [6] 37 06 E8 DD 02 00
1768417826.256044 can0 182 [6] 37 06 86 DF 02 00
1768417826.256044 can0 381 [2] 82 00
1768417826.256045 can0 281 [4] E1 3D 00 00
1768417826.256045 can0 382 [2] 91 00
1768417826.256046 can0 282 [4] 14 05 FB FF
1768417826.256046 can0 481 [8] D5 1C 00 00 00 00 02 00
1768417826.256272 can0 482 [8] DA 1C 00 00 00 00 02 00
1768417826.263029 can0 501 [8] 0F 00 EC E8 02 00 00 00
1768417826.264132 can0 502 [8] 0F 00 EC E8 02 00 00 00
1768417826.265237 can0 080 [0] 
1768417826.265988 can0 181 [6] 37 06 8D DD 02 00
1768417826.266438 can0 182 [6] 37 06 6A DF 02 00
1768417826.266439 can0 381 [2] A3 00
1768417826.266439 can0 281 [4] 08 3F 00 00
1768417826.266440 can0 382 [2] AE 00
1768417826.266441 can0 282 [4] 3D 06 FB FF
1768417826.266441 can0 481 [8] D6 1C 00 00 00 00 02 00
1768417826.266667 can0 482 [8] DD 1C 00 00 00 00 02 00
1768417826.273357 can0 501 [8] 0F 00 EC E8 02 00 00 00
1768417826.274441 can0 502 [8] 0F 00 EC E8 02 00 00 00
1768417826.275520 can0 080 [0] 
1768417826.276249 can0 182 [6] 37 06 87 D5 02 00
1768417826.276716 can0 181 [6] 37 06 F0 D9 02 00
1768417826.276716 can0 381 [2] B9 00
1768417826.276717 can0 281 [4] 32 40 00 00
1768417826.276718 can0 382 [2] 0A 01
1768417826.276718 can0 282 [4] 62 07 FB FF
1768417826.276719 can0 481 [8] D5 1C 00 00 00 00 02 00
1768417826.276987 can0 482 [8] D9 1C 00 00 00 00 02 00
1768417826.283634 can0 501 [8] 0F 00 EC E8 02 00 00 00
1768417826.284734 can0 502 [8] 0F 00 EC E8 02 00 00 00
1768417826.285838 can0 080 [0] 
1768417826.286584 can0 181 [6] 37 06 FC D9 02 00
1768417826.287044 can0 182 [6] 37 06 2F E2 02 00
1768417826.287044 can0 381 [2] C3 00
1768417826.287045 can0 281 [4] 55 41 00 00
1768417826.287045 can0 382 [2] 92 00
1768417826.287046 can0 282 [4] 89 08 FB FF
1768417826.287046 can0 481 [8] D6 1C 00 00 00 00 02 00
1768417826.287272 can0 482 [8] D8 1C 00 00 00 00 02 00
1768417826.293996 can0 501 [8] 0F 00 EC E8 02 00 00 00
1768417826.295046 can0 502 [8] 0F 00 EC E8 02 00 00 00
1768417826.296138 can0 080 [0] 
1768417826.296887 can0 181 [6] 37 06 22 DC 02 00
1768417826.297422 can0 182 [6] 37 06 AD DF 02 00
1768417826.297423 can0 381 [2] CB 00
1768417826.297423 can0 281 [4] 7E 42 00 00
1768417826.297424 can0 382 [2] 9D 00
1768417826.297424 can0 282 [4] B1 09 FB FF
1768417826.297425 can0 481 [8] E0 1C 00 00 00 00 02 00
1768417826.297605 can0 482 [8] D8 1C 00 00 00 00 02 00
1768417826.304343 can0 501 [8] 0F 00 EC E8 02 00 00 00
1768417826.305440 can0 502 [8] 0F 00 EC E8 02 00 00 00
1768417826.306538 can0 080 [0] 
1768417826.307277 can0 181 [6] 37 06 23 DA 02 00
1768417826.307799 can0 182 [6] 37 06 3A D6 02 00
1768417826.307800 can0 381 [2] CD 00
1768417826.307800 can0 281 [4] A8 43 00 00
1768417826.307801 can0 382 [2] DA 00
1768417826.307801 can0 282 [4] D7 0A FB FF
1768417826.307801 can0 481 [8] D3 1C 00 00 00 00 02 00
1768417826.308018 can0 482 [8] D4 1C 00 00 00 00 02 00
1768417826.314665 can0 501 [8] 0F 00 EC E8 02 00 00 00
1768417826.315764 can0 502 [8] 0F 00 EC E8 02 00 00 00
1768417826.316845 can0 080 [0] 
1768417826.317604 can0 182 [6] 37 06 6D DD 02 00
1768417826.318070 can0 181 [6] 37 06 61 D9 02 00
1768417826.318071 can0 381 [2] C6 00
1768417826.318072 can0 281 [4] CE 44 00 00
1768417826.318072 can0 382 [2] CC 00
1768417826.318073 can0 282 [4] FE 0B FB FF
1768417826.318073 can0 481 [8] D7 1C 00 00 00 00 02 00
1768417826.318301 can0 482 [8] D7 1C 00 00 00 00 02 00
1768417826.325025 can0 501 [8] 0F 00 EC E8 02 00 00 00
1768417826.326143 can0 502 [8] 0F 00 EC E8 02 00 00 00
1768417826.327239 can0 080 [0] 
1768417826.327988 can0 181 [6] 37 06 B4 DD 02 00
1768417826.328439 can0 182 [6] 37 06 C6 E2 02 00
1768417826.328440 can0 381 [2] 9B 00
1768417826.328440 can0 281 [4] F7 45 00 00
1768417826.328441 can0 382 [2] 7F 00
1768417826.328441 can0 282 [4] 29 0D FB FF
1768417826.328442 can0 481 [8] D8 1C 00 00 00 00 02 00
1768417826.328673 can0 482 [8] D7 1C 00 00 00 00 02 00
1768417826.335361 can0 501 [8] 0F 00 EC E8 02 00 00 00
1768417826.336450 can0 502 [8] 0F 00 EC E8 02 00 00 00
1768417826.337533 can0 080 [0] 
1768417826.338284 can0 181 [6] 37 06 70 E1 02 00
1768417826.338749 can0 182 [6] 37 06 19 DF 02 00
1768417826.338749 can0 381 [2] 97 00
1768417826.338750 can0 281 [4] 1E 47 00 00
1768417826.338750 can0 382 [2] 9C 00
1768417826.338751 can0 282 [4] 54 0E FB FF
1768417826.338751 can0 481 [8] D5 1C 00 00 00 00 02 00
1768417826.338987 can0 482 [8] DB 1C 00 00 00 00 02 00
1768417826.345690 can0 501 [8] 0F 00 EC E8 02 00 00 00
1768417826.346810 can0 502 [8] 0F 00 EC E8 02 00 00 00
1768417826.347996 can0 080 [0] 
1768417826.348684 can0 181 [6] 37 06 85 DE 02 00
1768417826.349184 can0 182 [6] 37 06 A7 E0 02 00
1768417826.349184 can0 381 [2] 74 00
1768417826.349185 can0 281 [4] 49 48 00 00
1768417826.349185 can0 382 [2] 6A 00
1768417826.349186 can0 282 [4] 7F 0F FB FF
1768417826.349186 can0 481 [8] D8 1C 00 00 00 00 02 00
1768417826.349408 can0 482 [8] D9 1C 00 00 00 00 02 00
1768417826.356006 can0 501 [8] 0F 00 EC E8 02 00 00 00
1768417826.357099 can0 502 [8] 0F 00 EC E8 02 00 00 00
1768417826.358185 can0 080 [0] 
1768417826.358990 can0 182 [6] 37 06 5D E0 02 00
1768417826.359461 can0 181 [6] 37 06 6E DE 02 00
1768417826.359461 can0 381 [2] 99 00
1768417826.359462 can0 281 [4] 70 49 00 00
1768417826.359462 can0 382 [2] 6F 00
1768417826.359463 can0 282 [4] A3 10 FB FF
1768417826.359463 can0 481 [8] D9 1C 00 00 00 00 02 00
1768417826.359637 can0 482 [8] DC 1C 00 00 00 00 02 00
1768417826.366320 can0 501 [8] 0F 00 EC E8 02 00 00 00
1768417826.367415 can0 502 [8] 0F 00 EC E8 02 00 00 00
1768417826.368522 can0 080 [0] 
1768417826.369259 can0 182 [6] 37 06 4B E2 02 00
1768417826.369747 can0 181 [6] 37 06 BE DC 02 00
1768417826.369748 can0 381 [2] B3 00
1768417826.369748 can0 281 [4] 98 4A 00 00
1768417826.369748 can0 382 [2] 6C 00
1768417826.369749 can0 282 [4] C8 11 FB FF
1768417826.369749 can0 481 [8] D7 1C 00 00 00 00 02 00
1768417826.369983 can0 482 [8] DA 1C 00 00 00 00 02 00
1768417826.376639 can0 501 [8] 0F 00 EC E8 02 00 00 00
1768417826.377741 can0 502 [8] 0F 00 EC E8 02 00 00 00
1768417826.378833 can0 080 [0] 
1768417826.379555 can0 182 [6] 37 06 26 D9 02 00
1768417826.380018 can0 181 [6] 37 06 62 DD 02 00
1768417826.380019 can0 381 [2] AA 00
1768417826.380019 can0 281 [4] C0 4B 00 00
1768417826.380020 can0 382 [2] B7 00
1768417826.380020 can0 282 [4] EE 12 FB FF
1768417826.380021 can0 481 [8] D2 1C 00 00 00 00 02 00
1768417826.380250 can0 482 [8] DA 1C 00 00 00 00 02 00
1768417826.387000 can0 501 [8] 0F 00 EC E8 02 00 00 00
1768417826.388122 can0 502 [8] 0F 00 EC E8 02 00 00 00
1768417826.389239 can0 080 [0] 
1768417826.390001 can0 181 [6] 37 06 D3 E0 02 00
1768417826.390002 can0 381 [2] 78 00
1768417826.390438 can0 182 [6] 37 06 67 D4 02 00
1768417826.390438 can0 281 [4] E7 4C 00 00
1768417826.390439 can0 382 [2] 0D 01
1768417826.390439 can0 282 [4] 1A 14 FB FF
1768417826.390439 can0 481 [8] D4 1C 00 00 00 00 02 00
1768417826.390665 can0 482 [8] D5 1C 00 00 00 00 02 00
1768417826.397351 can0 501 [8] 0F 00 EC E8 02 00 00 00
1768417826.398459 can0 502 [8] 0F 00 EC E8 02 00 00 00
1768417826.399550 can0 080 [0] 
1768417826.400297 can0 182 [6] 37 06 74 E1 02 00
1768417826.400763 can0 181 [6] 37 06 38 E1 02 00
1768417826.400764 can0 381 [2] 90 00
1768417826.400764 can0 281 [4] 12 4E 00 00
1768417826.400764 can0 382 [2] 91 00
1768417826.400765 can0 282 [4] 3D 15 FB FF
1768417826.400766 can0 481 [8] D7 1C 00 00 00 00 02 00
1768417826.400994 can0 482 [8] D9 1C 00 00 00 00 02 00
1768417826.407748 can0 501 [8] 0F 00 EC E8 02 00 00 00
1768417826.408851 can0 502 [8] 0F 00 EC E8 02 00 00 00
1768417826.409987 can0 080 [0] 
1768417826.410742 can0 182 [6] 37 06 70 DC 02 00
1768417826.411204 can0 181 [6] 37 06 E8 DF 02 00
1768417826.411204 can0 381 [2] 77 00
1768417826.411205 can0 281 [4] 3C 4F 00 00
1768417826.411205 can0 382 [2] B6 00
1768417826.411206 can0 282 [4] 69 16 FB FF
1768417826.411206 can0 481 [8] D6 1C 00 00 00 00 02 00
1768417826.411436 can0 482 [8] DA 1C 00 00 00 00 02 00
1768417826.418088 can0 501 [8] 0F 00 EC E8 02 00 00 00
1768417826.419193 can0 502 [8] 0F 00 EC E8 02 00 00 00
1768417826.420308 can0 080 [0] 
1768417826.421070 can0 181 [6] 37 06 F1 DF 02 00
1768417826.421530 can0 182 [6] 37 06 22 DB 02 00
1768417826.421531 can0 381 [2] 84 00
1768417826.421531 can0 281 [4] 62 50 00 00
1768417826.421532 can0 382 [2] CC 00
1768417826.421532 can0 282 [4] 92 17 FB FF
1768417826.421533 can0 481 [8] D8 1C 00 00 00 00 02 00
1768417826.421759 can0 482 [8] D9 1C 00 00 00 00 02 00
1768417826.428442 can0 501 [8] 0F 00 EC E8 02 00 00 00
1768417826.429559 can0 502 [8] 0F 00 EC E8 02 00 00 00
1768417826.430669 can0 080 [0] 
1768417826.431431 can0 181 [6] 37 06 7E DD 02 00
1768417826.431890 can0 182 [6] 37 06 2A DA 02 00
1768417826.431891 can0 381 [2] A6 00
1768417826.431891 can0 281 [4] 8C 51 00 00
1768417826.431892 can0 382 [2] C6 00
1768417826.431892 can0 282 [4] B8 18 FB FF
1768417826.431892 can0 481 [8] DA 1C 00 00 00 00 02 00
1768417826.432161 can0 482 [8] DB 1C 00 00 00 00 02 00
1768417826.438833 can0 501 [8] 0F 00 EC E8 02 00 00 00
1768417826.439993 can0 502 [8] 0F 00 EC E8 02 00 00 00
1768417826.440981 can0 080 [0] 
1768417826.441723 can0 181 [6] 37 06 F5 DA 02 00
1768417826.442184 can0 182 [6] 37 06 2A DC 02 00
1768417826.442185 can0 381 [2] CB 00
1768417826.442185 can0 281 [4] B3 52 00 00
1768417826.442186 can0 382 [2] A9 00
1768417826.442186 can0 282 [4] DE 19 FB FF
1768417826.442187 can0 481 [8] D8 1C 00 00 00 00 02 00
1768417826.442420 can0 482 [8] D7 1C 00 00 00 00 02 00
1768417826.449121 can0 501 [8] 0F 00 EC E8 02 00 00 00
1768417826.450248 can0 502 [8] 0F 00 EC E8 02 00 00 00
1768417826.451353 can0 080 [0] 
1768417826.452100 can0 182 [6] 37 06 2F E2 02 00
1768417826.452578 can0 181 [6] 37 06 7C DD 02 00
1768417826.452578 can0 381 [2] A2 00
1768417826.452579 can0 281 [4] DC 53 00 00
1768417826.452579 can0 382 [2] 7F 00
1768417826.452579 can0 282 [4] 05 1B FB FF
1768417826.452580 can0 481 [8] DA 1C 00 00 00 00 02 00
1768417826.452805 can0 482 [8] DD 1C 00 00 00 00 02 00
1768417826.459493 can0 501 [8] 0F 00 EC E8 02 00 00 00
1768417826.460575 can0 502 [8] 0F 00 EC E8 02 00 00 00
1768417826.461666 can0 080 [0] 
1768417826.462431 can0 181 [6] 37 06 23 DA 02 00
1768417826.462887 can0 182 [6] 37 06 42 DF 02 00
1768417826.462888 can0 381 [2] F2 00
1768417826.462888 can0 281 [4] 02 55 00 00
1768417826.462889 can0 382 [2] 53 00
1768417826.462889 can0 282 [4] 2F 1C FB FF
1768417826.462890 can0 481 [8] DB 1C 00 00 00 00 02 00
1768417826.463158 can0 482 [8] D9 1C 00 00 00 00 02 00
1768417826.469829 can0 501 [8] 0F 00 EC E8 02 00 00 00
1768417826.470990 can0 502 [8] 0F 00 EC E8 02 00 00 00
1768417826.472065 can0 080 [0] 
1768417826.472820 can0 181 [6] 37 06 EB DD 02 00
1768417826.473281 can0 182 [6] 37 06 24 DD 02 00
1768417826.473282 can0 381 [2] 8C 00
1768417826.473282 can0 281 [4] 2C 56 00 00
1768417826.473283 can0 382 [2] 6F 00
1768417826.473283 can0 282 [4] 5A 1D FB FF
1768417826.473284 can0 481 [8] DB 1C 00 00 00 00 02 00
1768417826.473509 can0 482 [8] DA 1C 00 00 00 00 02 00
1768417826.480176 can0 501 [8] 0F 00 EC E8 02 00 00 00
1768417826.481265 can0 502 [8] 0F 00 EC E8 02 00 00 00
1768417826.482364 can0 080 [0] 
1768417826.483099 can0 182 [6] 37 06 4C E4 02 00
1768417826.483560 can0 181 [6] 37 06 28 DE 02 00
1768417826.483560 can0 381 [2] A3 00
1768417826.483561 can0 281 [4] 56 57 00 00
1768417826.483561 can0 382 [2] 38 00
1768417826.483562 can0 282 [4] 7F 1E FB FF
1768417826.483562 can0 481 [8] E1 1C 00 00 00 00 02 00
1768417826.483790 can0 482 [8] E1 1C 00 00 00 00 02 00
1768417826.490494 can0 501 [8] 0F 00 EC E8 02 00 00 00
1768417826.491586 can0 502 [8] 0F 00 EC E8 02 00 00 00
1768417826.492703 can0 080 [0] 
1768417826.493492 can0 182 [6] 37 06 C7 DB 02 00
1768417826.493988 can0 181 [6] 37 06 5B DD 02 00
1768417826.493989 can0 381 [2] B0 00
1768417826.493989 can0 281 [4] 7E 58 00 00
1768417826.493990 can0 382 [2] C4 00
1768417826.493990 can0 282 [4] A9 1F FB FF
1768417826.493991 can0 481 [8] DD 1C 00 00 00 00 02 00
1768417826.494205 can0 482 [8] DB 1C 00 00 00 00 02 00
1768417826.500819 can0 501 [8] 0F 00 EC E8 02 00 00 00
1768417826.501992 can0 502 [8] 0F 00 EC E8 02 00 00 00
1768417826.502976 can0 080 [0] 
1768417826.503704 can0 182 [6] 37 06 BF D9 02 00
1768417826.504165 can0 181 [6] 37 06 8A DB 02 00
1768417826.504166 can0 381 [2] B8 00
1768417826.504166 can0 281 [4] A2 59 00 00
1768417826.504167 can0 382 [2] 8F 00
1768417826.504167 can0 282 [4] CC 20 FB FF
1768417826.504168 can0 481 [8] D9 1C 00 00 00 00 02 00
1768417826.504389 can0 482 [8] DC 1C 00 00 00 00 02 00
1768417826.511103 can0 501 [8] 0F 00 EC E8 02 00 00 00
1768417826.512205 can0 502 [8] 0F 00 EC E8 02 00 00 00
1768417826.513322 can0 080 [0] 
1768417826.514075 can0 181 [6] 37 06 FD DF 02 00
1768417826.514534 can0 182 [6] 37 06 DB DF 02 00
1768417826.514535 can0 381 [2] 8D 00
1768417826.514535 can0 281 [4] CA 5A 00 00
1768417826.514535 can0 382 [2] B7 00
1768417826.514535 can0 282 [4] F8 21 FB FF
1768417826.514536 can0 481 [8] D8 1C 00 00 00 00 02 00
1768417826.514761 can0 482 [8] DB 1C 00 00 00 00 02 00
1768417826.521435 can0 501 [8] 0F 00 EC E8 02 00 00 00
1768417826.522503 can0 502 [8] 0F 00 EC E8 02 00 00 00
1768417826.523610 can0 080 [0] 
1768417826.524350 can0 182 [6] 37 06 4E D7 02 00
1768417826.524812 can0 181 [6] 37 06 7A E1 02 00
1768417826.524813 can0 381 [2] 53 00
1768417826.524813 can0 281 [4] F2 5B 00 00
1768417826.524814 can0 382 [2] D6 00
1768417826.524814 can0 282 [4] 1B 23 FB FF
1768417826.524815 can0 481 [8] D7 1C 00 00 00 00 02 00
1768417826.525044 can0 482 [8] DA 1C 00 00 00 00 02 00
1768417826.531756 can0 501 [8] 0F 00 EC E8 02 00 00 00
1768417826.532833 can0 502 [8] 0F 00 EC E8 02 00 00 00
1768417826.533995 can0 080 [0] 
1768417826.534779 can0 182 [6] 37 06 AF DC 02 00
1768417826.534781 can0 382 [2] D9 00
1768417826.535194 can0 181 [6] 37 06 67 DD 02 00
1768417826.535195 can0 282 [4] 44 24 FB FF
1768417826.535195 can0 381 [2] 9E 00
1768417826.535196 can0 281 [4] 1E 5D 00 00
1768417826.535196 can0 482 [8] D6 1C 00 00 00 00 02 00
1768417826.535422 can0 481 [8] D6 1C 00 00 00 00 02 00
1768417826.542094 can0 501 [8] 0F 00 EC E8 02 00 00 00
1768417826.543187 can0 502 [8] 0F 00 EC E8 02 00 00 00
1768417826.544291 can0 080 [0] 
1768417826.545023 can0 181 [6] 37 06 BB DC 02 00
1768417826.545480 can0 182 [6] 37 06 7A D6 02 00
1768417826.545480 can0 381 [2] A8 00
1768417826.545481 can0 281 [4] 43 5E 00 00
1768417826.545481 can0 382 [2] EF 00
1768417826.545482 can0 282 [4] 6A 25 FB FF
1768417826.545482 can0 481 [8] D4 1C 00 00 00 00 02 00
1768417826.545714 can0 482 [8] DB 1C 00 00 00 00 02 00
1768417826.552423 can0 501 [8] 0F 00 EC E8 02 00 00 00
1768417826.553506 can0 502 [8] 0F 00 EC E8 02 00 00 00
1768417826.554607 can0 080 [0] 
1768417826.555396 can0 182 [6] 37 06 CB DE 02 00
1768417826.555854 can0 181 [6] 37 06 F6 D6 02 00
1768417826.555855 can0 381 [2] CA 00
1768417826.555855 can0 281 [4] 6C 5F 00 00
1768417826.555856 can0 382 [2] B5 00
1768417826.555856 can0 282 [4] 91 26 FB FF
1768417826.555856 can0 481 [8] D9 1C 00 00 00 00 02 00
1768417826.556085 can0 482 [8] D8 1C 00 00 00 00 02 00
1768417826.562747 can0 501 [8] 0F 00 EC E8 02 00 00 00
1768417826.563827 can0 502 [8] 0F 00 EC E8 02 00 00 00
1768417826.564992 can0 080 [0] 
1768417826.565744 can0 182 [6] 37 06 DB D9 02 00
1768417826.566206 can0 181 [6] 37 06 FF DA 02 00
1768417826.566207 can0 381 [2] C3 00
1768417826.566207 can0 281 [4] 93 60 00 00
1768417826.566207 can0 382 [2] C4 00
1768417826.566207 can0 282 [4] BA 27 FB FF
1768417826.566208 can0 481 [8] D4 1C 00 00 00 00 02 00
1768417826.566436 can0 482 [8] D6 1C 00 00 00 00 02 00
1768417826.573067 can0 501 [8] 0F 00 EC E8 02 00 00 00
1768417826.574147 can0 502 [8] 0F 00 EC E8 02 00 00 00
1768417826.575245 can0 080 [0] 
1768417826.575993 can0 181 [6] 37 06 FD DC 02 00
1768417826.576471 can0 182 [6] 37 06 91 D5 02 00
1768417826.576472 can0 381 [2] BC 00
1768417826.576473 can0 281 [4] BA 61 00 00
1768417826.576473 can0 382 [2] AD 00
1768417826.576473 can0 282 [4] E0 28 FB FF
1768417826.576474 can0 481 [8] DA 1C 00 00 00 00 02 00
1768417826.576704 can0 482 [8] DA 1C 00 00 00 00 02 00
1768417826.583389 can0 501 [8] 0F 00 EC E8 02 00 00 00
1768417826.584471 can0 502 [8] 0F 00 EC E8 02 00 00 00
1768417826.585567 can0 080 [0] 
1768417826.586300 can0 182 [6] 37 06 A5 E0 02 00
1768417826.586762 can0 181 [6] 37 06 62 D9 02 00
1768417826.586763 can0 381 [2] CD 00
1768417826.586763 can0 281 [4] E0 62 00 00
1768417826.586764 can0 382 [2] 71 00
1768417826.586764 can0 282 [4] 04 2A FB FF
1768417826.586765 can0 481 [8] D7 1C 00 00 00 00 02 00
1768417826.586991 can0 482 [8] E0 1C 00 00 00 00 02 00
1768417826.593685 can0 501 [8] 0F 00 EC E8 02 00 00 00
1768417826.594765 can0 502 [8] 0F 00 EC E8 02 00 00 00
1768417826.595853 can0 080 [0] 
1768417826.596604 can0 182 [6] 37 06 72 DB 02 00
1768417826.597064 can0 181 [6] 37 06 C9 DF 02 00
1768417826.597065 can0 381 [2] 8A 00
1768417826.597066 can0 281 [4] 06 64 00 00
1768417826.597066 can0 382 [2] 8B 00
1768417826.597067 can0 282 [4] 2B 2B FB FF
1768417826.597067 can0 481 [8] DB 1C 00 00 00 00 02 00
1768417826.597294 can0 482 [8] D8 1C 00 00 00 00 02 00
1768417826.603976 can0 501 [8] 0F 00 EC E8 02 00 00 00
1768417826.605088 can0 502 [8] 0F 00 EC E8 02 00 00 00
1768417826.606169 can0 080 [0] 
1768417826.606995 can0 182 [6] 37 06 F6 E0 02 00
1768417826.607467 can0 181 [6] 37 06 31 DF 02 00
1768417826.607467 can0 381 [2] 9B 00
1768417826.607468 can0 281 [4] 30 65 00 00
1768417826.607469 can0 382 [2] 74 00
1768417826.607469 can0 282 [4] 55 2C FB FF
1768417826.607470 can0 481 [8] DA 1C 00 00 00 00 02 00
1768417826.607648 can0 482 [8] D8 1C 00 00 00 00 02 00
1768417826.614280 can0 501 [8] 0F 00 EC E8 02 00 00 00
1768417826.615361 can0 502 [8] 0F 00 EC E8 02 00 00 00
1768417826.616442 can0 080 [0] 
1768417826.617196 can0 181 [6] 37 06 41 DC 02 00
1768417826.617196 can0 381 [2] BA 00
1768417826.617622 can0 182 [6] 37 06 E6 DD 02 00
1768417826.617623 can0 281 [4] 51 66 00 00
1768417826.617624 can0 382 [2] B1 00
1768417826.617624 can0 282 [4] 7E 2D FB FF
1768417826.617625 can0 481 [8] D2 1C 00 00 00 00 02 00
1768417826.617855 can0 482 [8] D9 1C 00 00 00 00 02 00
1768417826.624574 can0 501 [8] 0F 00 EC E8 02 00 00 00
1768417826.625669 can0 502 [8] 0F 00 EC E8 02 00 00 00
1768417826.626752 can0 080 [0] 
1768417826.627548 can0 182 [6] 37 06 6F E0 02 00
1768417826.628011 can0 181 [6] 37 06 C9 E0 02 00
1768417826.628011 can0 381 [2] 67 00
1768417826.628011 can0 281 [4] 7E 67 00 00
1768417826.628012 can0 382 [2] 80 00
1768417826.628012 can0 282 [4] A6 2E FB FF
1768417826.628013 can0 481 [8] D7 1C 00 00 00 00 02 00
1768417826.628234 can0 482 [8] DF 1C 00 00 00 00 02 00
1768417826.634892 can0 501 [8] 0F 00 EC E8 02 00 00 00
1768417826.635984 can0 502 [8] 0F 00 EC E8 02 00 00 00
1768417826.637079 can0 080 [0] 
1768417826.637864 can0 182 [6] 37 06 17 E4 02 00
1768417826.637865 can0 382 [2] A1 00
1768417826.638363 can0 181 [6] 37 06 82 DF 02 00
1768417826.638363 can0 282 [4] CD 2F FB FF
1768417826.638364 can0 381 [2] 90 00
1768417826.638364 can0 281 [4] A6 68 00 00
1768417826.638364 can0 482 [8] D9 1C 00 00 00 00 02 00
1768417826.638364 can0 481 [8] D2 1C 00 00 00 00 02 00
1768417826.645245 can0 501 [8] 0F 00 EC E8 02 00 00 00
1768417826.646361 can0 502 [8] 0F 00 EC E8 02 00 00 00
1768417826.647449 can0 080 [0] 
1768417826.648169 can0 181 [6] 37 06 13 DD 02 00
1768417826.648670 can0 182 [6] 37 06 BB DB 02 00
1768417826.648670 can0 381 [2] 80 00
1768417826.648671 can0 281 [4] CD 69 00 00
1768417826.648671 can0 382 [2] A7 00
1768417826.648672 can0 282 [4] F6 30 FB FF
1768417826.648672 can0 481 [8] D7 1C 00 00 00 00 02 00
1768417826.648901 can0 482 [8] DC 1C 00 00 00 00 02 00
1768417826.655583 can0 501 [8] 0F 00 EC E8 02 00 00 00
1768417826.656670 can0 502 [8] 0F 00 EC E8 02 00 00 00
1768417826.657752 can0 080 [0] 
1768417826.658550 can0 182 [6] 37 06 B2 D9 02 00
1768417826.659009 can0 181 [6] 37 06 99 D9 02 00
1768417826.659009 can0 381 [2] B3 00
1768417826.659010 can0 281 [4] F5 6A 00 00
1768417826.659010 can0 382 [2] FE 00
1768417826.659011 can0 282 [4] 1C 32 FB FF
1768417826.659011 can0 481 [8] DB 1C 00 00 00 00 02 00
1768417826.659238 can0 482 [8] D6 1C 00 00 00 00 02 00
1768417826.665893 can0 501 [8] 0F 00 EC E8 02 00 00 00
1768417826.667001 can0 502 [8] 0F 00 EC E8 02 00 00 00
1768417826.668080 can0 080 [0] 
1768417826.668814 can0 181 [6] 37 06 70 DC 02 00
1768417826.669275 can0 182 [6] 37 06 82 D7 02 00
1768417826.669276 can0 381 [2] 8B 00
1768417826.669277 can0 281 [4] 1D 6C 00 00
1768417826.669277 can0 382 [2] B0 00
1768417826.669278 can0 282 [4] 43 33 FB FF
1768417826.669278 can0 481 [8] D8 1C 00 00 00 00 02 00
1768417826.669503 can0 482 [8] D8 1C 00 00 00 00 02 00
1768417826.676188 can0 501 [8] 0F 00 EC E8 02 00 00 00
1768417826.677267 can0 502 [8] 0F 00 EC E8 02 00 00 00
1768417826.678350 can0 080 [0] 
1768417826.679070 can0 181 [6] 37 06 AE DD 02 00
1768417826.679536 can0 182 [6] 37 06 5D DF 02 00
1768417826.679537 can0 381 [2] AC 00
1768417826.679537 can0 281 [4] 41 6D 00 00
1768417826.679538 can0 382 [2] A6 00
1768417826.679538 can0 282 [4] 69 34 FB FF
1768417826.679539 can0 481 [8] D7 1C 00 00 00 00 02 00
1768417826.679763 can0 482 [8] D8 1C 00 00 00 00 02 00
1768417826.686466 can0 501 [8] 0F 00 EC E8 02 00 00 00
1768417826.687545 can0 502 [8] 0F 00 EC E8 02 00 00 00
1768417826.688622 can0 080 [0] 
1768417826.689368 can0 181 [6] 37 06 FA DF 02 00
1768417826.689866 can0 182 [6] 37 06 FC D5 02 00
1768417826.689867 can0 381 [2] 88 00
1768417826.689867 can0 281 [4] 6A 6E 00 00
1768417826.689867 can0 382 [2] ED 00
1768417826.689869 can0 282 [4] 8F 35 FB FF
1768417826.689869 can0 481 [8] D5 1C 00 00 00 00 02 00
1768417826.690155 can0 482 [8] DA 1C 00 00 00 00 02 00
1768417826.696766 can0 501 [8] 0F 00 EC E8 02 00 00 00
1768417826.697849 can0 502 [8] 0F 00 EC E8 02 00 00 00
1768417826.698991 can0 080 [0] 
1768417826.699724 can0 182 [6] 37 06 2B DD 02 00
1768417826.699725 can0 382 [2] D6 00
1768417826.700163 can0 181 [6] 37 06 7E E2 02 00
1768417826.700164 can0 282 [4] B5 36 FB FF
1768417826.700164 can0 381 [2] 74 00
1768417826.700165 can0 281 [4] 94 6F 00 00
1768417826.700165 can0 482 [8] D8 1C 00 00 00 00 02 00
1768417826.700387 can0 481 [8] D9 1C 00 00 00 00 02 00
1768417826.707017 can0 501 [8] 0F 00 EC E8 02 00 00 00
1768417826.708113 can0 502 [8] 0F 00 EC E8 02 00 00 00
1768417826.709199 can0 080 [0] 
1768417826.709987 can0 182 [6] 37 06 E4 E1 02 00
1768417826.710436 can0 181 [6] 37 06 10 E0 02 00
1768417826.710436 can0 381 [2] 85 00
1768417826.710437 can0 281 [4] B7 70 00 00
1768417826.710437 can0 382 [2] 98 00
1768417826.710438 can0 282 [4] D9 37 FB FF
1768417826.710438 can0 481 [8] DA 1C 00 00 00 00 02 00
1768417826.710663 can0 482 [8] D4 1C 00 00 00 00 02 00
1768417826.717322 can0 501 [8] 0F 00 EC E8 02 00 00 00
1768417826.718401 can0 502 [8] 0F 00 EC E8 02 00 00 00
1768417826.719485 can0 080 [0] 
1768417826.720209 can0 181 [6] 37 06 B9 E0 02 00
1768417826.720671 can0 182 [6] 37 06 72 DF 02 00
1768417826.720672 can0 381 [2] 90 00
1768417826.720673 can0 281 [4] DB 71 00 00
1768417826.720673 can0 382 [2] 4F 00
1768417826.720674 can0 282 [4] FF 38 FB FF
1768417826.720674 can0 481 [8] DA 1C 00 00 00 00 02 00
1768417826.720982 can0 482 [8] D8 1C 00 00 00 00 02 00
1768417826.727611 can0 501 [8] 0F 00 EC E8 02 00 00 00
1768417826.728699 can0 502 [8] 0F 00 EC E8 02 00 00 00
1768417826.729788 can0 080 [0] 
1768417826.730550 can0 182 [6] 37 06 81 DF 02 00
1768417826.731014 can0 181 [6] 37 06 24 DC 02 00
1768417826.731014 can0 381 [2] AF 00
1768417826.731014 can0 281 [4] 05 73 00 00
1768417826.731015 can0 382 [2] B1 00
1768417826.731015 can0 282 [4] 26 3A FB FF
1768417826.731015 can0 481 [8] D5 1C 00 00 00 00 02 00
1768417826.731242 can0 482 [8] D9 1C 00 00 00 00 02 00
1768417826.737890 can0 501 [8] 0F 00 EC E8 02 00 00 00
1768417826.738973 can0 502 [8] 0F 00 EC E8 02 00 00 00
1768417826.740054 can0 080 [0] 
1768417826.740795 can0 182 [6] 37 06 A3 DE 02 00
1768417826.741261 can0 181 [6] 37 06 1A DA 02 00
1768417826.741262 can0 381 [2] B9 00
1768417826.741262 can0 281 [4] 29 74 00 00
1768417826.741263 can0 382 [2] C5 00
1768417826.741263 can0 282 [4] 4B 3B FB FF
1768417826.741264 can0 481 [8] D3 1C 00 00 00 00 02 00
1768417826.741489 can0 482 [8] DB 1C 00 00 00 00 02 00
1768417826.748181 can0 501 [8] 0F 00 EC E8 02 00 00 00
1768417826.749270 can0 502 [8] 0F 00 EC E8 02 00 00 00
1768417826.750407 can0 080 [0] 
1768417826.751156 can0 182 [6] 37 06 D0 DE 02 00
1768417826.751620 can0 181 [6] 37 06 9E DF 02 00
1768417826.751620 can0 381 [2] 96 00
1768417826.751621 can0 281 [4] 50 75 00 00
1768417826.751621 can0 382 [2] 81 00
1768417826.751622 can0 282 [4] 76 3C FB FF
1768417826.751622 can0 481 [8] DD 1C 00 00 00 00 02 00
1768417826.751848 can0 482 [8] DA 1C 00 00 00 00 02 00
1768417826.758533 can0 501 [8] 0F 00 EC E8 02 00 00 00
1768417826.759614 can0 502 [8] 0F 00 EC E8 02 00 00 00
1768417826.760715 can0 080 [0] 
1768417826.761472 can0 181 [6] 37 06 20 DF 02 00
1768417826.761984 can0 182 [6] 37 06 49 E3 02 00
1768417826.761985 can0 381 [2] 8D 00
1768417826.761986 can0 281 [4] 77 76 00 00
1768417826.761986 can0 382 [2] 85 00
1768417826.761986 can0 282 [4] A0 3D FB FF
1768417826.761987 can0 481 [8] DB 1C 00 00 00 00 02 00
1768417826.762219 can0 482 [8] D6 1C 00 00 00 00 02 00
1768417826.768852 can0 501 [8] 0F 00 EC E8 02 00 00 00
1768417826.770008 can0 502 [8] 0F 00 EC E8 02 00 00 00
1768417826.771106 can0 080 [0] 
1768417826.771805 can0 182 [6] 37 06 42 E2 02 00
1768417826.772305 can0 181 [6] 37 06 B6 DD 02 00
1768417826.772306 can0 381 [2] 84 00
1768417826.772306 can0 281 [4] A5 77 00 00
1768417826.772307 can0 382 [2] 61 00
1768417826.772308 can0 282 [4] C9 3E FB FF
1768417826.772308 can0 481 [8] DB 1C 00 00 00 00 02 00
1768417826.772533 can0 482 [8] DB 1C 00 00 00 00 02 00
1768417826.779208 can0 501 [8] 0F 00 EC E8 02 00 00 00
1768417826.780288 can0 502 [8] 0F 00 EC E8 02 00 00 00
1768417826.781379 can0 080 [0] 
1768417826.782142 can0 182 [6] 37 06 E9 E4 02 00
1768417826.782606 can0 181 [6] 37 06 AC DC 02 00
1768417826.782607 can0 381 [2] 88 00
1768417826.782607 can0 281 [4] CD 78 00 00
1768417826.782608 can0 382 [2] 43 00
1768417826.782608 can0 282 [4] F0 3F FB FF
1768417826.782608 can0 481 [8] D8 1C 00 00 00 00 02 00
1768417826.782838 can0 482 [8] DD 1C 00 00 00 00 02 00
1768417826.789516 can0 501 [8] 0F 00 EC E8 02 00 00 00
1768417826.790631 can0 502 [8] 0F 00 EC E8 02 00 00 00
1768417826.791702 can0 080 [0] 
1768417826.792456 can0 181 [6] 37 06 B1 E0 02 00
1768417826.792984 can0 182 [6] 37 06 44 E1 02 00
1768417826.792985 can0 381 [2] 78 00
1768417826.792985 can0 281 [4] F2 79 00 00
1768417826.792985 can0 382 [2] 6D 00
1768417826.792986 can0 282 [4] 17 41 FB FF
1768417826.792986 can0 481 [8] DC 1C 00 00 00 00 02 00
1768417826.793204 can0 482 [8] DB 1C 00 00 00 00 02 00
1768417826.799837 can0 501 [8] 0F 00 EC E8 02 00 00 00
1768417826.800991 can0 502 [8] 0F 00 EC E8 02 00 00 00
1768417826.801980 can0 080 [0] 
1768417826.802672 can0 181 [6] 37 06 85 DF 02 00
1768417826.803171 can0 182 [6] 37 06 FE DC 02 00
1768417826.803172 can0 381 [2] AC 00
1768417826.803173 can0 281 [4] 1A 7B 00 00
1768417826.803173 can0 382 [2] B2 00
1768417826.803174 can0 282 [4] 3D 42 FB FF
1768417826.803174 can0 481 [8] D5 1C 00 00 00 00 02 00
1768417826.803404 can0 482 [8] D2 1C 00 00 00 00 02 00
1768417826.810102 can0 501 [8] 0F 00 EC E8 02 00 00 00
1768417826.811198 can0 502 [8] 0F 00 EC E8 02 00 00 00
1768417826.812300 can0 080 [0] 
1768417826.813093 can0 182 [6] 37 06 1E D9 02 00
1768417826.813557 can0 181 [6] 37 06 71 DC 02 00
1768417826.813557 can0 381 [2] A3 00
1768417826.813558 can0 281 [4] 44 7C 00 00
1768417826.813558 can0 382 [2] C8 00
1768417826.813558 can0 282 [4] 63 43 FB FF
1768417826.813558 can0 481 [8] D8 1C 00 00 00 00 02 00
1768417826.813785 can0 482 [8] D6 1C 00 00 00 00 02 00
1768417826.820400 can0 501 [8] 0F 00 EC E8 02 00 00 00
1768417826.821481 can0 502 [8] 0F 00 EC E8 02 00 00 00
1768417826.822564 can0 080 [0] 
1768417826.823287 can0 182 [6] 37 06 E5 D6 02 00
1768417826.823754 can0 181 [6] 37 06 F2 D7 02 00
1768417826.823755 can0 381 [2] BE 00
1768417826.823755 can0 281 [4] 68 7D 00 00
1768417826.823756 can0 382 [2] E7 00
1768417826.823756 can0 282 [4] 87 44 FB FF
1768417826.823756 can0 481 [8] D3 1C 00 00 00 00 02 00
1768417826.823980 can0 482 [8] D6 1C 00 00 00 00 02 00
1768417826.830667 can0 501 [8] 0F 00 EC E8 02 00 00 00
1768417826.831759 can0 502 [8] 0F 00 EC E8 02 00 00 00
1768417826.832845 can0 080 [0] 
1768417826.833594 can0 182 [6] 37 06 EE DE 02 00
1768417826.834051 can0 181 [6] 37 06 43 D8 02 00
1768417826.834051 can0 381 [2] D6 00
1768417826.834051 can0 281 [4] 8F 7E 00 00
1768417826.834052 can0 382 [2] 8C 00
1768417826.834052 can0 282 [4] AD 45 FB FF
1768417826.834052 can0 481 [8] D7 1C 00 00 00 00 02 00
1768417826.834277 can0 482 [8] D4 1C 00 00 00 00 02 00
1768417826.840970 can0 501 [8] 0F 00 EC E8 02 00 00 00
1768417826.842053 can0 502 [8] 0F 00 EC E8 02 00 00 00
1768417826.843144 can0 080 [0] 
1768417826.843889 can0 182 [6] 37 06 44 D8 02 00
1768417826.844417 can0 181 [6] 37 06 9C D9 02 00
1768417826.844417 can0 381 [2] DD 00
1768417826.844418 can0 281 [4] B6 7F 00 00
1768417826.844419 can0 382 [2] E4 00
1768417826.844419 can0 282 [4] D3 46 FB FF
1768417826.844419 can0 481 [8] DE 1C 00 00 00 00 02 00
1768417826.844593 can0 482 [8] D6 1C 00 00 00 00 02 00
1768417826.851261 can0 501 [8] 0F 00 EC E8 02 00 00 00
1768417826.852341 can0 502 [8] 0F 00 EC E8 02 00 00 00
1768417826.853429 can0 080 [0] 
1768417826.854173 can0 181 [6] 37 06 69 DA 02 00
1768417826.854698 can0 182 [6] 37 06 61 DB 02 00
1768417826.854699 can0 381 [2] AC 00
1768417826.854699 can0 281 [4] D9 80 00 00
1768417826.854699 can0 382 [2] E4 00
1768417826.854700 can0 282 [4] FC 47 FB FF
1768417826.854700 can0 481 [8] DA 1C 00 00 00 00 02 00
1768417826.854978 can0 482 [8] DB 1C 00 00 00 00 02 00
1768417826.861554 can0 501 [8] 0F 00 EC E8 02 00 00 00
1768417826.862644 can0 502 [8] 0F 00 EC E8 02 00 00 00
1768417826.863731 can0 080 [0] 
1768417826.864478 can0 181 [6] 37 06 D6 DB 02 00
1768417826.864986 can0 182 [6] 37 06 1C DB 02 00
1768417826.864987 can0 381 [2] B9 00
1768417826.864987 can0 281 [4] 03 82 00 00
1768417826.864988 can0 382 [2] 9E 00
1768417826.864988 can0 282 [4] 23 49 FB FF
1768417826.864989 can0 481 [8] D5 1C 00 00 00 00 02 00
1768417826.865207 can0 482 [8] DA 1C 00 00 00 00 02 00
1768417826.871856 can0 501 [8] 0F 00 EC E8 02 00 00 00
1768417826.872975 can0 502 [8] 0F 00 EC E8 02 00 00 00
1768417826.874053 can0 080 [0] 
1768417826.874796 can0 182 [6] 37 06 7D DD 02 00
1768417826.875259 can0 181 [6] 37 06 EE DB 02 00
1768417826.875259 can0 381 [2] B0 00
1768417826.875260 can0 281 [4] 2A 83 00 00
1768417826.875260 can0 382 [2] 96 00
1768417826.875260 can0 282 [4] 47 4A FB FF
1768417826.875260 can0 481 [8] DA 1C 00 00 00 00 02 00
1768417826.875479 can0 482 [8] D9 1C 00 00 00 00 02 00
1768417826.882185 can0 501 [8] 0F 00 EC E8 02 00 00 00
1768417826.883284 can0 502 [8] 0F 00 EC E8 02 00 00 00
1768417826.884376 can0 080 [0] 
1768417826.885139 can0 182 [6] 37 06 06 E1 02 00
1768417826.885606 can0 181 [6] 37 06 B6 DC 02 00
1768417826.885607 can0 381 [2] B8 00
1768417826.885607 can0 281 [4] 53 84 00 00
1768417826.885608 can0 382 [2] 99 00
1768417826.885608 can0 282 [4] 71 4B FB FF
1768417826.885609 can0 481 [8] DB 1C 00 00 00 00 02 00
1768417826.885835 can0 482 [8] D8 1C 00 00 00 00 02 00
1768417826.892507 can0 501 [8] 0F 00 EC E8 02 00 00 00
1768417826.893597 can0 502 [8] 0F 00 EC E8 02 00 00 00
1768417826.894691 can0 080 [0] 
1768417826.895374 can0 181 [6] 37 06 A8 DD 02 00
1768417826.895878 can0 182 [6] 37 06 BB E1 02 00
1768417826.895878 can0 381 [2] A6 00
1768417826.895879 can0 281 [4] 77 85 00 00
1768417826.895880 can0 382 [2] 81 00
1768417826.895880 can0 282 [4] 9A 4C FB FF
1768417826.895880 can0 481 [8] D8 1C 00 00 00 00 02 00
1768417826.896159 can0 482 [8] DE 1C 00 00 00 00 02 00
1768417826.902822 can0 501 [8] 0F 00 EC E8 02 00 00 00
1768417826.903991 can0 502 [8] 0F 00 EC E8 02 00 00 00
1768417826.904983 can0 080 [0] 
1768417826.905740 can0 182 [6] 37 06 B0 DE 02 00
1768417826.906199 can0 181 [6] 37 06 53 DE 02 00
1768417826.906199 can0 381 [2] 9D 00
1768417826.906200 can0 281 [4] A2 86 00 00
1768417826.906200 can0 382 [2] AF 00
1768417826.906201 can0 282 [4] C2 4D FB FF
1768417826.906201 can0 481 [8] D8 1C 00 00 00 00 02 00
1768417826.906428 can0 482 [8] DC 1C 00 00 00 00 02 00
1768417826.913094 can0 501 [8] 0F 00 EC E8 02 00 00 00
1768417826.914185 can0 502 [8] 0F 00 EC E8 02 00 00 00
1768417826.915303 can0 080 [0] 
1768417826.916099 can0 182 [6] 37 06 30 DF 02 00
1768417826.916558 can0 181 [6] 37 06 5E E0 02 00
1768417826.916559 can0 381 [2] 6B 00
1768417826.916559 can0 281 [4] CA 87 00 00
1768417826.916559 can0 382 [2] 94 00
1768417826.916559 can0 282 [4] E9 4E FB FF
1768417826.916560 can0 481 [8] D9 1C 00 00 00 00 02 00
1768417826.916791 can0 482 [8] DF 1C 00 00 00 00 02 00
1768417826.923491 can0 501 [8] 0F 00 EC E8 02 00 00 00
1768417826.924638 can0 502 [8] 0F 00 EC E8 02 00 00 00
1768417826.925789 can0 080 [0] 
1768417826.926542 can0 182 [6] 37 06 EC DC 02 00
1768417826.927002 can0 181 [6] 37 06 E6 E1 02 00
1768417826.927003 can0 381 [2] 5E 00
1768417826.927004 can0 281 [4] F7 88 00 00
1768417826.927004 can0 382 [2] C0 00
1768417826.927005 can0 282 [4] 16 50 FB FF
1768417826.927005 can0 481 [8] DC 1C 00 00 00 00 02 00
1768417826.927231 can0 482 [8] DC 1C 00 00 00 00 02 00
1768417826.933977 can0 501 [8] 0F 00 EC E8 02 00 00 00
1768417826.935119 can0 502 [8] 0F 00 EC E8 02 00 00 00
1768417826.936269 can0 080 [0] 
1768417826.937016 can0 181 [6] 37 06 57 DD 02 00
1768417826.937477 can0 182 [6] 37 06 60 D6 02 00
1768417826.937478 can0 381 [2] B9 00
1768417826.937478 can0 281 [4] 22 8A 00 00
1768417826.937478 can0 382 [2] D7 00
1768417826.937479 can0 282 [4] 42 51 FB FF
1768417826.937479 can0 481 [8] D6 1C 00 00 00 00 02 00
1768417826.937714 can0 482 [8] DA 1C 00 00 00 00 02 00
1768417826.944457 can0 501 [8] 0F 00 EC E8 02 00 00 00
1768417826.945565 can0 502 [8] 0F 00 EC E8 02 00 00 00
1768417826.946714 can0 080 [0] 
1768417826.947446 can0 182 [6] 37 06 85 E1 02 00
1768417826.947984 can0 181 [6] 37 06 A7 DD 02 00
1768417826.947985 can0 381 [2] AA 00
1768417826.947986 can0 281 [4] 4F 8B 00 00
1768417826.947986 can0 382 [2] 7E 00
1768417826.947987 can0 282 [4] 6C 52 FB FF
1768417826.947987 can0 481 [8] DB 1C 00 00 00 00 02 00
1768417826.948214 can0 482 [8] D8 1C 00 00 00 00 02 00
1768417826.954891 can0 501 [8] 0F 00 EC E8 02 00 00 00
1768417826.956017 can0 502 [8] 0F 00 EC E8 02 00 00 00
1768417826.957116 can0 080 [0] 
1768417826.957862 can0 181 [6] 37 06 EF DE 02 00
1768417826.958376 can0 182 [6] 37 06 4D E0 02 00
1768417826.958376 can0 381 [2] A4 00
1768417826.958376 can0 281 [4] 76 8C 00 00
1768417826.958377 can0 382 [2] 99 00
1768417826.958377 can0 282 [4] 95 53 FB FF
1768417826.958377 can0 481 [8] D4 1C 00 00 00 00 02 00
1768417826.958551 can0 482 [8] D8 1C 00 00 00 00 02 00
1768417826.965277 can0 501 [8] 0F 00 EC E8 02 00 00 00
1768417826.966363 can0 502 [8] 0F 00 EC E8 02 00 00 00
1768417826.967456 can0 080 [0] 
1768417826.968193 can0 182 [6] 37 06 A4 D6 02 00
1768417826.968724 can0 181 [6] 37 06 CF DD 02 00
1768417826.968725 can0 381 [2] 75 00
1768417826.968726 can0 281 [4] A0 8D 00 00
1768417826.968726 can0 382 [2] D3 00
1768417826.968727 can0 282 [4] BE 54 FB FF
1768417826.968727 can0 481 [8] DE 1C 00 00 00 00 02 00
1768417826.968983 can0 482 [8] DA 1C 00 00 00 00 02 00
1768417826.975579 can0 501 [8] 0F 00 EC E8 02 00 00 00
1768417826.976676 can0 502 [8] 0F 00 EC E8 02 00 00 00
1768417826.977763 can0 080 [0] 
1768417826.978522 can0 182 [6] 37 06 F0 E2 02 00
1768417826.978991 can0 181 [6] 37 06 35 E4 02 00
1768417826.978991 can0 381 [2] 5A 00
1768417826.978992 can0 281 [4] CA 8E 00 00
1768417826.978992 can0 382 [2] 98 00
1768417826.978993 can0 282 [4] E5 55 FB FF
1768417826.978993 can0 481 [8] DE 1C 00 00 00 00 02 00
1768417826.979215 can0 482 [8] DC 1C 00 00 00 00 02 00
1768417826.985986 can0 501 [8] 0F 00 EC E8 02 00 00 00
1768417826.987072 can0 502 [8] 0F 00 EC E8 02 00 00 00
1768417826.988170 can0 080 [0] 
1768417826.988986 can0 181 [6] 37 06 CD DA 02 00
1768417826.989447 can0 182 [6] 37 06 E5 D9 02 00
1768417826.989448 can0 381 [2] 94 00
1768417826.989448 can0 281 [4] F1 8F 00 00
1768417826.989449 can0 382 [2] E0 00
1768417826.989449 can0 282 [4] 0D 57 FB FF
1768417826.989450 can0 481 [8] DC 1C 00 00 00 00 02 00
1768417826.989622 can0 482 [8] DB 1C 00 00 00 00 02 00
1768417826.996289 can0 501 [8] 0F 00 EC E8 02 00 00 00
1768417826.997376 can0 502 [8] 0F 00 EC E8 02 00 00 00
1768417826.998464 can0 080 [0] 
1768417826.999217 can0 181 [6] 37 06 68 DD 02 00
1768417826.999742 can0 182 [6] 37 06 DA DD 02 00
1768417826.999743 can0 381 [2] 98 00
1768417826.999743 can0 281 [4] 17 91 00 00
1768417826.999743 can0 382 [2] 6E 00
1768417826.999744 can0 282 [4] 34 58 FB FF
1768417826.999744 can0 481 [8] DB 1C 00 00 00 00 02 00
1768417826.999980 can0 482 [8] D9 1C 00 00 00 00 02 00
1768417827.006599 can0 501 [8] 0F 00 EC E8 02 00 00 00
1768417827.007669 can0 502 [8] 0F 00 EC E8 02 00 00 00
1768417827.008753 can0 080 [0] 
1768417827.009495 can0 182 [6] 37 06 7B D5 02 00
1768417827.009985 can0 181 [6] 37 06 24 D7 02 00
1768417827.009985 can0 381 [2] D0 00
1768417827.009986 can0 281 [4] 3D 92 00 00
1768417827.009986 can0 382 [2] BD 00
1768417827.009987 can0 282 [4] 57 59 FB FF
1768417827.009987 can0 481 [8] D7 1C 00 00 00 00 02 00
1768417827.010204 can0 482 [8] E0 1C 00 00 00 00 02 00
1768417827.016866 can0 501 [8] 0F 00 EC E8 02 00 00 00
1768417827.017984 can0 502 [8] 0F 00 EC E8 02 00 00 00
1768417827.019040 can0 080 [0] 
1768417827.019763 can0 181 [6] 37 06 A1 DA 02 00
1768417827.020265 can0 182 [6] 37 06 40 E5 02 00
1768417827.020266 can0 381 [2] BA 00
1768417827.020266 can0 281 [4] 64 93 00 00
1768417827.020267 can0 382 [2] 6B 00
1768417827.020267 can0 282 [4] 81 5A FB FF
1768417827.020268 can0 481 [8] D9 1C 00 00 00 00 02 00
1768417827.020494 can0 482 [8] DF 1C 00 00 00 00 02 00
1768417827.027169 can0 501 [8] 0F 00 EC E8 02 00 00 00
1768417827.028291 can0 502 [8] 0F 00 EC E8 02 00 00 00
1768417827.029383 can0 080 [0] 
1768417827.030147 can0 181 [6] 37 06 D1 DE 02 00
1768417827.030610 can0 182 [6] 37 06 6F DD 02 00
1768417827.030611 can0 381 [2] 92 00
1768417827.030612 can0 281 [4] 8B 94 00 00
1768417827.030612 can0 382 [2] 98 00
1768417827.030612 can0 282 [4] AA 5B FB FF
1768417827.030613 can0 481 [8] DB 1C 00 00 00 00 02 00
1768417827.030844 can0 482 [8] DA 1C 00 00 00 00 02 00
1768417827.037484 can0 501 [8] 0F 00 EC E8 02 00 00 00
1768417827.038570 can0 502 [8] 0F 00 EC E8 02 00 00 00
1768417827.039653 can0 080 [0] 
1768417827.040397 can0 182 [6] 37 06 FC DA 02 00
1768417827.040855 can0 181 [6] 37 06 C2 E0 02 00
1768417827.040856 can0 381 [2] 4E 00
1768417827.040856 can0 281 [4] B2 95 00 00
1768417827.040857 can0 382 [2] B0 00
1768417827.040857 can0 282 [4] CF 5C FB FF
1768417827.040858 can0 481 [8] DF 1C 00 00 00 00 02 00
1768417827.041174 can0 482 [8] D9 1C 00 00 00 00 02 00
1768417827.047815 can0 501 [8] 0F 00 EC E8 02 00 00 00
1768417827.048985 can0 502 [8] 0F 00 EC E8 02 00 00 00
1768417827.049996 can0 080 [0] 
1768417827.050742 can0 182 [6] 37 06 33 DB 02 00
1768417827.051200 can0 181 [6] 37 06 CD D7 02 00
1768417827.051200 can0 381 [2] BB 00
1768417827.051200 can0 281 [4] DC 96 00 00
1768417827.051201 can0 382 [2] 82 00
1768417827.051201 can0 282 [4] F7 5D FB FF
1768417827.051201 can0 481 [8] DC 1C 00 00 00 00 02 00
1768417827.051434 can0 482 [8] DA 1C 00 00 00 00 02 00
1768417827.058140 can0 501 [8] 0F 00 EC E8 02 00 00 00
1768417827.059232 can0 502 [8] 0F 00 EC E8 02 00 00 00
1768417827.060314 can0 080 [0] 
1768417827.061054 can0 181 [6] 37 06 98 D8 02 00
1768417827.061514 can0 182 [6] 37 06 16 E1 02 00
1768417827.061515 can0 381 [2] CE 00
1768417827.061515 can0 281 [4] 01 98 00 00
1768417827.061516 can0 382 [2] 81 00
1768417827.061516 can0 282 [4] 1D 5F FB FF
1768417827.061517 can0 481 [8] D7 1C 00 00 00 00 02 00
1768417827.061746 can0 482 [8] DF 1C 00 00 00 00 02 00
1768417827.068434 can0 501 [8] 0F 00 EC E8 02 00 00 00
1768417827.069520 can0 502 [8] 0F 00 EC E8 02 00 00 00
1768417827.070598 can0 080 [0] 
1768417827.071382 can0 182 [6] 37 06 98 DD 02 00
1768417827.071841 can0 181 [6] 37 06 53 E3 02 00
1768417827.071842 can0 381 [2] 77 00
1768417827.071842 can0 281 [4] 2B 99 00 00
1768417827.071843 can0 382 [2] 82 00
1768417827.071843 can0 282 [4] 44 60 FB FF
1768417827.071844 can0 481 [8] DE 1C 00 00 00 00 02 00
1768417827.072078 can0 482 [8] DC 1C 00 00 00 00 02 00
1768417827.078715 can0 501 [8] 0F 00 EC E8 02 00 00 00
1768417827.079800 can0 502 [8] 0F 00 EC E8 02 00 00 00
1768417827.080881 can0 080 [0] 
1768417827.081564 can0 181 [6] 37 06 E4 DD 02 00
1768417827.082059 can0 182 [6] 37 06 17 DB 02 00
1768417827.082059 can0 381 [2] 93 00
1768417827.082060 can0 281 [4] 4F 9A 00 00
1768417827.082061 can0 382 [2] F4 00
