1768349554.663915 can0 000 [2] 80 01
1768349554.764123 can0 000 [2] 80 02
1768349554.864347 can0 000 [2] 80 03
1768349554.964508 can0 000 [2] 80 04
1768349556.064921 can0 000 [2] 80 01
1768349556.165111 can0 601 [8] 23 40 60 00 80 00 00 00
1768349556.165876 can0 581 [8] 60 40 60 00 00 00 00 00
1768349556.270372 can0 601 [8] 23 60 60 00 03 00 00 00
1768349556.271150 can0 581 [8] 60 60 60 00 00 00 00 00
1768349556.375750 can0 601 [8] 23 FF 60 00 00 00 00 00
1768349556.376574 can0 581 [8] 60 FF 60 00 00 00 00 00
1768349556.481067 can0 601 [8] 23 40 60 00 80 00 00 00
1768349556.481873 can0 581 [8] 60 40 60 00 00 00 00 00
1768349556.586546 can0 601 [8] 23 40 60 00 06 00 00 00
1768349556.587313 can0 581 [8] 60 40 60 00 00 00 00 00
1768349556.691858 can0 601 [8] 23 40 60 00 07 00 00 00
1768349556.692587 can0 581 [8] 60 40 60 00 00 00 00 00
1768349556.797422 can0 601 [8] 23 40 60 00 0F 00 00 00
1768349556.798197 can0 581 [8] 60 40 60 00 00 00 00 00
1768349556.902770 can0 000 [2] 01 01
1768349557.402970 can0 501 [8] 06 00 00 00 00 00 00 00
1768349557.405056 can0 080 [0] 
1768349557.405800 can0 181 [6] 28 06 FF FF FF FF
1768349557.405802 can0 381 [2] 03 00
1768349557.406031 can0 281 [4] 86 9F 06 00
1768349557.406276 can0 481 [8] FE 1C 00 00 00 04 03 00
1768349557.413208 can0 501 [8] 06 00 00 00 00 00 00 00
1768349557.415353 can0 080 [0] 
1768349557.416102 can0 181 [6] 28 06 FF FF FF FF
1768349557.416103 can0 381 [2] FC FF
1768349557.416393 can0 281 [4] 86 9F 06 00
1768349557.416393 can0 481 [8] FA 1C 00 00 00 04 03 00
1768349557.423507 can0 501 [8] 06 00 00 00 00 00 00 00
1768349557.425688 can0 080 [0] 
1768349557.426417 can0 181 [6] 28 06 FF FF FF FF
1768349557.426418 can0 381 [2] F9 FF
1768349557.426677 can0 281 [4] 86 9F 06 00
1768349557.426909 can0 481 [8] FB 1C 00 00 00 04 03 00
1768349557.433784 can0 501 [8] 06 00 00 00 00 00 00 00
1768349557.435880 can0 080 [0] 
1768349557.436683 can0 181 [6] 28 06 FF FF FF FF
1768349557.436684 can0 381 [2] 04 00
1768349557.436966 can0 281 [4] 86 9F 06 00
1768349557.436967 can0 481 [8] F6 1C 00 00 00 04 03 00
1768349557.444021 can0 501 [8] 06 00 00 00 00 00 00 00
1768349557.446143 can0 080 [0] 
1768349557.446868 can0 181 [6] 28 06 FF FF FF FF
1768349557.446869 can0 381 [2] 00 00
1768349557.447128 can0 281 [4] 86 9F 06 00
1768349557.447358 can0 481 [8] FD 1C 00 00 00 04 03 00
1768349557.454281 can0 501 [8] 06 00 00 00 00 00 00 00
1768349557.456359 can0 080 [0] 
1768349557.457107 can0 181 [6] 28 06 FF FF FF FF
1768349557.457108 can0 381 [2] FC FF
1768349557.457372 can0 281 [4] 86 9F 06 00
1768349557.457679 can0 481 [8] FE 1C 00 00 00 04 03 00
1768349557.464511 can0 501 [8] 06 00 00 00 00 00 00 00
1768349557.466685 can0 080 [0] 
1768349557.467455 can0 181 [6] 28 06 FF FF FF FF
1768349557.467456 can0 381 [2] FA FF
1768349557.467741 can0 281 [4] 86 9F 06 00
1768349557.467741 can0 481 [8] FD 1C 00 00 00 04 03 00
1768349557.474718 can0 501 [8] 06 00 00 00 00 00 00 00
1768349557.476814 can0 080 [0] 
1768349557.477680 can0 181 [6] 28 06 FF FF FF FF
1768349557.477681 can0 381 [2] 13 00
1768349557.477928 can0 281 [4] 86 9F 06 00
1768349557.477929 can0 481 [8] FA 1C 00 00 00 04 03 00
1768349557.484959 can0 501 [8] 06 00 00 00 00 00 00 00
1768349557.487059 can0 080 [0] 
1768349557.487806 can0 181 [6] 28 06 FF FF FF FF
1768349557.487807 can0 381 [2] F7 FF
1768349557.488086 can0 281 [4] 86 9F 06 00
1768349557.488095 can0 481 [8] FA 1C 00 00 00 04 03 00
1768349557.495195 can0 501 [8] 06 00 00 00 00 00 00 00
1768349557.497322 can0 080 [0] 
1768349557.498009 can0 181 [6] 28 06 FF FF FF FF
1768349557.498010 can0 381 [2] F9 FF
1768349557.498277 can0 281 [4] 86 9F 06 00
1768349557.498513 can0 481 [8] FA 1C 00 00 00 04 03 00
1768349557.505438 can0 501 [8] 07 00 00 00 00 00 00 00
1768349557.507583 can0 080 [0] 
1768349557.508354 can0 181 [6] 28 06 FF FF FF FF
1768349557.508356 can0 381 [2] 09 00
1768349557.508588 can0 281 [4] 86 9F 06 00
1768349557.508858 can0 481 [8] FB 1C 00 00 00 04 03 00
1768349557.515722 can0 501 [8] 07 00 00 00 00 00 00 00
1768349557.517810 can0 080 [0] 
1768349557.518533 can0 181 [6] 28 06 FF FF FF FF
1768349557.518534 can0 381 [2] 05 00
1768349557.518855 can0 281 [4] 86 9F 06 00
1768349557.518857 can0 481 [8] FC 1C 00 00 00 04 03 00
1768349557.525928 can0 501 [8] 07 00 00 00 00 00 00 00
1768349557.528034 can0 080 [0] 
1768349557.528823 can0 181 [6] 28 06 FF FF FF FF
1768349557.528824 can0 381 [2] 03 00
1768349557.529073 can0 281 [4] 86 9F 06 00
1768349557.529302 can0 481 [8] FB 1C 00 00 00 04 03 00
1768349557.536190 can0 501 [8] 07 00 00 00 00 00 00 00
1768349557.538324 can0 080 [0] 
1768349557.539064 can0 181 [6] 28 06 FF FF FF FF
1768349557.539064 can0 381 [2] FE FF
1768349557.539330 can0 281 [4] 86 9F 06 00
1768349557.539564 can0 481 [8] FD 1C 00 00 00 04 03 00
1768349557.546458 can0 501 [8] 07 00 00 00 00 00 00 00
1768349557.548571 can0 080 [0] 
1768349557.549378 can0 181 [6] 28 06 FF FF FF FF
1768349557.549380 can0 381 [2] F1 FF
1768349557.549683 can0 281 [4] 86 9F 06 00
1768349557.549905 can0 481 [8] FE 1C 00 00 00 04 03 00
1768349557.556704 can0 501 [8] 07 00 00 00 00 00 00 00
1768349557.558817 can0 080 [0] 
1768349557.559552 can0 181 [6] 28 06 FF FF FF FF
1768349557.559552 can0 381 [2] 02 00
1768349557.559887 can0 281 [4] 86 9F 06 00
1768349557.559887 can0 481 [8] FF 1C 00 00 00 04 03 00
1768349557.566938 can0 501 [8] 07 00 00 00 00 00 00 00
1768349557.569081 can0 080 [0] 
1768349557.569855 can0 181 [6] 28 06 FF FF FF FF
1768349557.569856 can0 381 [2] F9 FF
1768349557.570133 can0 281 [4] 86 9F 06 00
1768349557.570133 can0 481 [8] F7 1C 00 00 00 04 03 00
1768349557.577234 can0 501 [8] 07 00 00 00 00 00 00 00
1768349557.579378 can0 080 [0] 
1768349557.580109 can0 181 [6] 28 06 FF FF FF FF
1768349557.580110 can0 381 [2] 03 00
1768349557.580386 can0 281 [4] 86 9F 06 00
1768349557.580387 can0 481 [8] FD 1C 00 00 00 04 03 00
1768349557.587504 can0 501 [8] 07 00 00 00 00 00 00 00
1768349557.589694 can0 080 [0] 
1768349557.590418 can0 181 [6] 28 06 FF FF FF FF
1768349557.590418 can0 381 [2] 0D 00
1768349557.590680 can0 281 [4] 86 9F 06 00
1768349557.590911 can0 481 [8] F8 1C 00 00 00 04 03 00
1768349557.597758 can0 501 [8] 07 00 00 00 00 00 00 00
1768349557.599876 can0 080 [0] 
1768349557.600569 can0 181 [6] 28 06 FF FF FF FF
1768349557.600570 can0 381 [2] FC FF
1768349557.600928 can0 281 [4] 86 9F 06 00
1768349557.600929 can0 481 [8] FB 1C 00 00 00 04 03 00
1768349557.607995 can0 501 [8] 0F 00 00 00 00 00 00 00
1768349557.610115 can0 080 [0] 
1768349557.610851 can0 181 [6] 28 06 FF FF FF FF
1768349557.610852 can0 381 [2] FE FF
1768349557.611113 can0 281 [4] 86 9F 06 00
1768349557.611353 can0 481 [8] F8 1C 00 00 00 04 03 00
1768349557.618266 can0 501 [8] 0F 00 00 00 00 00 00 00
1768349557.620374 can0 080 [0] 
1768349557.621124 can0 181 [6] 28 06 FF FF FF FF
1768349557.621124 can0 381 [2] EF FF
1768349557.621379 can0 281 [4] 86 9F 06 00
1768349557.621681 can0 481 [8] F6 1C 00 00 00 04 03 00
1768349557.628521 can0 501 [8] 0F 00 00 00 00 00 00 00
1768349557.630687 can0 080 [0] 
1768349557.631459 can0 181 [6] 28 06 FF FF FF FF
1768349557.631461 can0 381 [2] FB FF
1768349557.631753 can0 281 [4] 86 9F 06 00
1768349557.631754 can0 481 [8] FC 1C 00 00 00 04 03 00
1768349557.638758 can0 501 [8] 0F 00 00 00 00 00 00 00
1768349557.640866 can0 080 [0] 
1768349557.641607 can0 181 [6] 28 06 FF FF FF FF
1768349557.641608 can0 381 [2] FB FF
1768349557.641923 can0 281 [4] 86 9F 06 00
1768349557.641924 can0 481 [8] FB 1C 00 00 00 04 03 00
1768349557.648997 can0 501 [8] 0F 00 00 00 00 00 00 00
1768349557.651090 can0 080 [0] 
1768349557.651814 can0 181 [6] 28 06 FF FF FF FF
1768349557.651815 can0 381 [2] FE FF
1768349557.652079 can0 281 [4] 86 9F 06 00
1768349557.652305 can0 481 [8] FC 1C 00 00 00 04 03 00
1768349557.659214 can0 501 [8] 0F 00 00 00 00 00 00 00
1768349557.661329 can0 080 [0] 
1768349557.662067 can0 181 [6] 28 06 FF FF FF FF
1768349557.662068 can0 381 [2] F0 FF
1768349557.662332 can0 281 [4] 86 9F 06 00
1768349557.662564 can0 481 [8] F9 1C 00 00 00 04 03 00
1768349557.669481 can0 501 [8] 0F 00 00 00 00 00 00 00
1768349557.671580 can0 080 [0] 
1768349557.672309 can0 181 [6] 28 06 FF FF FF FF
1768349557.672309 can0 381 [2] FA FF
1768349557.672576 can0 281 [4] 86 9F 06 00
1768349557.672871 can0 481 [8] F4 1C 00 00 00 04 03 00
1768349557.679724 can0 501 [8] 0F 00 00 00 00 00 00 00
1768349557.681830 can0 080 [0] 
1768349557.682560 can0 181 [6] 28 06 FF FF FF FF
1768349557.682561 can0 381 [2] 00 00
1768349557.682933 can0 281 [4] 86 9F 06 00
1768349557.682933 can0 481 [8] FF 1C 00 00 00 04 03 00
1768349557.689978 can0 501 [8] 0F 00 00 00 00 00 00 00
1768349557.692095 can0 080 [0] 
1768349557.692851 can0 181 [6] 28 06 FF FF FF FF
1768349557.692851 can0 381 [2] 09 00
1768349557.693146 can0 281 [4] 86 9F 06 00
1768349557.693147 can0 481 [8] FC 1C 00 00 00 04 03 00
1768349557.700308 can0 501 [8] 0F 00 00 00 00 00 00 00
1768349557.702427 can0 080 [0] 
1768349557.703205 can0 181 [6] 28 06 FF FF FF FF
1768349557.703206 can0 381 [2] FE FF
1768349557.703491 can0 281 [4] 86 9F 06 00
1768349557.703492 can0 481 [8] FC 1C 00 00 00 04 03 00
1768349558.210744 can0 501 [8] 0F 00 00 00 00 00 00 00
1768349558.212837 can0 080 [0] 
1768349558.213610 can0 181 [6] 28 06 FF FF FF FF
1768349558.213611 can0 381 [2] FA FF
1768349558.213949 can0 281 [4] 86 9F 06 00
1768349558.213951 can0 481 [8] FD 1C 00 00 00 04 03 00
1768349558.220986 can0 501 [8] 0F 00 00 00 00 00 00 00
1768349558.223113 can0 080 [0] 
1768349558.223953 can0 181 [6] 28 06 FF FF FF FF
1768349558.223953 can0 381 [2] FA FF
1768349558.224242 can0 281 [4] 86 9F 06 00
1768349558.224243 can0 481 [8] FC 1C 00 00 00 04 03 00
1768349558.231256 can0 501 [8] 0F 00 00 00 00 00 00 00
1768349558.233349 can0 080 [0] 
1768349558.234160 can0 181 [6] 28 06 FF FF FF FF
1768349558.234161 can0 381 [2] FC FF
1768349558.234452 can0 281 [4] 86 9F 06 00
1768349558.234452 can0 481 [8] FB 1C 00 00 00 04 03 00
1768349558.241504 can0 501 [8] 0F 00 00 00 00 00 00 00
1768349558.243695 can0 080 [0] 
1768349558.244419 can0 181 [6] 28 06 FF FF FF FF
1768349558.244420 can0 381 [2] F8 FF
1768349558.244695 can0 281 [4] 86 9F 06 00
1768349558.244917 can0 481 [8] FA 1C 00 00 00 04 03 00
1768349558.251736 can0 501 [8] 0F 00 00 00 00 00 00 00
1768349558.253838 can0 080 [0] 
1768349558.254565 can0 181 [6] 28 06 FF FF FF FF
1768349558.254566 can0 381 [2] F9 FF
1768349558.254920 can0 281 [4] 86 9F 06 00
1768349558.254921 can0 481 [8] FA 1C 00 00 00 04 03 00
1768349560.262251 can0 501 [8] 0F 00 A0 86 01 00 00 00
1768349560.264340 can0 080 [0] 
1768349560.265120 can0 181 [6] 28 06 FF FF FF FF
1768349560.265122 can0 381 [2] FB FF
1768349560.265359 can0 281 [4] 86 9F 06 00
1768349560.265576 can0 481 [8] FD 1C 00 00 00 04 03 00
1768349560.272476 can0 501 [8] 0F 00 A0 86 01 00 00 00
1768349560.274585 can0 080 [0] 
1768349560.275383 can0 181 [6] 28 02 FF FF FF FF
1768349560.275384 can0 381 [2] F6 FF
1768349560.275736 can0 281 [4] 86 9F 06 00
1768349560.275736 can0 481 [8] FD 1C 00 00 00 04 05 00
1768349560.282748 can0 501 [8] 0F 00 A0 86 01 00 00 00
1768349560.284875 can0 080 [0] 
1768349560.285635 can0 181 [6] 28 02 FF FF FF FF
1768349560.285636 can0 381 [2] F8 FF
1768349560.285948 can0 281 [4] 86 9F 06 00
1768349560.285948 can0 481 [8] FD 1C 00 00 00 04 05 00
1768349560.293020 can0 501 [8] 0F 00 A0 86 01 00 00 00
1768349560.295110 can0 080 [0] 
1768349560.295861 can0 181 [6] 28 02 FF FF FF FF
1768349560.295862 can0 381 [2] FB FF
1768349560.296143 can0 281 [4] 86 9F 06 00
1768349560.296144 can0 481 [8] F9 1C 00 00 00 04 05 00
1768349560.303262 can0 501 [8] 0F 00 A0 86 01 00 00 00
1768349560.305379 can0 080 [0] 
1768349560.306262 can0 181 [6] 28 02 FF FF FF FF
1768349560.306262 can0 381 [2] 00 00
1768349560.306553 can0 281 [4] 86 9F 06 00
1768349560.306554 can0 481 [8] F9 1C 00 00 00 04 05 00
1768349560.313510 can0 501 [8] 0F 00 A0 86 01 00 00 00
1768349560.315606 can0 080 [0] 
1768349560.316322 can0 181 [6] 28 02 FF FF FF FF
1768349560.316323 can0 381 [2] F2 FF
1768349560.316593 can0 281 [4] 86 9F 06 00
1768349560.316819 can0 481 [8] F9 1C 00 00 00 04 05 00
1768349560.323738 can0 501 [8] 0F 00 A0 86 01 00 00 00
1768349560.325849 can0 080 [0] 
1768349560.326575 can0 181 [6] 28 02 FF FF FF FF
1768349560.326576 can0 381 [2] FD FF
1768349560.326835 can0 281 [4] 86 9F 06 00
1768349560.327062 can0 481 [8] F9 1C 00 00 00 04 05 00
1768349560.333993 can0 501 [8] 0F 00 A0 86 01 00 00 00
1768349560.336098 can0 080 [0] 
1768349560.336829 can0 181 [6] 28 02 FF FF FF FF
1768349560.336830 can0 381 [2] F9 FF
1768349560.337103 can0 281 [4] 86 9F 06 00
1768349560.337323 can0 481 [8] F9 1C 00 00 00 04 05 00
1768349560.344241 can0 501 [8] 0F 00 A0 86 01 00 00 00
1768349560.346393 can0 080 [0] 
1768349560.347120 can0 181 [6] 28 02 FF FF FF FF
1768349560.347121 can0 381 [2] 11 00
1768349560.347383 can0 281 [4] 86 9F 06 00
1768349560.347617 can0 481 [8] F7 1C 00 00 00 04 05 00
1768349560.354515 can0 501 [8] 0F 00 A0 86 01 00 00 00
1768349560.356631 can0 080 [0] 
1768349560.357466 can0 181 [6] 28 02 FF FF FF FF
1768349560.357466 can0 381 [2] FD FF
1768349560.357748 can0 281 [4] 86 9F 06 00
1768349560.357749 can0 481 [8] FF 1C 00 00 00 04 05 00
1768349560.364754 can0 501 [8] 0F 00 A0 86 01 00 00 00
1768349560.366870 can0 080 [0] 
1768349560.367628 can0 181 [6] 28 02 FF FF FF FF
1768349560.367628 can0 381 [2] FA FF
1768349560.367972 can0 281 [4] 86 9F 06 00
1768349560.367973 can0 481 [8] FB 1C 00 00 00 04 05 00
1768349560.374997 can0 501 [8] 0F 00 A0 86 01 00 00 00
1768349560.377087 can0 080 [0] 
1768349560.377818 can0 181 [6] 28 02 FF FF FF FF
1768349560.377819 can0 381 [2] F6 FF
1768349560.378083 can0 281 [4] 86 9F 06 00
1768349560.378317 can0 481 [8] FE 1C 00 00 00 04 05 00
1768349560.385237 can0 501 [8] 0F 00 A0 86 01 00 00 00
1768349560.387381 can0 080 [0] 
1768349560.388112 can0 181 [6] 28 02 FF FF FF FF
1768349560.388112 can0 381 [2] F3 FF
1768349560.388401 can0 281 [4] 86 9F 06 00
1768349560.388402 can0 481 [8] FB 1C 00 00 00 04 05 00
1768349560.395489 can0 501 [8] 0F 00 A0 86 01 00 00 00
1768349560.397611 can0 080 [0] 
1768349560.398323 can0 181 [6] 28 02 FF FF FF FF
1768349560.398324 can0 381 [2] FD FF
1768349560.398594 can0 281 [4] 86 9F 06 00
1768349560.398823 can0 481 [8] 00 1D 00 00 00 04 05 00
1768349560.405732 can0 501 [8] 0F 00 A0 86 01 00 00 00
1768349560.407849 can0 080 [0] 
1768349560.408581 can0 181 [6] 28 02 FF FF FF FF
1768349560.408582 can0 381 [2] 01 00
1768349560.408867 can0 281 [4] 86 9F 06 00
1768349560.408868 can0 481 [8] 01 1D 00 00 00 04 05 00
1768349560.415991 can0 501 [8] 0F 00 A0 86 01 00 00 00
1768349560.418078 can0 080 [0] 
1768349560.418819 can0 181 [6] 28 02 FF FF FF FF
1768349560.418819 can0 381 [2] 02 00
1768349560.419083 can0 281 [4] 86 9F 06 00
1768349560.419320 can0 481 [8] FB 1C 00 00 00 04 05 00
1768349560.426232 can0 501 [8] 0F 00 A0 86 01 00 00 00
1768349560.428349 can0 080 [0] 
1768349560.429164 can0 181 [6] 28 02 FF FF FF FF
1768349560.429165 can0 381 [2] 0F 00
1768349560.429431 can0 281 [4] 86 9F 06 00
1768349560.429737 can0 481 [8] FD 1C 00 00 00 04 05 00
1768349560.436482 can0 501 [8] 0F 00 A0 86 01 00 00 00
1768349560.438585 can0 080 [0] 
1768349560.439318 can0 181 [6] 28 02 FF FF FF FF
1768349560.439319 can0 381 [2] 03 00
1768349560.439588 can0 281 [4] 86 9F 06 00
1768349560.439816 can0 481 [8] F5 1C 00 00 00 04 05 00
1768349560.446740 can0 501 [8] 0F 00 A0 86 01 00 00 00
1768349560.448807 can0 080 [0] 
1768349560.449519 can0 181 [6] 28 02 FF FF FF FF
1768349560.449519 can0 381 [2] FB FF
1768349560.449784 can0 281 [4] 86 9F 06 00
1768349560.450017 can0 481 [8] FF 1C 00 00 00 04 05 00
1768349560.456931 can0 501 [8] 0F 00 A0 86 01 00 00 00
1768349560.459025 can0 080 [0] 
1768349560.459767 can0 181 [6] 28 02 FF FF FF FF
1768349560.459767 can0 381 [2] 08 00
1768349560.460029 can0 281 [4] 86 9F 06 00
1768349560.460257 can0 481 [8] FB 1C 00 00 00 04 05 00
1768349560.467161 can0 501 [8] 0F 00 A0 86 01 00 00 00
1768349560.469196 can0 080 [0] 
1768349560.469930 can0 181 [6] 28 02 FF FF FF FF
1768349560.469931 can0 381 [2] 06 00
1768349560.470199 can0 281 [4] 86 9F 06 00
1768349560.470418 can0 481 [8] F8 1C 00 00 00 04 05 00
1768349560.477320 can0 501 [8] 0F 00 A0 86 01 00 00 00
1768349560.479454 can0 080 [0] 
1768349560.480220 can0 181 [6] 28 02 FF FF FF FF
1768349560.480222 can0 381 [2] FE FF
1768349560.480495 can0 281 [4] 86 9F 06 00
1768349560.480496 can0 481 [8] FD 1C 00 00 00 04 05 00
1768349560.487572 can0 501 [8] 0F 00 A0 86 01 00 00 00
1768349560.489746 can0 080 [0] 
1768349560.490512 can0 181 [6] 28 02 FF FF FF FF
1768349560.490513 can0 381 [2] FF FF
1768349560.490782 can0 281 [4] 86 9F 06 00
1768349560.491011 can0 481 [8] FA 1C 00 00 00 04 05 00
1768349560.497788 can0 501 [8] 0F 00 A0 86 01 00 00 00
1768349560.499872 can0 080 [0] 
1768349560.500742 can0 181 [6] 28 02 FF FF FF FF
1768349560.500743 can0 381 [2] FF FF
1768349560.500992 can0 281 [4] 86 9F 06 00
1768349560.500993 can0 481 [8] FE 1C 00 00 00 04 05 00
1768349560.507997 can0 501 [8] 0F 00 A0 86 01 00 00 00
1768349560.510085 can0 080 [0] 
1768349560.510829 can0 181 [6] 28 02 FF FF FF FF
1768349560.510830 can0 381 [2] 09 00
1768349560.511111 can0 281 [4] 86 9F 06 00
1768349560.511111 can0 481 [8] 01 1D 00 00 00 04 05 00
1768349560.518249 can0 501 [8] 0F 00 A0 86 01 00 00 00
1768349560.520360 can0 080 [0] 
1768349560.521110 can0 181 [6] 28 02 FF FF FF FF
1768349560.521111 can0 381 [2] 01 00
1768349560.521398 can0 281 [4] 86 9F 06 00
1768349560.521399 can0 481 [8] FE 1C 00 00 00 04 05 00
1768349560.528489 can0 501 [8] 0F 00 A0 86 01 00 00 00
1768349560.530594 can0 080 [0] 
1768349560.531357 can0 181 [6] 28 02 FF FF FF FF
1768349560.531357 can0 381 [2] 04 00
1768349560.531646 can0 281 [4] 86 9F 06 00
1768349560.531646 can0 481 [8] FA 1C 00 00 00 04 05 00
1768349560.538736 can0 501 [8] 0F 00 A0 86 01 00 00 00
1768349560.540874 can0 080 [0] 
1768349560.541744 can0 181 [6] 28 02 FF FF FF FF
1768349560.541745 can0 381 [2] 03 00
1768349560.542031 can0 281 [4] 86 9F 06 00
1768349560.542031 can0 481 [8] FE 1C 00 00 00 04 05 00
1768349560.549021 can0 501 [8] 0F 00 A0 86 01 00 00 00
1768349560.551136 can0 080 [0] 
1768349560.551877 can0 181 [6] 28 02 FF FF FF FF
1768349560.551878 can0 381 [2] 00 00
1768349560.552142 can0 281 [4] 86 9F 06 00
1768349560.552370 can0 481 [8] FD 1C 00 00 00 04 05 00
1768349560.559241 can0 501 [8] 0F 00 A0 86 01 00 00 00
1768349560.561430 can0 080 [0] 
1768349560.562216 can0 181 [6] 28 02 FF FF FF FF
1768349560.562217 can0 381 [2] 02 00
1768349560.562507 can0 281 [4] 86 9F 06 00
1768349560.562508 can0 481 [8] FF 1C 00 00 00 04 05 00
1768349560.569559 can0 501 [8] 0F 00 A0 86 01 00 00 00
1768349560.571746 can0 080 [0] 
1768349560.572476 can0 181 [6] 28 02 FF FF FF FF
1768349560.572477 can0 381 [2] 04 00
1768349560.572741 can0 281 [4] 86 9F 06 00
1768349560.572975 can0 481 [8] FE 1C 00 00 00 04 05 00
1768349560.579826 can0 501 [8] 0F 00 A0 86 01 00 00 00
1768349560.581935 can0 080 [0] 
1768349560.582740 can0 181 [6] 28 02 FF FF FF FF
1768349560.582741 can0 381 [2] 0C 00
1768349560.583020 can0 281 [4] 86 9F 06 00
1768349560.583020 can0 481 [8] FD 1C 00 00 00 04 05 00
1768349560.590116 can0 501 [8] 0F 00 A0 86 01 00 00 00
1768349560.592211 can0 080 [0] 
1768349560.593013 can0 181 [6] 28 02 FF FF FF FF
1768349560.593014 can0 381 [2] FD FF
1768349560.593307 can0 281 [4] 86 9F 06 00
1768349560.593308 can0 481 [8] FA 1C 00 00 00 04 05 00
1768349560.600327 can0 501 [8] 0F 00 A0 86 01 00 00 00
1768349560.602421 can0 080 [0] 
1768349560.603172 can0 181 [6] 28 02 FF FF FF FF
1768349560.603173 can0 381 [2] 0A 00
1768349560.603437 can0 281 [4] 86 9F 06 00
1768349560.603742 can0 481 [8] FA 1C 00 00 00 04 05 00
1768349560.610546 can0 501 [8] 0F 00 A0 86 01 00 00 00
1768349560.612748 can0 080 [0] 
1768349560.613473 can0 181 [6] 28 02 FF FF FF FF
1768349560.613474 can0 381 [2] 04 00
1768349560.613742 can0 281 [4] 86 9F 06 00
1768349560.613969 can0 481 [8] FA 1C 00 00 00 04 05 00
1768349560.620954 can0 501 [8] 0F 00 A0 86 01 00 00 00
1768349560.623117 can0 080 [0] 
1768349560.623859 can0 181 [6] 28 02 FF FF FF FF
1768349560.623860 can0 381 [2] FA FF
1768349560.624153 can0 281 [4] 86 9F 06 00
1768349560.624154 can0 481 [8] FC 1C 00 00 00 04 05 00
1768349560.631288 can0 501 [8] 0F 00 A0 86 01 00 00 00
1768349560.633445 can0 080 [0] 
1768349560.634275 can0 181 [6] 28 02 FF FF FF FF
1768349560.634276 can0 381 [2] 04 00
1768349560.634537 can0 281 [4] 86 9F 06 00
1768349560.634766 can0 481 [8] FE 1C 00 00 00 04 05 00
1768349560.641634 can0 501 [8] 0F 00 A0 86 01 00 00 00
1768349560.643768 can0 080 [0] 
1768349560.644582 can0 181 [6] 28 02 FF FF FF FF
1768349560.644583 can0 381 [2] FB FF
1768349560.644861 can0 281 [4] 86 9F 06 00
1768349560.644861 can0 481 [8] FD 1C 00 00 00 04 05 00
1768349560.651931 can0 501 [8] 0F 00 A0 86 01 00 00 00
1768349560.654076 can0 080 [0] 
1768349560.654819 can0 181 [6] 28 02 FF FF FF FF
1768349560.654819 can0 381 [2] FD FF
1768349560.655106 can0 281 [4] 86 9F 06 00
1768349560.655107 can0 481 [8] FF 1C 00 00 00 04 05 00
1768349560.662269 can0 501 [8] 0F 00 A0 86 01 00 00 00
1768349560.664361 can0 080 [0] 
1768349560.665112 can0 181 [6] 28 02 FF FF FF FF
1768349560.665113 can0 381 [2] FF FF
1768349560.665397 can0 281 [4] 86 9F 06 00
1768349560.665398 can0 481 [8] FA 1C 00 00 00 04 05 00
1768349560.672479 can0 501 [8] 0F 00 A0 86 01 00 00 00
1768349560.674598 can0 080 [0] 
1768349560.675460 can0 181 [6] 28 02 FF FF FF FF
1768349560.675460 can0 381 [2] 06 00
1768349560.675741 can0 281 [4] 86 9F 06 00
1768349560.675742 can0 481 [8] F9 1C 00 00 00 04 05 00
1768349560.682742 can0 501 [8] 0F 00 A0 86 01 00 00 00
1768349560.684827 can0 080 [0] 
1768349560.685620 can0 181 [6] 28 02 FF FF FF FF
1768349560.685621 can0 381 [2] FE FF
1768349560.685974 can0 281 [4] 86 9F 06 00
1768349560.685974 can0 481 [8] FE 1C 00 00 00 04 05 00
1768349560.692954 can0 501 [8] 0F 00 A0 86 01 00 00 00
1768349560.695047 can0 080 [0] 
1768349560.695772 can0 181 [6] 28 02 FF FF FF FF
1768349560.695772 can0 381 [2] 0C 00
1768349560.696033 can0 281 [4] 86 9F 06 00
1768349560.696243 can0 481 [8] FA 1C 00 00 00 04 05 00
1768349560.703171 can0 501 [8] 0F 00 A0 86 01 00 00 00
1768349560.705272 can0 080 [0] 
1768349560.706028 can0 181 [6] 28 02 FF FF FF FF
1768349560.706029 can0 381 [2] F7 FF
1768349560.706323 can0 281 [4] 86 9F 06 00
1768349560.706323 can0 481 [8] F7 1C 00 00 00 04 05 00
1768349560.713369 can0 501 [8] 0F 00 A0 86 01 00 00 00
1768349560.715480 can0 080 [0] 
1768349560.716223 can0 181 [6] 28 02 FF FF FF FF
1768349560.716224 can0 381 [2] 06 00
1768349560.716489 can0 281 [4] 86 9F 06 00
1768349560.716743 can0 481 [8] FB 1C 00 00 00 04 05 00
1768349560.723599 can0 501 [8] 0F 00 A0 86 01 00 00 00
1768349560.725751 can0 080 [0] 
1768349560.726482 can0 181 [6] 28 02 FF FF FF FF
1768349560.726483 can0 381 [2] 04 00
1768349560.726768 can0 281 [4] 86 9F 06 00
1768349560.726768 can0 481 [8] F9 1C 00 00 00 04 05 00
1768349560.733832 can0 501 [8] 0F 00 A0 86 01 00 00 00
1768349560.735937 can0 080 [0] 
1768349560.736748 can0 181 [6] 28 02 FF FF FF FF
1768349560.736749 can0 381 [2] 05 00
1768349560.737036 can0 281 [4] 86 9F 06 00
1768349560.737037 can0 481 [8] FF 1C 00 00 00 04 05 00
1768349560.744064 can0 501 [8] 0F 00 A0 86 01 00 00 00
1768349560.746161 can0 080 [0] 
1768349560.746868 can0 181 [6] 28 02 FF FF FF FF
1768349560.746869 can0 381 [2] 05 00
1768349560.747128 can0 281 [4] 86 9F 06 00
1768349560.747361 can0 481 [8] FA 1C 00 00 00 04 05 00
1768349560.754269 can0 501 [8] 0F 00 A0 86 01 00 00 00
1768349560.756352 can0 080 [0] 
1768349560.757183 can0 181 [6] 28 02 FF FF FF FF
1768349560.757184 can0 381 [2] 03 00
1768349560.757471 can0 281 [4] 86 9F 06 00
1768349560.757471 can0 481 [8] FB 1C 00 00 00 04 05 00
1768349560.764473 can0 501 [8] 0F 00 A0 86 01 00 00 00
1768349560.766589 can0 080 [0] 
1768349560.767374 can0 181 [6] 28 02 FF FF FF FF
1768349560.767375 can0 381 [2] 0B 00
1768349560.767662 can0 281 [4] 86 9F 06 00
1768349560.767663 can0 481 [8] FC 1C 00 00 00 04 05 00
1768349560.774753 can0 501 [8] 0F 00 A0 86 01 00 00 00
1768349560.776854 can0 080 [0] 
1768349560.777582 can0 181 [6] 28 02 FF FF FF FF
1768349560.777583 can0 381 [2] F6 FF
1768349560.777867 can0 281 [4] 86 9F 06 00
1768349560.777868 can0 481 [8] FB 1C 00 00 00 04 05 00
1768349560.784978 can0 501 [8] 0F 00 A0 86 01 00 00 00
1768349560.787082 can0 080 [0] 
1768349560.787865 can0 181 [6] 28 02 FF FF FF FF
1768349560.787866 can0 381 [2] FA FF
1768349560.788152 can0 281 [4] 86 9F 06 00
1768349560.788153 can0 481 [8] F9 1C 00 00 00 04 05 00
1768349560.795250 can0 501 [8] 0F 00 A0 86 01 00 00 00
1768349560.797366 can0 080 [0] 
1768349560.798174 can0 181 [6] 28 02 FF FF FF FF
1768349560.798175 can0 381 [2] 04 00
1768349560.798466 can0 281 [4] 86 9F 06 00
1768349560.798467 can0 481 [8] FB 1C 00 00 00 04 05 00
1768349560.805495 can0 501 [8] 0F 00 A0 86 01 00 00 00
1768349560.807590 can0 080 [0] 
1768349560.808373 can0 181 [6] 28 02 FF FF FF FF
