1768349366.728656 can0 501 [8] 06 00 00 00 00 00 00 00
1768349366.730843 can0 080 [0] 
1768349366.731616 can0 181 [6] 28 02 FF FF FF FF
1768349366.731617 can0 381 [2] FF FF
1768349366.731875 can0 281 [4] 86 9F 06 00
1768349366.732165 can0 481 [8] FB 1C 00 00 00 04 05 00
1768349366.738995 can0 501 [8] 06 00 00 00 00 00 00 00
1768349366.741102 can0 080 [0] 
1768349366.741908 can0 181 [6] 28 06 FF FF FF FF
1768349366.741908 can0 381 [2] 00 00
1768349366.742222 can0 281 [4] 86 9F 06 00
1768349366.742222 can0 481 [8] FF 1C 00 00 00 04 03 00
1768349366.749249 can0 501 [8] 06 00 00 00 00 00 00 00
1768349366.751345 can0 080 [0] 
1768349366.752102 can0 181 [6] 28 06 FF FF FF FF
1768349366.752102 can0 381 [2] 00 00
1768349366.752385 can0 281 [4] 86 9F 06 00
1768349366.752385 can0 481 [8] FA 1C 00 00 00 04 03 00
1768349366.759506 can0 501 [8] 06 00 00 00 00 00 00 00
1768349366.761619 can0 080 [0] 
1768349366.762368 can0 181 [6] 28 06 FF FF FF FF
1768349366.762369 can0 381 [2] FF FF
1768349366.762661 can0 281 [4] 86 9F 06 00
1768349366.762662 can0 481 [8] FF 1C 00 00 00 04 03 00
1768349366.769760 can0 501 [8] 06 00 00 00 00 00 00 00
1768349366.771849 can0 080 [0] 
1768349366.772657 can0 181 [6] 28 06 FF FF FF FF
1768349366.772658 can0 381 [2] FB FF
1768349366.772984 can0 281 [4] 86 9F 06 00
1768349366.772985 can0 481 [8] FC 1C 00 00 00 04 03 00
1768349366.780099 can0 501 [8] 06 00 00 00 00 00 00 00
1768349366.782222 can0 080 [0] 
1768349366.782999 can0 181 [6] 28 06 FF FF FF FF
1768349366.783000 can0 381 [2] FD FF
1768349366.783270 can0 281 [4] 86 9F 06 00
1768349366.783271 can0 481 [8] 01 1D 00 00 00 04 03 00
1768349366.790372 can0 501 [8] 06 00 00 00 00 00 00 00
1768349366.792473 can0 080 [0] 
1768349366.793243 can0 181 [6] 28 06 FF FF FF FF
1768349366.793244 can0 381 [2] F6 FF
1768349366.793533 can0 281 [4] 86 9F 06 00
1768349366.793534 can0 481 [8] FC 1C 00 00 00 04 03 00
1768349366.800634 can0 501 [8] 06 00 00 00 00 00 00 00
1768349366.802714 can0 080 [0] 
1768349366.803461 can0 181 [6] 28 06 FF FF FF FF
1768349366.803461 can0 381 [2] 00 00
1768349366.803724 can0 281 [4] 86 9F 06 00
1768349366.803982 can0 481 [8] FF 1C 00 00 00 04 03 00
1768349366.810888 can0 501 [8] 06 00 00 00 00 00 00 00
1768349366.813022 can0 080 [0] 
1768349366.813794 can0 181 [6] 28 06 FF FF FF FF
1768349366.813794 can0 381 [2] 08 00
1768349366.814087 can0 281 [4] 86 9F 06 00
1768349366.814088 can0 481 [8] FE 1C 00 00 00 04 03 00
1768349366.821158 can0 501 [8] 06 00 00 00 00 00 00 00
1768349366.823258 can0 080 [0] 
1768349366.823999 can0 181 [6] 28 06 FF FF FF FF
1768349366.824000 can0 381 [2] FB FF
1768349366.824296 can0 281 [4] 86 9F 06 00
1768349366.824296 can0 481 [8] F8 1C 00 00 00 04 03 00
1768349367.031631 can0 501 [8] 07 00 00 00 00 00 00 00
1768349367.033706 can0 080 [0] 
1768349367.034604 can0 181 [6] 28 06 FF FF FF FF
1768349367.034605 can0 381 [2] FB FF
1768349367.034797 can0 281 [4] 86 9F 06 00
1768349367.035029 can0 481 [8] F8 1C 00 00 00 04 03 00
1768349367.041849 can0 501 [8] 07 00 00 00 00 00 00 00
1768349367.043997 can0 080 [0] 
1768349367.044700 can0 181 [6] 28 06 FF FF FF FF
1768349367.044701 can0 381 [2] 01 00
1768349367.044994 can0 281 [4] 86 9F 06 00
1768349367.045215 can0 481 [8] F7 1C 00 00 00 04 03 00
1768349367.052080 can0 501 [8] 07 00 00 00 00 00 00 00
1768349367.054202 can0 080 [0] 
1768349367.054997 can0 181 [6] 28 06 FF FF FF FF
1768349367.054998 can0 381 [2] 0E 00
1768349367.055269 can0 281 [4] 86 9F 06 00
1768349367.055269 can0 481 [8] F5 1C 00 00 00 04 03 00
1768349367.062326 can0 501 [8] 07 00 00 00 00 00 00 00
1768349367.064423 can0 080 [0] 
1768349367.065164 can0 181 [6] 28 06 FF FF FF FF
1768349367.065164 can0 381 [2] FE FF
1768349367.065434 can0 281 [4] 86 9F 06 00
1768349367.065662 can0 481 [8] FB 1C 00 00 00 04 03 00
1768349367.072570 can0 501 [8] 07 00 00 00 00 00 00 00
1768349367.074677 can0 080 [0] 
1768349367.075441 can0 181 [6] 28 06 FF FF FF FF
1768349367.075442 can0 381 [2] FF FF
1768349367.075712 can0 281 [4] 86 9F 06 00
1768349367.075908 can0 481 [8] F4 1C 00 00 00 04 03 00
1768349367.082831 can0 501 [8] 07 00 00 00 00 00 00 00
1768349367.084996 can0 080 [0] 
1768349367.085853 can0 181 [6] 28 06 FF FF FF FF
1768349367.085853 can0 381 [2] 0A 00
1768349367.086144 can0 281 [4] 86 9F 06 00
1768349367.086145 can0 481 [8] FB 1C 00 00 00 04 03 00
1768349367.093098 can0 501 [8] 07 00 00 00 00 00 00 00
1768349367.095215 can0 080 [0] 
1768349367.095994 can0 181 [6] 28 06 FF FF FF FF
1768349367.095995 can0 381 [2] F9 FF
1768349367.096281 can0 281 [4] 86 9F 06 00
1768349367.096282 can0 481 [8] FE 1C 00 00 00 04 03 00
1768349367.103338 can0 501 [8] 07 00 00 00 00 00 00 00
1768349367.105460 can0 080 [0] 
1768349367.106207 can0 181 [6] 28 06 FF FF FF FF
1768349367.106207 can0 381 [2] 01 00
1768349367.106470 can0 281 [4] 86 9F 06 00
1768349367.106699 can0 481 [8] F6 1C 00 00 00 04 03 00
1768349367.113586 can0 501 [8] 07 00 00 00 00 00 00 00
1768349367.115684 can0 080 [0] 
1768349367.116403 can0 181 [6] 28 06 FF FF FF FF
1768349367.116403 can0 381 [2] 06 00
1768349367.116667 can0 281 [4] 86 9F 06 00
1768349367.116895 can0 481 [8] FB 1C 00 00 00 04 03 00
1768349367.123840 can0 501 [8] 07 00 00 00 00 00 00 00
1768349367.125996 can0 080 [0] 
1768349367.126738 can0 181 [6] 28 06 FF FF FF FF
1768349367.126739 can0 381 [2] 01 00
1768349367.126990 can0 281 [4] 86 9F 06 00
1768349367.127224 can0 481 [8] F9 1C 00 00 00 04 03 00
1768349367.334298 can0 501 [8] 0F 00 00 00 00 00 00 00
1768349367.336446 can0 080 [0] 
1768349367.337184 can0 181 [6] 28 06 FF FF FF FF
1768349367.337185 can0 381 [2] F7 FF
1768349367.337423 can0 281 [4] 86 9F 06 00
1768349367.337654 can0 481 [8] FC 1C 00 00 00 04 03 00
1768349367.344576 can0 501 [8] 0F 00 00 00 00 00 00 00
1768349367.346703 can0 080 [0] 
1768349367.347502 can0 181 [6] 28 06 FF FF FF FF
1768349367.347503 can0 381 [2] F7 FF
1768349367.347787 can0 281 [4] 86 9F 06 00
1768349367.347788 can0 481 [8] FB 1C 00 00 00 04 03 00
1768349367.354858 can0 501 [8] 0F 00 00 00 00 00 00 00
1768349367.356999 can0 080 [0] 
1768349367.357727 can0 181 [6] 28 06 FF FF FF FF
1768349367.357728 can0 381 [2] 03 00
1768349367.357996 can0 281 [4] 86 9F 06 00
1768349367.358217 can0 481 [8] F9 1C 00 00 00 04 03 00
1768349367.365100 can0 501 [8] 0F 00 00 00 00 00 00 00
1768349367.367232 can0 080 [0] 
1768349367.367996 can0 181 [6] 28 06 FF FF FF FF
1768349367.367997 can0 381 [2] FE FF
1768349367.368275 can0 281 [4] 86 9F 06 00
1768349367.368276 can0 481 [8] F7 1C 00 00 00 04 03 00
1768349367.375346 can0 501 [8] 0F 00 00 00 00 00 00 00
1768349367.377435 can0 080 [0] 
1768349367.378162 can0 181 [6] 28 06 FF FF FF FF
1768349367.378163 can0 381 [2] 03 00
1768349367.378426 can0 281 [4] 86 9F 06 00
1768349367.378661 can0 481 [8] FA 1C 00 00 00 04 03 00
1768349367.385606 can0 501 [8] 0F 00 00 00 00 00 00 00
1768349367.387713 can0 080 [0] 
1768349367.388453 can0 181 [6] 28 06 FF FF FF FF
1768349367.388454 can0 381 [2] FE FF
1768349367.388723 can0 281 [4] 86 9F 06 00
1768349367.388995 can0 481 [8] FD 1C 00 00 00 04 03 00
1768349367.395831 can0 501 [8] 0F 00 00 00 00 00 00 00
1768349367.398002 can0 080 [0] 
1768349367.398850 can0 181 [6] 28 06 FF FF FF FF
1768349367.398851 can0 381 [2] F7 FF
1768349367.399140 can0 281 [4] 86 9F 06 00
1768349367.399141 can0 481 [8] FC 1C 00 00 00 04 03 00
1768349367.406096 can0 501 [8] 0F 00 00 00 00 00 00 00
1768349367.408226 can0 080 [0] 
1768349367.409003 can0 181 [6] 28 06 FF FF FF FF
1768349367.409004 can0 381 [2] F9 FF
1768349367.409273 can0 281 [4] 86 9F 06 00
1768349367.409502 can0 481 [8] F7 1C 00 00 00 04 03 00
1768349367.416359 can0 501 [8] 0F 00 00 00 00 00 00 00
1768349367.418458 can0 080 [0] 
1768349367.419209 can0 181 [6] 28 06 FF FF FF FF
1768349367.419210 can0 381 [2] 0A 00
1768349367.419474 can0 281 [4] 86 9F 06 00
1768349367.419705 can0 481 [8] F8 1C 00 00 00 04 03 00
1768349367.426599 can0 501 [8] 0F 00 00 00 00 00 00 00
1768349367.428706 can0 080 [0] 
1768349367.429448 can0 181 [6] 28 06 FF FF FF FF
1768349367.429449 can0 381 [2] 01 00
1768349367.429742 can0 281 [4] 86 9F 06 00
1768349367.429742 can0 481 [8] F5 1C 00 00 00 04 03 00
1768349369.637243 can0 501 [8] 0F 00 A0 86 01 00 00 00
1768349369.639358 can0 080 [0] 
1768349369.640115 can0 181 [6] 28 06 FF FF FF FF
1768349369.640116 can0 381 [2] FC FF
1768349369.640387 can0 281 [4] 86 9F 06 00
1768349369.640612 can0 481 [8] FA 1C 00 00 00 04 03 00
1768349369.647613 can0 501 [8] 0F 00 A0 86 01 00 00 00
1768349369.649806 can0 080 [0] 
1768349369.650656 can0 181 [6] 28 02 FF FF FF FF
1768349369.650656 can0 381 [2] FE FF
1768349369.650947 can0 281 [4] 86 9F 06 00
1768349369.650948 can0 481 [8] F8 1C 00 00 00 04 05 00
1768349369.658038 can0 501 [8] 0F 00 A0 86 01 00 00 00
1768349369.660242 can0 080 [0] 
1768349369.661044 can0 181 [6] 28 02 FF FF FF FF
1768349369.661045 can0 381 [2] FC FF
1768349369.661310 can0 281 [4] 86 9F 06 00
1768349369.661311 can0 481 [8] FA 1C 00 00 00 04 05 00
1768349369.668459 can0 501 [8] 0F 00 A0 86 01 00 00 00
1768349369.670580 can0 080 [0] 
1768349369.671328 can0 181 [6] 28 02 FF FF FF FF
1768349369.671329 can0 381 [2] F6 FF
1768349369.671619 can0 281 [4] 86 9F 06 00
1768349369.671619 can0 481 [8] FB 1C 00 00 00 04 05 00
1768349369.678719 can0 501 [8] 0F 00 A0 86 01 00 00 00
1768349369.680818 can0 080 [0] 
1768349369.681575 can0 181 [6] 28 02 FF FF FF FF
1768349369.681576 can0 381 [2] 05 00
1768349369.681864 can0 281 [4] 86 9F 06 00
1768349369.681865 can0 481 [8] FF 1C 00 00 00 04 05 00
1768349369.689050 can0 501 [8] 0F 00 A0 86 01 00 00 00
1768349369.691053 can0 080 [0] 
1768349369.691800 can0 181 [6] 28 02 FF FF FF FF
1768349369.691801 can0 381 [2] 04 00
1768349369.692099 can0 281 [4] 86 9F 06 00
1768349369.692100 can0 481 [8] F6 1C 00 00 00 04 05 00
1768349369.699224 can0 501 [8] 0F 00 A0 86 01 00 00 00
1768349369.701331 can0 080 [0] 
1768349369.702065 can0 181 [6] 28 02 FF FF FF FF
1768349369.702066 can0 381 [2] FE FF
1768349369.702329 can0 281 [4] 86 9F 06 00
1768349369.702558 can0 481 [8] FA 1C 00 00 00 04 05 00
1768349369.709462 can0 501 [8] 0F 00 A0 86 01 00 00 00
1768349369.711554 can0 080 [0] 
1768349369.712276 can0 181 [6] 28 02 FF FF FF FF
1768349369.712276 can0 381 [2] FB FF
1768349369.712563 can0 281 [4] 86 9F 06 00
1768349369.712564 can0 481 [8] 03 1D 00 00 00 04 05 00
1768349369.719722 can0 501 [8] 0F 00 A0 86 01 00 00 00
1768349369.721848 can0 080 [0] 
1768349369.722610 can0 181 [6] 28 02 FF FF FF FF
1768349369.722611 can0 381 [2] FF FF
1768349369.722895 can0 281 [4] 86 9F 06 00
1768349369.722896 can0 481 [8] FB 1C 00 00 00 04 05 00
1768349369.730044 can0 501 [8] 0F 00 A0 86 01 00 00 00
1768349369.732103 can0 080 [0] 
1768349369.732924 can0 181 [6] 28 02 FF FF FF FF
1768349369.732925 can0 381 [2] 0A 00
1768349369.733282 can0 281 [4] 86 9F 06 00
1768349369.733283 can0 481 [8] FD 1C 00 00 00 04 05 00
1768349369.740303 can0 501 [8] 0F 00 A0 86 01 00 00 00
1768349369.742406 can0 080 [0] 
1768349369.743207 can0 181 [6] 28 02 FF FF FF FF
1768349369.743208 can0 381 [2] 01 00
1768349369.743477 can0 281 [4] 86 9F 06 00
1768349369.743705 can0 481 [8] F9 1C 00 00 00 04 05 00
1768349369.750552 can0 501 [8] 0F 00 A0 86 01 00 00 00
1768349369.752650 can0 080 [0] 
1768349369.753411 can0 181 [6] 28 02 FF FF FF FF
1768349369.753411 can0 381 [2] FC FF
1768349369.753704 can0 281 [4] 86 9F 06 00
1768349369.753705 can0 481 [8] FD 1C 00 00 00 04 05 00
1768349369.760790 can0 501 [8] 0F 00 A0 86 01 00 00 00
1768349369.762895 can0 080 [0] 
1768349369.763608 can0 181 [6] 28 02 FF FF FF FF
1768349369.763609 can0 381 [2] F3 FF
1768349369.763878 can0 281 [4] 86 9F 06 00
1768349369.764107 can0 481 [8] F7 1C 00 00 00 04 05 00
1768349369.771038 can0 501 [8] 0F 00 A0 86 01 00 00 00
1768349369.773119 can0 080 [0] 
1768349369.773961 can0 181 [6] 28 02 FF FF FF FF
1768349369.773962 can0 381 [2] FD FF
1768349369.774278 can0 281 [4] 86 9F 06 00
1768349369.774279 can0 481 [8] FB 1C 00 00 00 04 05 00
1768349369.781245 can0 501 [8] 0F 00 A0 86 01 00 00 00
1768349369.783353 can0 080 [0] 
1768349369.784112 can0 181 [6] 28 02 FF FF FF FF
1768349369.784113 can0 381 [2] FC FF
1768349369.784380 can0 281 [4] 86 9F 06 00
1768349369.784615 can0 481 [8] FA 1C 00 00 00 04 05 00
1768349369.791501 can0 501 [8] 0F 00 A0 86 01 00 00 00
1768349369.793628 can0 080 [0] 
1768349369.794470 can0 181 [6] 28 02 FF FF FF FF
1768349369.794471 can0 381 [2] FF FF
1768349369.794732 can0 281 [4] 86 9F 06 00
1768349369.795042 can0 481 [8] FD 1C 00 00 00 04 05 00
1768349369.801797 can0 501 [8] 0F 00 A0 86 01 00 00 00
1768349369.803926 can0 080 [0] 
1768349369.804669 can0 181 [6] 28 02 FF FF FF FF
1768349369.804669 can0 381 [2] FF FF
1768349369.804936 can0 281 [4] 86 9F 06 00
1768349369.805222 can0 481 [8] FA 1C 00 00 00 04 05 00
1768349369.812069 can0 501 [8] 0F 00 A0 86 01 00 00 00
1768349369.814177 can0 080 [0] 
1768349369.814963 can0 181 [6] 28 02 FF FF FF FF
1768349369.814964 can0 381 [2] FB FF
1768349369.815274 can0 281 [4] 86 9F 06 00
1768349369.815274 can0 481 [8] 00 1D 00 00 00 04 05 00
1768349369.822318 can0 501 [8] 0F 00 A0 86 01 00 00 00
1768349369.824454 can0 080 [0] 
1768349369.825169 can0 181 [6] 28 02 FF FF FF FF
1768349369.825170 can0 381 [2] FF FF
1768349369.825430 can0 281 [4] 86 9F 06 00
1768349369.825658 can0 481 [8] FB 1C 00 00 00 04 05 00
1768349369.832568 can0 501 [8] 0F 00 A0 86 01 00 00 00
1768349369.834654 can0 080 [0] 
1768349369.835364 can0 181 [6] 28 02 FF FF FF FF
1768349369.835364 can0 381 [2] 0C 00
1768349369.835628 can0 281 [4] 86 9F 06 00
1768349369.835856 can0 481 [8] FA 1C 00 00 00 04 05 00
1768349369.842801 can0 501 [8] 0F 00 A0 86 01 00 00 00
1768349369.844920 can0 080 [0] 
1768349369.845666 can0 181 [6] 28 02 FF FF FF FF
1768349369.845667 can0 381 [2] FA FF
1768349369.845930 can0 281 [4] 86 9F 06 00
1768349369.846223 can0 481 [8] FB 1C 00 00 00 04 05 00
1768349369.853045 can0 501 [8] 0F 00 A0 86 01 00 00 00
1768349369.855159 can0 080 [0] 
1768349369.855905 can0 181 [6] 28 02 FF FF FF FF
1768349369.855906 can0 381 [2] FF FF
1768349369.856196 can0 281 [4] 86 9F 06 00
1768349369.856197 can0 481 [8] FB 1C 00 00 00 04 05 00
1768349369.863246 can0 501 [8] 0F 00 A0 86 01 00 00 00
1768349369.865448 can0 080 [0] 
1768349369.866169 can0 181 [6] 28 02 FF FF FF FF
1768349369.866170 can0 381 [2] FD FF
1768349369.866429 can0 281 [4] 86 9F 06 00
1768349369.866659 can0 481 [8] FC 1C 00 00 00 04 05 00
1768349369.873624 can0 501 [8] 0F 00 A0 86 01 00 00 00
1768349369.875774 can0 080 [0] 
1768349369.876512 can0 181 [6] 28 02 FF FF FF FF
1768349369.876513 can0 381 [2] 02 00
1768349369.876783 can0 281 [4] 86 9F 06 00
1768349369.877042 can0 481 [8] FC 1C 00 00 00 04 05 00
1768349369.884052 can0 501 [8] 0F 00 A0 86 01 00 00 00
1768349369.886220 can0 080 [0] 
1768349369.887044 can0 181 [6] 28 02 FF FF FF FF
1768349369.887045 can0 381 [2] 08 00
1768349369.887338 can0 281 [4] 86 9F 06 00
1768349369.887338 can0 481 [8] F9 1C 00 00 00 04 05 00
1768349369.894344 can0 501 [8] 0F 00 A0 86 01 00 00 00
1768349369.896441 can0 080 [0] 
1768349369.897227 can0 181 [6] 28 02 FF FF FF FF
1768349369.897228 can0 381 [2] FB FF
1768349369.897518 can0 281 [4] 86 9F 06 00
1768349369.897519 can0 481 [8] FD 1C 00 00 00 04 05 00
1768349369.904591 can0 501 [8] 0F 00 A0 86 01 00 00 00
1768349369.906689 can0 080 [0] 
1768349369.907416 can0 181 [6] 28 02 FF FF FF FF
1768349369.907416 can0 381 [2] 06 00
1768349369.907680 can0 281 [4] 86 9F 06 00
1768349369.907913 can0 481 [8] F8 1C 00 00 00 04 05 00
1768349369.914841 can0 501 [8] 0F 00 A0 86 01 00 00 00
1768349369.917051 can0 080 [0] 
1768349369.917770 can0 181 [6] 28 02 FF FF FF FF
1768349369.917770 can0 381 [2] FE FF
1768349369.918043 can0 281 [4] 86 9F 06 00
1768349369.918264 can0 481 [8] FA 1C 00 00 00 04 05 00
1768349369.925108 can0 501 [8] 0F 00 A0 86 01 00 00 00
1768349369.927219 can0 080 [0] 
1768349369.928106 can0 181 [6] 28 02 FF FF FF FF
1768349369.928107 can0 381 [2] 04 00
1768349369.928397 can0 281 [4] 86 9F 06 00
1768349369.928398 can0 481 [8] FD 1C 00 00 00 04 05 00
1768349369.935368 can0 501 [8] 0F 00 A0 86 01 00 00 00
1768349369.937466 can0 080 [0] 
1768349369.938258 can0 181 [6] 28 02 FF FF FF FF
1768349369.938259 can0 381 [2] 02 00
1768349369.938524 can0 281 [4] 86 9F 06 00
1768349369.938759 can0 481 [8] FA 1C 00 00 00 04 05 00
1768349369.945600 can0 501 [8] 0F 00 A0 86 01 00 00 00
1768349369.947692 can0 080 [0] 
1768349369.948464 can0 181 [6] 28 02 FF FF FF FF
1768349369.948465 can0 381 [2] 09 00
1768349369.948730 can0 281 [4] 86 9F 06 00
1768349369.948959 can0 481 [8] FA 1C 00 00 00 04 05 00
1768349369.955891 can0 501 [8] 0F 00 A0 86 01 00 00 00
1768349369.958053 can0 080 [0] 
1768349369.958810 can0 181 [6] 28 02 FF FF FF FF
1768349369.958811 can0 381 [2] FE FF
1768349369.959097 can0 281 [4] 86 9F 06 00
1768349369.959098 can0 481 [8] FA 1C 00 00 00 04 05 00
1768349369.966206 can0 501 [8] 0F 00 A0 86 01 00 00 00
1768349369.968300 can0 080 [0] 
1768349369.969058 can0 181 [6] 28 02 FF FF FF FF
1768349369.969059 can0 381 [2] FC FF
1768349369.969352 can0 281 [4] 86 9F 06 00
1768349369.969353 can0 481 [8] FC 1C 00 00 00 04 05 00
1768349369.976455 can0 501 [8] 0F 00 A0 86 01 00 00 00
1768349369.978590 can0 080 [0] 
1768349369.979323 can0 181 [6] 28 02 FF FF FF FF
1768349369.979323 can0 381 [2] F7 FF
1768349369.979587 can0 281 [4] 86 9F 06 00
1768349369.979815 can0 481 [8] 00 1D 00 00 00 04 05 00
1768349369.986729 can0 501 [8] 0F 00 A0 86 01 00 00 00
1768349369.988831 can0 080 [0] 
1768349369.989569 can0 181 [6] 28 02 FF FF FF FF
1768349369.989570 can0 381 [2] F5 FF
1768349369.989833 can0 281 [4] 86 9F 06 00
1768349369.990063 can0 481 [8] FC 1C 00 00 00 04 05 00
1768349369.997050 can0 501 [8] 0F 00 A0 86 01 00 00 00
1768349369.999080 can0 080 [0] 
1768349369.999825 can0 181 [6] 28 02 FF FF FF FF
1768349369.999825 can0 381 [2] F6 FF
1768349370.000087 can0 281 [4] 86 9F 06 00
1768349370.000320 can0 481 [8] FB 1C 00 00 00 04 05 00
1768349370.007204 can0 501 [8] 0F 00 A0 86 01 00 00 00
1768349370.009298 can0 080 [0] 
1768349370.010070 can0 181 [6] 28 02 FF FF FF FF
1768349370.010071 can0 381 [2] FD FF
1768349370.010334 can0 281 [4] 86 9F 06 00
1768349370.010563 can0 481 [8] FB 1C 00 00 00 04 05 00
1768349370.017431 can0 501 [8] 0F 00 A0 86 01 00 00 00
1768349370.019551 can0 080 [0] 
1768349370.020268 can0 181 [6] 28 02 FF FF FF FF
1768349370.020268 can0 381 [2] FC FF
1768349370.020527 can0 281 [4] 86 9F 06 00
1768349370.020760 can0 481 [8] FA 1C 00 00 00 04 05 00
1768349370.027674 can0 501 [8] 0F 00 A0 86 01 00 00 00
1768349370.029774 can0 080 [0] 
1768349370.030528 can0 181 [6] 28 02 FF FF FF FF
1768349370.030529 can0 381 [2] 04 00
1768349370.030793 can0 281 [4] 86 9F 06 00
1768349370.031045 can0 481 [8] F9 1C 00 00 00 04 05 00
1768349370.037948 can0 501 [8] 0F 00 A0 86 01 00 00 00
1768349370.040102 can0 080 [0] 
1768349370.040919 can0 181 [6] 28 02 FF FF FF FF
1768349370.040919 can0 381 [2] FB FF
1768349370.041296 can0 281 [4] 86 9F 06 00
1768349370.041296 can0 481 [8] FA 1C 00 00 00 04 05 00
1768349370.048229 can0 501 [8] 0F 00 A0 86 01 00 00 00
1768349370.050318 can0 080 [0] 
1768349370.051107 can0 181 [6] 28 02 FF FF FF FF
1768349370.051107 can0 381 [2] FE FF
1768349370.051379 can0 281 [4] 86 9F 06 00
1768349370.051607 can0 481 [8] FC 1C 00 00 00 04 05 00
1768349370.058516 can0 501 [8] 0F 00 A0 86 01 00 00 00
1768349370.060703 can0 080 [0] 
1768349370.061429 can0 181 [6] 28 02 FF FF FF FF
1768349370.061429 can0 381 [2] FA FF
1768349370.061718 can0 281 [4] 86 9F 06 00
1768349370.061718 can0 481 [8] FF 1C 00 00 00 04 05 00
1768349370.068846 can0 501 [8] 0F 00 A0 86 01 00 00 00
1768349370.070944 can0 080 [0] 
1768349370.071663 can0 181 [6] 28 02 FF FF FF FF
1768349370.071664 can0 381 [2] 00 00
1768349370.071927 can0 281 [4] 86 9F 06 00
1768349370.072222 can0 481 [8] FD 1C 00 00 00 04 05 00
1768349370.079139 can0 501 [8] 0F 00 A0 86 01 00 00 00
1768349370.081277 can0 080 [0] 
1768349370.082070 can0 181 [6] 28 02 FF FF FF FF
1768349370.082070 can0 381 [2] FF FF
1768349370.082360 can0 281 [4] 86 9F 06 00
1768349370.082360 can0 481 [8] FC 1C 00 00 00 04 05 00
1768349370.089460 can0 501 [8] 0F 00 A0 86 01 00 00 00
1768349370.091585 can0 080 [0] 
1768349370.092328 can0 181 [6] 28 02 FF FF FF FF
1768349370.092328 can0 381 [2] FB FF
1768349370.092590 can0 281 [4] 86 9F 06 00
1768349370.092824 can0 481 [8] FC 1C 00 00 00 04 05 00
1768349370.099777 can0 501 [8] 0F 00 A0 86 01 00 00 00
1768349370.101926 can0 080 [0] 
1768349370.102667 can0 181 [6] 28 02 FF FF FF FF
1768349370.102668 can0 381 [2] 00 00
1768349370.102930 can0 281 [4] 86 9F 06 00
1768349370.103223 can0 481 [8] FD 1C 00 00 00 04 05 00
1768349370.110112 can0 501 [8] 0F 00 A0 86 01 00 00 00
1768349370.112290 can0 080 [0] 
1768349370.113054 can0 181 [6] 28 02 FF FF FF FF
1768349370.113055 can0 381 [2] FF FF
1768349370.113328 can0 281 [4] 86 9F 06 00
1768349370.113328 can0 481 [8] F9 1C 00 00 00 04 05 00
1768349370.120463 can0 501 [8] 0F 00 A0 86 01 00 00 00
1768349370.122580 can0 080 [0] 
1768349370.123361 can0 181 [6] 28 02 FF FF FF FF
1768349370.123362 can0 381 [2] FD FF
1768349370.123644 can0 281 [4] 86 9F 06 00
1768349370.123645 can0 481 [8] FA 1C 00 00 00 04 05 00
1768349370.130710 can0 501 [8] 0F 00 A0 86 01 00 00 00
1768349370.132829 can0 080 [0] 
1768349370.133699 can0 181 [6] 28 02 FF FF FF FF
1768349370.133700 can0 381 [2] FF FF
1768349370.134046 can0 281 [4] 86 9F 06 00
1768349370.134046 can0 481 [8] FE 1C 00 00 00 04 05 00
1768349370.140960 can0 501 [8] 0F 00 A0 86 01 00 00 00
1768349370.143078 can0 080 [0] 
1768349370.143872 can0 181 [6] 28 02 FF FF FF FF
1768349370.143873 can0 381 [2] 04 00
1768349370.144160 can0 281 [4] 86 9F 06 00
1768349370.144161 can0 481 [8] F7 1C 00 00 00 04 05 00
1768349370.151228 can0 501 [8] 0F 00 A0 86 01 00 00 00
1768349370.153322 can0 080 [0] 
1768349370.154068 can0 181 [6] 28 02 FF FF FF FF
1768349370.154069 can0 381 [2] 00 00
1768349370.154333 can0 281 [4] 86 9F 06 00
1768349370.154549 can0 481 [8] F8 1C 00 00 00 04 05 00
1768349370.161461 can0 501 [8] 0F 00 A0 86 01 00 00 00
1768349370.163551 can0 080 [0] 
1768349370.164269 can0 181 [6] 28 02 FF FF FF FF
1768349370.164270 can0 381 [2] FE FF
1768349370.164564 can0 281 [4] 86 9F 06 00
1768349370.164565 can0 481 [8] FA 1C 00 00 00 04 05 00
1768349370.171677 can0 501 [8] 0F 00 A0 86 01 00 00 00
1768349370.173787 can0 080 [0] 
1768349370.174515 can0 181 [6] 28 02 FF FF FF FF
1768349370.174516 can0 381 [2] FD FF
1768349370.174777 can0 281 [4] 86 9F 06 00
1768349370.175048 can0 481 [8] F8 1C 00 00 00 04 05 00
1768349370.181916 can0 501 [8] 0F 00 A0 86 01 00 00 00
1768349370.184052 can0 080 [0] 
1768349370.184863 can0 181 [6] 28 02 FF FF FF FF
1768349370.184864 can0 381 [2] 06 00
1768349370.185163 can0 281 [4] 86 9F 06 00
1768349370.185164 can0 481 [8] F3 1C 00 00 00 04 05 00
1768349370.192167 can0 501 [8] 0F 00 A0 86 01 00 00 00
1768349370.194281 can0 080 [0] 
1768349370.195052 can0 181 [6] 28 02 FF FF FF FF
1768349370.195052 can0 381 [2] 04 00
1768349370.195342 can0 281 [4] 86 9F 06 00
1768349370.195343 can0 481 [8] 00 1D 00 00 00 04 05 00
1768349370.202437 can0 501 [8] 0F 00 A0 86 01 00 00 00
1768349370.204522 can0 080 [0] 
1768349370.205273 can0 181 [6] 28 02 FF FF FF FF
1768349370.205274 can0 381 [2] 02 00
1768349370.205549 can0 281 [4] 86 9F 06 00
1768349370.205770 can0 481 [8] FB 1C 00 00 00 04 05 00
1768349370.212651 can0 501 [8] 0F 00 A0 86 01 00 00 00
1768349370.214757 can0 080 [0] 
1768349370.215515 can0 181 [6] 28 02 FF FF FF FF
1768349370.215515 can0 381 [2] FA FF
1768349370.215801 can0 281 [4] 86 9F 06 00
1768349370.215801 can0 481 [8] FA 1C 00 00 00 04 05 00
1768349370.222893 can0 501 [8] 0F 00 A0 86 01 00 00 00
1768349370.225057 can0 080 [0] 
1768349370.225820 can0 181 [6] 28 02 FF FF FF FF
1768349370.225820 can0 381 [2] FE FF
1768349370.226075 can0 281 [4] 86 9F 06 00
1768349370.226309 can0 481 [8] FE 1C 00 00 00 04 05 00
1768349370.233118 can0 501 [8] 0F 00 A0 86 01 00 00 00
1768349370.235244 can0 080 [0] 
1768349370.236054 can0 181 [6] 28 02 FF FF FF FF
1768349370.236055 can0 381 [2] FF FF
1768349370.236343 can0 281 [4] 86 9F 06 00
1768349370.236343 can0 481 [8] FB 1C 00 00 00 04 05 00
1768349370.243441 can0 501 [8] 0F 00 A0 86 01 00 00 00
1768349370.245558 can0 080 [0] 
1768349370.246303 can0 181 [6] 28 02 FF FF FF FF
1768349370.246304 can0 381 [2] 06 00
1768349370.246593 can0 281 [4] 86 9F 06 00
1768349370.246593 can0 481 [8] F8 1C 00 00 00 04 05 00
1768349370.253685 can0 501 [8] 0F 00 A0 86 01 00 00 00
1768349370.255789 can0 080 [0] 
1768349370.256521 can0 181 [6] 28 02 FF FF FF FF
1768349370.256521 can0 381 [2] FB FF
1768349370.256784 can0 281 [4] 86 9F 06 00
1768349370.257049 can0 481 [8] F8 1C 00 00 00 04 05 00
1768349370.263917 can0 501 [8] 0F 00 A0 86 01 00 00 00
1768349370.266051 can0 080 [0] 
1768349370.266763 can0 181 [6] 28 02 FF FF FF FF
1768349370.266764 can0 381 [2] 0F 00
1768349370.267051 can0 281 [4] 86 9F 06 00
1768349370.267278 can0 481 [8] 00 1D 00 00 00 04 05 00
1768349370.274138 can0 501 [8] 0F 00 A0 86 01 00 00 00
