;$FILEVERSION=1.1
;$STARTTIME=46034.8190214468
;
;   Start time: 12-01-2026 19:39:23.453.0
;   Generated by PCAN-View v5.3.3.958
;
;   Message Number
;   |         Time Offset (ms)
;   |         |        Type
;   |         |        |        ID (hex)
;   |         |        |        |     Data Length
;   |         |        |        |     |   Data Bytes (hex) ...
;   |         |        |        |     |   |
;---+--   ----+----  --+--  ----+---  +  -+ -- -- -- -- -- -- --
     1)      6889.8  Rx         0000  2  80 01 
     2)      6889.9  Rx         0000  2  80 02 
     3)      6890.0  Rx         0000  2  80 03 
     4)      6890.1  Rx         0000  2  80 04 
     5)      6890.2  Rx         0601  8  42 02 20 05 00 00 00 00 
     6)      6890.5  Rx         0581  8  42 02 20 05 05 00 00 00 
     7)      6891.7  Rx         0000  2  80 01 
     8)      6891.9  Rx         0601  8  42 00 14 01 00 00 00 00 
     9)      6892.3  Rx         0581  8  42 00 14 01 01 02 00 80 
    10)      6892.9  Rx         0601  8  23 00 14 01 01 02 00 80 
    11)      6893.3  Rx         0581  8  60 00 14 01 00 00 00 00 
    12)      6894.0  Rx         0601  8  42 01 14 01 00 00 00 00 
    13)      6894.3  Rx         0581  8  42 01 14 01 01 03 00 80 
    14)      6895.1  Rx         0601  8  23 01 14 01 01 03 00 80 
    15)      6895.6  Rx         0581  8  60 01 14 01 00 00 00 00 
    16)      6896.3  Rx         0601  8  42 02 14 01 00 00 00 00 
    17)      6896.6  Rx         0581  8  42 02 14 01 01 05 00 80 
    18)      6897.4  Rx         0601  8  23 02 14 01 01 05 00 80 
    19)      6897.7  Rx         0581  8  60 02 14 01 00 00 00 00 
    20)      6898.5  Rx         0601  8  42 03 14 01 00 00 00 00 
    21)      6898.8  Rx         0581  8  42 03 14 01 01 05 00 00 
    22)      6899.6  Rx         0601  8  23 03 14 01 01 05 00 80 
    23)      6900.0  Rx         0581  8  60 03 14 01 00 00 00 00 
    24)      6900.8  Rx         0601  8  42 04 14 01 00 00 00 00 
    25)      6901.0  Rx         0581  8  42 04 14 01 21 04 00 80 
    26)      6901.9  Rx         0601  8  23 04 14 01 21 04 00 80 
    27)      6902.2  Rx         0581  8  60 04 14 01 00 00 00 00 
    28)      6903.0  Rx         0601  8  42 14 14 01 00 00 00 00 
    29)      6903.3  Rx         0581  8  42 14 14 01 01 05 00 80 
    30)      6904.1  Rx         0601  8  23 14 14 01 01 05 00 80 
    31)      6904.4  Rx         0581  8  60 14 14 01 00 00 00 00 
    32)      6905.2  Rx         0601  8  42 15 14 01 00 00 00 00 
    33)      6905.5  Rx         0581  8  42 15 14 01 11 05 00 80 
    34)      6906.3  Rx         0601  8  23 15 14 01 11 05 00 80 
    35)      6906.7  Rx         0581  8  60 15 14 01 00 00 00 00 
    36)      6907.4  Rx         0601  8  42 16 14 01 00 00 00 00 
    37)      6907.7  Rx         0581  8  42 16 14 01 21 05 00 80 
    38)      6908.5  Rx         0601  8  23 16 14 01 21 05 00 80 
    39)      6908.9  Rx         0581  8  60 16 14 01 00 00 00 00 
    40)      6909.7  Rx         0601  8  42 17 14 01 00 00 00 00 
    41)      6910.0  Rx         0581  8  42 17 14 01 31 05 00 80 
    42)      6910.8  Rx         0601  8  23 17 14 01 31 05 00 80 
    43)      6911.2  Rx         0581  8  60 17 14 01 00 00 00 00 
    44)      6912.0  Rx         0601  8  42 19 14 01 00 00 00 00 
    45)      6912.3  Rx         0581  8  42 19 14 01 00 05 00 80 
    46)      6913.1  Rx         0601  8  23 19 14 01 00 05 00 80 
    47)      6913.5  Rx         0581  8  60 19 14 01 00 00 00 00 
    48)      6914.2  Rx         0601  8  42 20 14 01 00 00 00 00 
    49)      6914.5  Rx         0581  8  42 20 14 01 51 05 00 80 
    50)      6915.3  Rx         0601  8  23 20 14 01 51 05 00 80 
    51)      6915.7  Rx         0581  8  60 20 14 01 00 00 00 00 
    52)      6916.5  Rx         0601  8  42 21 14 01 00 00 00 00 
    53)      6916.7  Rx         0581  8  42 21 14 01 61 05 00 80 
    54)      6917.6  Rx         0601  8  23 21 14 01 61 05 00 80 
    55)      6917.9  Rx         0581  8  60 21 14 01 00 00 00 00 
    56)      6918.7  Rx         0601  8  42 CA 20 07 00 00 00 00 
    57)      6919.1  Rx         0581  8  42 CA 20 07 00 00 00 00 
    58)      6919.8  Rx         0601  8  42 CA 20 08 00 00 00 00 
    59)      6920.3  Rx         0581  8  42 CA 20 08 00 00 00 00 
    60)      6921.0  Rx         0601  8  42 CA 20 09 00 00 00 00 
    61)      6921.4  Rx         0581  8  42 CA 20 09 00 00 00 00 
    62)      6922.1  Rx         0601  8  42 CA 20 0A 00 00 00 00 
    63)      6922.5  Rx         0581  8  42 CA 20 0A 00 00 00 00 
    64)      6923.2  Rx         0601  8  42 D8 20 09 00 00 00 00 
    65)      6923.8  Rx         0581  8  42 D8 20 09 70 03 00 00 
    66)      6924.3  Rx         0601  8  42 0F 20 01 00 00 00 00 
    67)      6924.5  Rx         0581  8  42 0F 20 01 FD 1C 00 00 
    68)      6925.4  Rx         0601  8  42 D8 20 0C 00 00 00 00 
    69)      6926.0  Rx         0581  8  42 D8 20 0C C8 00 00 00 
    70)      6926.5  Rx         0601  8  42 D8 20 24 00 00 00 00 
    71)      6927.1  Rx         0581  8  42 D8 20 24 00 00 14 00 
    72)      6927.7  Rx         0601  8  21 3C 20 09 08 00 00 00 
    73)      6928.0  Rx         0581  8  60 3C 20 09 00 00 00 00 
    74)      6928.9  Rx         0601  8  00 FF 40 55 55 0D 00 00 
    75)      6929.1  Rx         0581  8  20 FF 40 55 00 00 00 00 
    76)      6930.0  Rx         0601  8  11 00 40 55 55 0D 00 00 
    77)      6930.5  Rx         0581  8  30 00 40 55 00 00 00 00 
    78)      6931.1  Rx         0601  8  40 3C 20 09 00 00 00 00 
    79)      6931.5  Rx         0581  8  40 3C 20 09 00 00 00 00 
    80)      6932.2  Rx         0601  8  60 3C 20 09 00 00 00 00 
    81)      6932.4  Rx         0581  8  00 FF 40 55 55 0D 00 00 
    82)      6933.3  Rx         0601  8  70 3C 20 09 00 00 00 00 
    83)      6933.5  Rx         0581  8  11 00 20 09 55 0D 00 00 
    84)      6934.4  Rx         0601  8  23 37 20 01 00 00 1E 00 
    85)      6934.8  Rx         0581  8  60 37 20 01 00 00 00 00 
    86)      6935.6  Rx         0601  8  23 37 20 02 11 11 00 00 
    87)      6935.9  Rx         0581  8  60 37 20 02 00 00 00 00 
    88)      6936.7  Rx         0601  8  23 37 20 03 11 11 00 00 
    89)      6937.1  Rx         0581  8  60 37 20 03 00 00 00 00 
    90)      6937.8  Rx         0601  8  23 37 20 04 55 55 00 00 
    91)      6938.2  Rx         0581  8  60 37 20 04 00 00 00 00 
    92)      6938.9  Rx         0601  8  23 37 20 05 AA AA 1A 00 
    93)      6939.3  Rx         0581  8  60 37 20 05 00 00 00 00 
    94)      6940.0  Rx         0601  8  23 37 20 06 56 55 E5 FF 
    95)      6940.4  Rx         0581  8  60 37 20 06 00 00 00 00 
    96)      6941.1  Rx         0601  8  23 37 20 07 00 00 00 00 
    97)      6941.5  Rx         0581  8  60 37 20 07 00 00 00 00 
    98)      6942.2  Rx         0601  8  23 39 20 01 00 00 00 00 
    99)      6942.8  Rx         0581  8  60 39 20 01 00 00 00 00 
   100)      6943.4  Rx         0601  8  23 39 20 02 00 00 00 00 
   101)      6943.8  Rx         0581  8  60 39 20 02 00 00 00 00 
   102)      6944.5  Rx         0601  8  23 39 20 03 00 00 00 40 
   103)      6944.9  Rx         0581  8  60 39 20 03 00 00 00 00 
   104)      6945.6  Rx         0601  8  23 39 20 04 00 00 00 80 
   105)      6946.1  Rx         0581  8  60 39 20 04 00 00 00 00 
   106)      6946.7  Rx         0601  8  23 39 20 05 64 00 00 00 
   107)      6947.2  Rx         0581  8  60 39 20 05 00 00 00 00 
   108)      6947.8  Rx         0601  8  23 39 20 06 64 00 00 00 
   109)      6948.2  Rx         0581  8  60 39 20 06 00 00 00 00 
   110)      6948.9  Rx         0601  8  23 39 20 07 A0 0F 00 00 
   111)      6949.4  Rx         0581  8  60 39 20 07 00 00 00 00 
   112)      6950.1  Rx         0601  8  23 39 20 08 00 00 00 40 
   113)      6950.5  Rx         0581  8  60 39 20 08 00 00 00 00 
   114)      6951.2  Rx         0601  8  23 39 20 09 00 00 00 80 
   115)      6951.6  Rx         0581  8  60 39 20 09 00 00 00 00 
   116)      6952.3  Rx         0601  8  23 39 20 0A 00 00 00 00 
   117)      6952.7  Rx         0581  8  60 39 20 0A 00 00 00 00 
   118)      6953.4  Rx         0601  8  23 39 20 0B 00 00 00 00 
   119)      6953.8  Rx         0581  8  60 39 20 0B 00 00 00 00 
   120)      6954.6  Rx         0601  8  42 03 14 01 00 00 00 00 
   121)      6954.9  Rx         0581  8  42 03 14 01 01 05 00 80 
   122)      6955.8  Rx         0601  8  23 03 14 01 01 05 00 80 
   123)      6956.1  Rx         0581  8  60 03 14 01 00 00 00 00 
   124)      6956.9  Rx         0601  8  23 03 14 01 01 05 00 00 
   125)      6957.3  Rx         0581  8  60 03 14 01 00 00 00 00 
   126)      6958.0  Rx         0601  8  2F 03 14 02 01 00 00 00 
   127)      6958.3  Rx         0581  8  60 03 14 02 00 00 00 00 
   128)      6959.1  Rx         0601  8  42 03 18 01 00 00 00 00 
   129)      6959.5  Rx         0581  8  42 03 18 01 81 01 00 00 
   130)      6960.3  Rx         0601  8  23 03 18 01 81 01 00 80 
   131)      6960.6  Rx         0581  8  60 03 18 01 00 00 00 00 
   132)      6961.4  Rx         0601  8  23 03 18 01 81 01 00 00 
   133)      6961.7  Rx         0581  8  60 03 18 01 00 00 00 00 
   134)      6962.5  Rx         0601  8  2F 03 18 02 01 00 00 00 
   135)      6962.8  Rx         0581  8  60 03 18 02 00 00 00 00 
   136)      6963.6  Rx         0601  8  42 14 18 01 00 00 00 00 
   137)      6963.9  Rx         0581  8  42 14 18 01 81 02 00 00 
   138)      6964.7  Rx         0601  8  23 14 18 01 81 02 00 80 
   139)      6965.1  Rx         0581  8  60 14 18 01 00 00 00 00 
   140)      6965.8  Rx         0601  8  23 14 18 01 81 02 00 00 
   141)      6966.2  Rx         0581  8  60 14 18 01 00 00 00 00 
   142)      6967.0  Rx         0601  8  2F 14 18 02 01 00 00 00 
   143)      6967.3  Rx         0581  8  60 14 18 02 00 00 00 00 
   144)      6968.1  Rx         0601  8  42 16 18 01 00 00 00 00 
   145)      6968.4  Rx         0581  8  42 16 18 01 81 03 00 00 
   146)      6969.2  Rx         0601  8  23 16 18 01 81 03 00 80 
   147)      6969.6  Rx         0581  8  60 16 18 01 00 00 00 00 
   148)      6970.3  Rx         0601  8  23 16 18 01 81 03 00 00 
   149)      6970.7  Rx         0581  8  60 16 18 01 00 00 00 00 
   150)      6971.4  Rx         0601  8  2F 16 18 02 01 00 00 00 
   151)      6971.8  Rx         0581  8  60 16 18 02 00 00 00 00 
   152)      6972.6  Rx         0601  8  42 19 18 01 00 00 00 00 
   153)      6972.9  Rx         0581  8  42 19 18 01 81 04 00 00 
   154)      6973.8  Rx         0601  8  23 19 18 01 81 04 00 80 
   155)      6974.1  Rx         0581  8  60 19 18 01 00 00 00 00 
   156)      6974.9  Rx         0601  8  2F 19 1A 00 00 00 00 00 
   157)      6975.2  Rx         0581  8  60 19 1A 00 00 00 00 00 
   158)      6976.0  Rx         0601  8  23 19 1A 01 10 01 0F 20 
   159)      6976.3  Rx         0581  8  60 19 1A 01 00 00 00 00 
   160)      6977.1  Rx         0601  8  23 19 1A 02 10 02 02 20 
   161)      6977.4  Rx         0581  8  60 19 1A 02 00 00 00 00 
   162)      6978.2  Rx         0601  8  23 19 1A 03 10 03 02 20 
   163)      6978.6  Rx         0581  8  60 19 1A 03 00 00 00 00 
   164)      6979.3  Rx         0601  8  23 19 1A 04 10 05 02 20 
   165)      6979.6  Rx         0581  8  60 19 1A 04 00 00 00 00 
   166)      6980.5  Rx         0601  8  2F 19 1A 00 04 00 00 00 
   167)      6980.8  Rx         0581  8  60 19 1A 00 00 00 00 00 
   168)      6981.6  Rx         0601  8  23 19 18 01 81 04 00 00 
   169)      6981.9  Rx         0581  8  60 19 18 01 00 00 00 00 
   170)      6982.7  Rx         0601  8  2F 19 18 02 01 00 00 00 
   171)      6983.0  Rx         0581  8  60 19 18 02 00 00 00 00 
   172)      6983.9  Rx         0000  2  80 01 
   173)      6984.0  Rx         0601  8  2B 40 60 00 80 00 00 00 
   174)      6984.4  Rx         0581  8  60 40 60 00 00 00 00 00 
   175)      6985.0  Rx         0601  8  2F 60 60 00 03 00 00 00 
   176)      6985.4  Rx         0581  8  60 60 60 00 00 00 00 00 
   177)      6986.2  Rx         0601  8  23 FF 60 00 00 00 00 00 
   178)      6986.4  Rx         0581  8  60 FF 60 00 00 00 00 00 
   179)      6987.3  Rx         0601  8  23 83 60 00 00 00 00 00 
   180)      6987.5  Rx         0581  8  80 83 60 00 00 00 02 06 
   181)      6988.5  Rx         0601  8  2B 40 60 00 80 00 00 00 
   182)      6988.8  Rx         0581  8  60 40 60 00 00 00 00 00 
   183)      6989.7  Rx         0601  8  2B 40 60 00 06 00 00 00 
   184)      6990.0  Rx         0581  8  60 40 60 00 00 00 00 00 
   185)      6990.8  Rx         0601  8  2B 40 60 00 07 00 00 00 
   186)      6991.0  Rx         0581  8  60 40 60 00 00 00 00 00 
   187)      6991.9  Rx         0601  8  2B 40 60 00 0F 00 00 00 
   188)      6992.2  Rx         0581  8  60 40 60 00 00 00 00 00 
   189)      6993.0  Rx         0000  2  01 01 
   190)      6993.2  Rx         0601  8  2B 86 60 00 02 00 00 00 
   191)      6993.8  Rx         0581  8  60 86 60 00 00 00 00 00 
   192)      6994.3  Rx         0601  8  21 3C 20 01 06 00 00 00 
   193)      6994.5  Rx         0581  8  60 3C 20 01 00 00 00 00 
   194)      6995.4  Rx         0601  8  01 3E C3 AE 00 00 00 00 
   195)      6995.9  Rx         0581  8  20 3E C3 AE 00 00 00 00 
   196)      6996.5  Rx         0601  8  21 3C 20 02 06 00 00 00 
   197)      6996.8  Rx         0581  8  60 3C 20 02 00 00 00 00 
   198)      6997.6  Rx         0601  8  01 3E C3 AE 00 00 00 00 
   199)      6998.2  Rx         0581  8  20 3E C3 AE 00 00 00 00 
   200)      6998.7  Rx         0601  8  21 3C 20 03 06 00 00 00 
   201)      6999.1  Rx         0581  8  60 3C 20 03 00 00 00 00 
   202)      6999.9  Rx         0601  8  01 3E C3 AE 00 00 00 00 
   203)      7000.4  Rx         0581  8  20 3E C3 AE 00 00 00 00 
   204)      7001.0  Rx         0601  8  21 3C 20 04 06 00 00 00 
   205)      7001.3  Rx         0581  8  60 3C 20 04 00 00 00 00 
   206)      7002.1  Rx         0601  8  01 3E C3 AE 00 00 00 00 
   207)      7002.7  Rx         0581  8  20 3E C3 AE 00 00 00 00 
   208)      7003.3  Rx         0601  8  2B 0C 10 00 0A 00 00 00 
   209)      7003.5  Rx         0581  8  60 0C 10 00 00 00 00 00 
   210)      7004.4  Rx         0601  8  2F 0D 10 00 FA 00 00 00 
   211)      7004.6  Rx         0581  8  60 0D 10 00 00 00 00 00 
   212)      7005.4  Rx         0701  0  RTR
   213)      7005.6  Rx         0601  8  2B 5A 20 40 00 00 00 00 
   214)      7005.6  Rx         0701  1  05 
   215)      7006.6  Rx         0581  8  60 5A 20 40 00 00 00 00 
   216)      7007.7  Rx         0601  8  2B 5A 20 2E 01 00 00 00 
   217)      7008.9  Rx         0581  8  60 5A 20 2E 00 00 00 00 
   218)      7009.9  Rx         0601  8  2B 5A 20 01 00 00 00 00 
   219)      7011.1  Rx         0581  8  60 5A 20 01 00 00 00 00 
   220)      7012.2  Rx         0601  8  2B 65 20 2B 0A 00 00 00 
   221)      7013.0  Rx         0581  8  60 65 20 2B 00 00 00 00 
   222)      7013.3  Rx         0601  8  42 41 60 00 00 00 00 00 
   223)      7013.6  Rx         0581  8  42 41 60 00 28 06 00 00 
   224)      7014.4  Rx         0501  6  80 00 00 00 00 00 
   225)      7014.5  Rx         0080  0  
   226)      7014.7  Rx         0185  8  00 00 00 00 00 47 4D 11 
   227)      7014.8  Rx         0181  6  28 06 00 00 00 00 
   228)      7014.9  Rx         0285  8  00 00 00 82 00 47 4D 11 
   229)      7015.0  Rx         0381  2  08 00 
   230)      7015.0  Rx         0281  4  17 E8 2E 00 
   231)      7015.2  Rx         0385  8  00 00 00 00 00 47 4D 11 
   232)      7015.3  Rx         0481  8  FA 1C 00 00 00 04 03 00 
   233)      7015.4  Rx         0485  8  00 00 00 00 00 47 4D 11 
   234)      7024.6  Rx         0701  0  RTR
   235)      7024.7  Rx         0601  8  42 02 20 01 00 00 00 00 
   236)      7024.8  Rx         0701  1  85 
   237)      7025.0  Rx         0581  8  42 02 20 01 80 00 00 00 
   238)      7025.8  Rx         0601  8  42 02 20 02 00 00 00 00 
   239)      7026.1  Rx         0581  8  42 02 20 02 00 00 00 00 
   240)      7026.9  Rx         0601  8  42 02 20 03 00 00 00 00 
   241)      7027.2  Rx         0581  8  42 02 20 03 00 00 00 00 
   242)      7028.0  Rx         0601  8  42 02 20 04 00 00 00 00 
   243)      7028.4  Rx         0581  8  42 02 20 04 02 00 00 00 
   244)      7029.2  Rx         0601  8  42 02 20 05 00 00 00 00 
   245)      7029.5  Rx         0581  8  42 02 20 05 03 00 00 00 
   246)      7030.3  Rx         0601  8  42 02 20 06 00 00 00 00 
   247)      7030.6  Rx         0581  8  42 02 20 06 00 00 00 00 
   248)      7031.4  Rx         0601  8  42 02 20 07 00 00 00 00 
   249)      7031.7  Rx         0581  8  42 02 20 07 00 00 00 00 
   250)      7033.1  Rx         0601  8  2F 0D 10 00 14 00 00 00 
   251)      7033.3  Rx         0581  8  60 0D 10 00 00 00 00 00 
   252)      7034.2  Rx         0501  6  00 00 99 99 03 00 
   253)      7034.3  Rx         0080  0  
   254)      7034.4  Rx         0701  0  RTR
   255)      7034.5  Rx         0181  6  60 06 00 00 00 00 
   256)      7034.6  Rx         0185  8  00 00 00 00 00 4F 8C 6C 
   257)      7034.7  Rx         0381  2  03 00 
   258)      7034.8  Rx         0281  4  17 E8 2E 00 
   259)      7034.9  Rx         0285  8  00 00 00 82 00 4F 8C 6C 
   260)      7035.0  Rx         0481  8  FD 1C 00 00 00 00 03 00 
   261)      7035.1  Rx         0385  8  00 00 00 00 00 4F 8C 6C 
   262)      7035.2  Rx         0701  1  05 
   263)      7035.3  Rx         0485  8  00 00 00 00 00 4F 8C 6C 
   264)      7044.4  Rx         0501  6  06 00 99 99 03 00 
   265)      7044.6  Rx         0080  0  
   266)      7044.7  Rx         0185  8  00 00 00 00 00 53 AA E6 
   267)      7044.8  Rx         0181  6  60 02 00 00 00 00 
   268)      7045.0  Rx         0285  8  00 00 00 82 00 53 AA E6 
   269)      7045.0  Rx         0381  2  F7 FF 
   270)      7045.1  Rx         0281  4  17 E8 2E 00 
   271)      7045.2  Rx         0385  8  00 00 00 00 00 53 AA E6 
   272)      7045.3  Rx         0481  8  F4 1C 00 00 00 00 05 00 
   273)      7045.5  Rx         0485  8  00 00 00 00 00 53 AA E6 
   274)      7045.5  Rx         0701  0  RTR
   275)      7045.7  Rx         0701  1  85 
   276)      7054.6  Rx         0501  6  06 00 99 99 03 00 
   277)      7054.7  Rx         0080  0  
   278)      7054.8  Rx         0701  0  RTR
   279)      7054.9  Rx         0185  8  00 00 00 00 00 57 C9 FF 
   280)      7055.0  Rx         0181  6  21 02 00 00 00 00 
   281)      7055.1  Rx         0285  8  00 00 00 82 00 57 C9 FF 
   282)      7055.2  Rx         0381  2  09 00 
   283)      7055.3  Rx         0281  4  17 E8 2E 00 
   284)      7055.4  Rx         0385  8  00 00 00 00 00 57 C9 FF 
   285)      7055.5  Rx         0701  1  05 
   286)      7055.6  Rx         0481  8  F8 1C 00 00 00 00 05 00 
   287)      7055.7  Rx         0485  8  00 00 00 00 00 57 C9 FF 
   288)      7064.9  Rx         0501  6  07 00 99 99 03 00 
   289)      7065.0  Rx         0080  0  
   290)      7065.0  Rx         0701  0  RTR
   291)      7065.2  Rx         0185  8  00 00 00 00 00 5B E9 18 
   292)      7065.3  Rx         0285  8  00 00 00 82 00 5B E9 18 
   293)      7065.4  Rx         0181  6  21 02 00 00 00 00 
   294)      7065.5  Rx         0381  2  00 00 
   295)      7065.6  Rx         0281  4  17 E8 2E 00 
   296)      7065.7  Rx         0385  8  00 00 00 00 00 5B E9 18 
   297)      7065.8  Rx         0481  8  F8 1C 00 00 00 00 05 00 
   298)      7065.9  Rx         0485  8  00 00 00 00 00 5B E9 18 
   299)      7066.0  Rx         0701  1  85 
   300)      7075.1  Rx         0501  6  07 00 99 99 03 00 
   301)      7075.2  Rx         0080  0  
   302)      7075.3  Rx         0185  8  00 00 00 00 00 60 08 47 
   303)      7075.4  Rx         0701  0  RTR
   304)      7075.5  Rx         0181  6  23 02 00 00 00 00 
   305)      7075.6  Rx         0285  8  00 00 00 82 00 60 08 47 
   306)      7075.7  Rx         0381  2  FE FF 
   307)      7075.8  Rx         0281  4  17 E8 2E 00 
   308)      7075.9  Rx         0385  8  00 00 00 00 00 60 08 47 
   309)      7076.0  Rx         0481  8  F7 1C 00 00 00 00 05 00 
   310)      7076.1  Rx         0485  8  00 00 00 00 00 60 08 47 
   311)      7076.2  Rx         0701  1  05 
   312)      7085.3  Rx         0501  6  0F 00 99 99 03 00 
   313)      7085.4  Rx         0080  0  
   314)      7085.4  Rx         0701  0  RTR
   315)      7085.6  Rx         0185  8  00 00 00 00 00 64 27 5F 
   316)      7085.7  Rx         0181  6  23 02 00 00 00 00 
   317)      7085.8  Rx         0285  8  00 00 00 82 00 64 27 5F 
   318)      7085.9  Rx         0381  2  07 00 
   319)      7086.0  Rx         0281  4  17 E8 2E 00 
   320)      7086.0  Rx         0385  8  00 00 00 00 00 64 27 5F 
   321)      7086.1  Rx         0701  1  85 
   322)      7086.3  Rx         0481  8  FB 1C 00 00 00 00 05 00 
   323)      7086.3  Rx         0485  8  00 00 00 00 00 64 27 5F 
   324)      7095.5  Rx         0501  6  0F 00 99 99 03 00 
   325)      7095.6  Rx         0080  0  
   326)      7095.6  Rx         0701  0  RTR
   327)      7095.8  Rx         0185  8  00 00 00 00 00 68 46 E4 
   328)      7095.9  Rx         0181  6  37 02 29 00 00 00 
   329)      7096.0  Rx         0285  8  00 00 00 82 00 68 46 E4 
   330)      7096.1  Rx         0381  2  CA 01 
   331)      7096.2  Rx         0281  4  18 E8 2E 00 
   332)      7096.2  Rx         0385  8  00 00 00 00 00 68 46 E4 
   333)      7096.3  Rx         0701  1  05 
   334)      7096.5  Rx         0481  8  F9 1C 00 00 00 00 21 00 
   335)      7096.5  Rx         0485  8  00 00 00 00 00 68 46 E4 
   336)      7105.7  Rx         0501  6  0F 00 99 99 03 00 
   337)      7105.8  Rx         0080  0  
   338)      7105.8  Rx         0701  0  RTR
   339)      7105.9  Rx         0181  6  37 02 4D 08 00 00 
   340)      7106.1  Rx         0185  8  00 00 00 00 00 6C 65 AE 
   341)      7106.1  Rx         0381  2  46 04 
   342)      7106.2  Rx         0281  4  18 E8 2E 00 
   343)      7106.3  Rx         0285  8  00 00 00 82 00 6C 65 AE 
   344)      7106.4  Rx         0481  8  F8 1C 00 00 00 00 25 00 
   345)      7106.6  Rx         0385  8  00 00 00 00 00 6C 65 AE 
   346)      7106.6  Rx         0701  1  85 
   347)      7106.7  Rx         0485  8  00 00 00 00 00 6C 65 AE 
   348)      7115.9  Rx         0501  6  0F 00 99 99 03 00 
   349)      7116.0  Rx         0080  0  
   350)      7116.1  Rx         0701  0  RTR
   351)      7116.2  Rx         0185  8  00 00 00 00 00 70 84 CA 
   352)      7116.3  Rx         0181  6  37 02 5D 01 00 00 
   353)      7116.4  Rx         0285  8  00 00 00 82 00 70 84 CA 
   354)      7116.5  Rx         0381  2  66 07 
   355)      7116.5  Rx         0281  4  18 E8 2E 00 
   356)      7116.7  Rx         0385  8  00 00 00 00 00 70 84 CA 
   357)      7116.8  Rx         0481  8  F6 1C 00 00 00 00 25 00 
   358)      7116.9  Rx         0485  8  00 00 00 00 00 70 84 CA 
   359)      7117.0  Rx         0701  1  05 
   360)      7126.1  Rx         0501  6  0F 00 99 99 03 00 
   361)      7126.1  Rx         0080  0  
   362)      7126.2  Rx         0701  0  RTR
   363)      7126.4  Rx         0185  8  00 00 00 00 00 74 99 18 
   364)      7126.4  Rx         0181  6  37 02 6A 01 00 00 
   365)      7126.6  Rx         0285  8  00 00 00 82 00 74 99 18 
   366)      7126.7  Rx         0381  2  1F 0A 
   367)      7126.7  Rx         0281  4  19 E8 2E 00 
   368)      7126.8  Rx         0385  8  00 00 00 00 00 74 99 18 
   369)      7126.9  Rx         0701  1  85 
   370)      7127.0  Rx         0481  8  F4 1C 00 00 00 00 25 00 
   371)      7127.1  Rx         0485  8  00 00 00 00 00 74 99 18 
   372)      7136.3  Rx         0501  6  0F 00 99 99 03 00 
   373)      7136.4  Rx         0080  0  
   374)      7136.5  Rx         0701  0  RTR
   375)      7136.6  Rx         0181  6  37 02 5E 26 01 00 
   376)      7136.7  Rx         0185  8  00 00 00 00 00 78 B8 26 
   377)      7136.8  Rx         0381  2  1F 01 
   378)      7136.9  Rx         0281  4  69 E8 2E 00 
   379)      7136.9  Rx         0285  8  00 00 00 82 00 78 B8 26 
   380)      7137.1  Rx         0481  8  FA 1C 00 00 00 00 20 00 
   381)      7137.2  Rx         0385  8  00 00 00 00 00 78 B8 26 
   382)      7137.3  Rx         0701  1  05 
   383)      7137.4  Rx         0485  8  00 00 00 00 00 78 B8 26 
   384)      7146.4  Rx         0501  6  0F 00 99 99 03 00 
   385)      7146.5  Rx         0080  0  
   386)      7146.6  Rx         0701  0  RTR
   387)      7146.7  Rx         0185  8  00 00 00 00 00 7C D7 53 
   388)      7146.8  Rx         0181  6  37 02 AA 5E 01 00 
   389)      7146.9  Rx         0285  8  00 00 00 82 00 7C D7 53 
   390)      7147.0  Rx         0381  2  98 01 
   391)      7147.1  Rx         0281  4  EC E8 2E 00 
   392)      7147.2  Rx         0385  8  00 00 00 00 00 7C D7 53 
   393)      7147.3  Rx         0481  8  F9 1C 00 00 00 00 20 00 
   394)      7147.5  Rx         0485  8  00 00 00 00 00 7C D7 53 
   395)      7147.5  Rx         0701  1  85 
   396)      7156.6  Rx         0501  6  0F 00 99 99 03 00 
   397)      7156.7  Rx         0080  0  
   398)      7156.8  Rx         0701  0  RTR
   399)      7156.9  Rx         0185  8  00 00 00 00 00 80 F6 97 
   400)      7157.0  Rx         0181  6  37 02 6C AD 01 00 
   401)      7157.1  Rx         0285  8  00 00 00 82 00 80 F6 97 
   402)      7157.2  Rx         0381  2  6E 01 
   403)      7157.3  Rx         0281  4  89 E9 2E 00 
   404)      7157.4  Rx         0385  8  00 00 00 00 00 80 F6 97 
   405)      7157.4  Rx         0701  1  05 
   406)      7157.5  Rx         0481  8  F7 1C 00 00 00 00 20 00 
   407)      7157.7  Rx         0485  8  00 00 00 00 00 80 F6 97 
   408)      7166.8  Rx         0501  6  0F 00 99 99 03 00 
   409)      7166.9  Rx         0080  0  
   410)      7167.0  Rx         0701  0  RTR
   411)      7167.1  Rx         0185  8  00 00 00 00 00 85 15 93 
   412)      7167.2  Rx         0285  8  00 00 00 82 00 85 15 93 
   413)      7167.3  Rx         0181  6  37 02 F0 EF 01 00 
   414)      7167.4  Rx         0381  2  80 01 
   415)      7167.4  Rx         0281  4  46 EA 2E 00 
   416)      7167.6  Rx         0385  8  00 00 00 00 00 85 15 93 
   417)      7167.7  Rx         0481  8  F7 1C 00 00 00 00 20 00 
   418)      7167.8  Rx         0485  8  00 00 00 00 00 85 15 93 
   419)      7167.9  Rx         0701  1  85 
   420)      7177.0  Rx         0501  6  0F 00 99 99 03 00 
   421)      7177.1  Rx         0080  0  
   422)      7177.2  Rx         0701  0  RTR
   423)      7177.3  Rx         0185  8  00 00 00 00 00 89 34 84 
   424)      7177.4  Rx         0181  6  37 02 A9 37 02 00 
   425)      7177.5  Rx         0285  8  00 00 00 82 00 89 34 84 
   426)      7177.6  Rx         0381  2  6A 01 
   427)      7177.7  Rx         0281  4  19 EB 2E 00 
   428)      7177.8  Rx         0385  8  00 00 00 00 00 89 34 84 
   429)      7177.8  Rx         0701  1  05 
   430)      7178.0  Rx         0481  8  F9 1C 00 00 00 00 20 00 
   431)      7178.1  Rx         0485  8  00 00 00 00 00 89 34 84 
   432)      7187.2  Rx         0501  6  0F 00 99 99 03 00 
   433)      7187.3  Rx         0080  0  
   434)      7187.4  Rx         0701  0  RTR
   435)      7187.5  Rx         0185  8  00 00 00 00 00 8D 53 84 
   436)      7187.6  Rx         0285  8  00 00 00 82 00 8D 53 84 
   437)      7187.7  Rx         0181  6  37 02 4F 77 02 00 
   438)      7187.8  Rx         0381  2  98 01 
   439)      7187.8  Rx         0281  4  0F EC 2E 00 
   440)      7188.0  Rx         0385  8  00 00 00 00 00 8D 53 84 
   441)      7188.1  Rx         0481  8  F4 1C 00 00 00 00 20 00 
   442)      7188.2  Rx         0485  8  00 00 00 00 00 8D 53 84 
   443)      7188.3  Rx         0701  1  85 
   444)      7197.3  Rx         0501  6  0F 00 99 99 03 00 
   445)      7197.4  Rx         0080  0  
   446)      7197.5  Rx         0701  0  RTR
   447)      7197.6  Rx         0185  8  00 00 00 00 00 91 72 CC 
   448)      7197.8  Rx         0181  6  37 02 02 BB 02 00 
   449)      7197.9  Rx         0285  8  00 00 00 82 00 91 72 CC 
   450)      7197.9  Rx         0381  2  A0 01 
   451)      7198.0  Rx         0281  4  14 ED 2E 00 
   452)      7198.1  Rx         0385  8  00 00 00 00 00 91 72 CC 
   453)      7198.2  Rx         0701  1  05 
   454)      7198.3  Rx         0481  8  F7 1C 00 00 00 00 20 00 
   455)      7198.4  Rx         0485  8  00 00 00 00 00 91 72 CC 
   456)      7207.5  Rx         0501  6  0F 00 99 99 03 00 
   457)      7207.6  Rx         0080  0  
   458)      7207.7  Rx         0701  0  RTR
   459)      7207.8  Rx         0185  8  00 00 00 00 00 95 91 78 
   460)      7208.0  Rx         0285  8  00 00 00 82 00 95 91 78 
   461)      7208.0  Rx         0181  6  37 02 43 01 03 00 
   462)      7208.1  Rx         0381  2  A8 01 
   463)      7208.2  Rx         0281  4  41 EE 2E 00 
   464)      7208.3  Rx         0385  8  00 00 00 00 00 95 91 78 
   465)      7208.4  Rx         0481  8  F6 1C 00 00 00 00 20 00 
   466)      7208.6  Rx         0485  8  00 00 00 00 00 95 91 78 
   467)      7208.6  Rx         0701  1  85 
   468)      7217.8  Rx         0501  6  0F 00 99 99 03 00 
   469)      7217.9  Rx         0080  0  
   470)      7217.9  Rx         0701  0  RTR
   471)      7218.1  Rx         0185  8  00 00 00 00 00 99 B0 E0 
   472)      7218.2  Rx         0181  6  37 02 DA 45 03 00 
   473)      7218.3  Rx         0285  8  00 00 00 82 00 99 B0 E0 
   474)      7218.3  Rx         0381  2  B9 01 
   475)      7218.4  Rx         0281  4  81 EF 2E 00 
   476)      7218.5  Rx         0385  8  00 00 00 00 00 99 B0 E0 
   477)      7218.7  Rx         0481  8  F3 1C 00 00 00 00 20 00 
   478)      7218.8  Rx         0485  8  00 00 00 00 00 99 B0 E0 
   479)      7218.8  Rx         0701  1  05 
   480)      7228.0  Rx         0501  6  0F 00 99 99 03 00 
   481)      7228.1  Rx         0080  0  
   482)      7228.1  Rx         0701  0  RTR
   483)      7228.3  Rx         0185  8  00 00 00 00 00 9D D0 1E 
   484)      7228.4  Rx         0181  6  37 02 27 84 03 00 
   485)      7228.5  Rx         0285  8  00 00 00 82 00 9D D0 1E 
   486)      7228.6  Rx         0381  2  ED 00 
   487)      7228.6  Rx         0281  4  DF F0 2E 00 
   488)      7228.7  Rx         0385  8  00 00 00 00 00 9D D0 1E 
   489)      7228.9  Rx         0481  8  F8 1C 00 00 00 00 00 00 
   490)      7229.0  Rx         0485  8  00 00 00 00 00 9D D0 1E 
   491)      7229.0  Rx         0701  1  85 
   492)      7238.2  Rx         0501  6  0F 00 99 99 03 00 
   493)      7238.3  Rx         0080  0  
   494)      7238.3  Rx         0701  0  RTR
   495)      7238.5  Rx         0185  8  00 00 00 00 00 A1 EF 6B 
   496)      7238.6  Rx         0181  6  37 02 CC 8C 03 00 
   497)      7238.7  Rx         0285  8  00 00 00 82 00 A1 EF 6B 
   498)      7238.7  Rx         0381  2  9F 00 
   499)      7238.8  Rx         0281  4  46 F2 2E 00 
   500)      7238.9  Rx         0385  8  00 00 00 00 00 A1 EF 6B 
   501)      7239.1  Rx         0481  8  F9 1C 00 00 00 00 00 00 
   502)      7239.2  Rx         0485  8  00 00 00 00 00 A1 EF 6B 
   503)      7239.2  Rx         0701  1  05 
   504)      7248.4  Rx         0501  6  0F 00 99 99 03 00 
   505)      7248.5  Rx         0080  0  
   506)      7248.5  Rx         0701  0  RTR
   507)      7248.7  Rx         0185  8  00 00 00 00 00 A6 0E 65 
   508)      7248.8  Rx         0181  6  37 06 E4 89 03 00 
   509)      7248.9  Rx         0285  8  00 00 00 82 00 A6 0E 65 
   510)      7248.9  Rx         0381  2  80 00 
   511)      7249.0  Rx         0281  4  B3 F3 2E 00 
   512)      7249.1  Rx         0385  8  00 00 00 00 00 A6 0E 65 
   513)      7249.3  Rx         0481  8  F6 1C 00 00 00 00 02 00 
   514)      7249.4  Rx         0485  8  00 00 00 00 00 A6 0E 65 
   515)      7249.5  Rx         0701  1  85 
   516)      7258.6  Rx         0501  6  0F 00 99 99 03 00 
   517)      7258.7  Rx         0080  0  
   518)      7258.7  Rx         0701  0  RTR
   519)      7258.9  Rx         0181  6  37 06 75 88 03 00 
   520)      7259.0  Rx         0185  8  00 00 00 00 00 AA 2D 47 
   521)      7259.0  Rx         0381  2  B7 00 
   522)      7259.1  Rx         0281  4  18 F5 2E 00 
   523)      7259.3  Rx         0285  8  00 00 00 82 00 AA 2D 47 
   524)      7259.4  Rx         0481  8  F8 1C 00 00 00 00 02 00 
   525)      7259.5  Rx         0385  8  00 00 00 00 00 AA 2D 47 
   526)      7259.5  Rx         0701  1  05 
   527)      7259.7  Rx         0485  8  00 00 00 00 00 AA 2D 47 
   528)      7268.8  Rx         0501  6  0F 00 99 99 03 00 
   529)      7268.9  Rx         0080  0  
   530)      7268.9  Rx         0701  0  RTR
   531)      7269.1  Rx         0185  8  00 00 00 00 00 AE 4C BA 
   532)      7269.2  Rx         0181  6  37 06 46 88 03 00 
   533)      7269.3  Rx         0285  8  00 00 00 82 00 AE 4C BA 
   534)      7269.4  Rx         0381  2  A7 00 
   535)      7269.4  Rx         0281  4  82 F6 2E 00 
   536)      7269.6  Rx         0385  8  00 00 00 00 00 AE 4C BA 
   537)      7269.7  Rx         0481  8  F8 1C 00 00 00 00 02 00 
   538)      7269.8  Rx         0485  8  00 00 00 00 00 AE 4C BA 
   539)      7269.9  Rx         0701  1  85 
   540)      7279.0  Rx         0501  6  0F 00 99 99 03 00 
   541)      7279.0  Rx         0080  0  
   542)      7279.1  Rx         0701  0  RTR
   543)      7279.2  Rx         0185  8  00 00 00 00 00 B2 6B 5F 
   544)      7279.3  Rx         0285  8  00 00 00 82 00 B2 6B 5F 
   545)      7279.5  Rx         0181  6  37 06 08 8E 03 00 
   546)      7279.6  Rx         0381  2  82 00 
   547)      7279.6  Rx         0281  4  EE F7 2E 00 
   548)      7279.7  Rx         0385  8  00 00 00 00 00 B2 6B 5F 
   549)      7279.9  Rx         0481  8  F5 1C 00 00 00 00 02 00 
   550)      7280.0  Rx         0485  8  00 00 00 00 00 B2 6B 5F 
   551)      7280.0  Rx         0701  1  05 
   552)      7289.3  Rx         0501  6  0F 00 99 99 03 00 
   553)      7289.4  Rx         0080  0  
   554)      7289.5  Rx         0701  0  RTR
   555)      7289.6  Rx         0185  8  00 00 00 00 00 B6 8A 7F 
   556)      7289.7  Rx         0181  6  37 06 9A 88 03 00 
   557)      7289.8  Rx         0285  8  00 00 00 82 00 B6 8A 7F 
   558)      7289.8  Rx         0381  2  A3 00 
   559)      7289.9  Rx         0281  4  58 F9 2E 00 
   560)      7290.1  Rx         0385  8  00 00 00 00 00 B6 8A 7F 
   561)      7290.2  Rx         0481  8  F1 1C 00 00 00 00 02 00 
   562)      7290.3  Rx         0485  8  00 00 00 00 00 B6 8A 7F 
   563)      7290.4  Rx         0701  1  85 
   564)      7299.4  Rx         0501  6  0F 00 99 99 03 00 
   565)      7299.5  Rx         0080  0  
   566)      7299.6  Rx         0701  0  RTR
   567)      7299.7  Rx         0181  6  37 02 8F 88 03 00 
   568)      7299.9  Rx         0185  8  00 00 00 00 00 BA A9 52 
   569)      7300.0  Rx         0381  2  C3 00 
   570)      7300.0  Rx         0281  4  BC FA 2E 00 
   571)      7300.1  Rx         0285  8  00 00 00 82 00 BA A9 52 
   572)      7300.3  Rx         0481  8  F9 1C 00 00 00 00 00 00 
   573)      7300.4  Rx         0385  8  00 00 00 00 00 BA A9 52 
   574)      7300.4  Rx         0701  1  05 
   575)      7300.6  Rx         0485  8  00 00 00 00 00 BA A9 52 
   576)      7309.6  Rx         0501  6  0F 00 99 99 03 00 
   577)      7309.7  Rx         0080  0  
   578)      7309.9  Rx         0185  8  00 00 00 00 00 BE C8 E7 
   579)      7310.0  Rx         0181  6  37 06 C2 88 03 00 
   580)      7310.1  Rx         0285  8  00 00 00 82 00 BE C8 E7 
   581)      7310.2  Rx         0381  2  B7 00 
   582)      7310.3  Rx         0281  4  28 FC 2E 00 
   583)      7310.4  Rx         0385  8  00 00 00 00 00 BE C8 E7 
   584)      7310.5  Rx         0481  8  F9 1C 00 00 00 00 02 00 
   585)      7310.6  Rx         0485  8  00 00 00 00 00 BE C8 E7 
   586)      7310.7  Rx         0701  0  RTR
   587)      7310.8  Rx         0701  1  85 
   588)      7319.9  Rx         0501  6  0F 00 99 99 03 00 
   589)      7320.0  Rx         0080  0  
   590)      7320.1  Rx         0701  0  RTR
   591)      7320.1  Rx         0185  8  00 00 00 00 00 C2 E7 92 
   592)      7320.3  Rx         0181  6  37 02 DD 86 03 00 
   593)      7320.4  Rx         0285  8  00 00 00 82 00 C2 E7 92 
   594)      7320.4  Rx         0381  2  C8 00 
   595)      7320.5  Rx         0281  4  90 FD 2E 00 
   596)      7320.7  Rx         0385  8  00 00 00 00 00 C2 E7 92 
   597)      7320.8  Rx         0481  8  F8 1C 00 00 00 00 00 00 
   598)      7320.9  Rx         0485  8  00 00 00 00 00 C2 E7 92 
   599)      7320.9  Rx         0701  1  05 
   600)      7330.1  Rx         0501  6  0F 00 99 99 03 00 
   601)      7330.2  Rx         0080  0  
   602)      7330.3  Rx         0701  0  RTR
   603)      7330.4  Rx         0185  8  00 00 00 00 00 CB 27 D7 
   604)      7330.5  Rx         0181  6  37 02 3A 87 03 00 
   605)      7330.6  Rx         0285  8  00 00 00 82 00 CB 27 D7 
   606)      7330.7  Rx         0381  2  CC 00 
   607)      7330.8  Rx         0281  4  F7 FE 2E 00 
   608)      7330.9  Rx         0385  8  00 00 00 00 00 CB 27 D7 
   609)      7331.0  Rx         0481  8  F5 1C 00 00 00 00 00 00 
   610)      7331.1  Rx         0485  8  00 00 00 00 00 CB 27 D7 
   611)      7331.2  Rx         0701  1  85 
   612)      7340.3  Rx         0501  6  0F 00 99 99 03 00 
   613)      7340.4  Rx         0080  0  
   614)      7340.6  Rx         0185  8  00 00 00 00 00 CF 45 08 
   615)      7340.7  Rx         0181  6  37 02 7D 85 03 00 
   616)      7340.8  Rx         0285  8  00 00 00 82 00 CF 45 08 
   617)      7340.8  Rx         0381  2  CE 00 
   618)      7340.9  Rx         0281  4  5F 00 2F 00 
   619)      7341.0  Rx         0385  8  00 00 00 00 00 CF 45 08 
   620)      7341.2  Rx         0481  8  F9 1C 00 00 00 00 00 00 
   621)      7341.3  Rx         0485  8  00 00 00 00 00 CF 45 08 
   622)      7341.3  Rx         0701  0  RTR
   623)      7341.5  Rx         0701  1  05 
   624)      7350.5  Rx         0501  6  0F 00 99 99 03 00 
   625)      7350.6  Rx         0080  0  
   626)      7350.8  Rx         0185  8  00 00 00 00 00 D3 63 FF 
   627)      7350.9  Rx         0701  0  RTR
   628)      7350.9  Rx         0181  6  37 02 3C 86 03 00 
   629)      7351.0  Rx         0285  8  00 00 00 82 00 D3 63 FF 
   630)      7351.1  Rx         0381  2  D8 00 
   631)      7351.2  Rx         0281  4  CA 01 2F 00 
   632)      7351.3  Rx         0385  8  00 00 00 00 00 D3 63 FF 
   633)      7351.5  Rx         0481  8  F6 1C 00 00 00 00 00 00 
   634)      7351.5  Rx         0485  8  00 00 00 00 00 D3 63 FF 
   635)      7351.6  Rx         0701  1  85 
   636)      7360.7  Rx         0501  6  0F 00 99 99 03 00 
   637)      7360.8  Rx         0080  0  
   638)      7361.0  Rx         0185  8  00 00 00 00 00 D7 83 78 
   639)      7361.1  Rx         0181  6  37 06 97 87 03 00 
   640)      7361.2  Rx         0285  8  00 00 00 82 00 D7 83 78 
   641)      7361.2  Rx         0381  2  BE 00 
   642)      7361.3  Rx         0281  4  2F 03 2F 00 
   643)      7361.4  Rx         0385  8  00 00 00 00 00 D7 83 78 
   644)      7361.6  Rx         0481  8  F1 1C 00 00 00 00 02 00 
   645)      7361.7  Rx         0485  8  00 00 00 00 00 D7 83 78 
   646)      7361.7  Rx         0701  0  RTR
   647)      7362.0  Rx         0701  1  05 
   648)      7370.9  Rx         0501  6  0F 00 99 99 03 00 
   649)      7371.0  Rx         0080  0  
   650)      7371.1  Rx         0185  8  00 00 00 00 00 DB A2 1C 
   651)      7371.2  Rx         0701  0  RTR
   652)      7371.3  Rx         0181  6  37 06 E4 8A 03 00 
   653)      7371.4  Rx         0285  8  00 00 00 82 00 DB A2 1C 
   654)      7371.4  Rx         0381  2  A4 00 
   655)      7371.5  Rx         0281  4  9C 04 2F 00 
   656)      7371.6  Rx         0385  8  00 00 00 00 00 DB A2 1C 
   657)      7371.8  Rx         0481  8  F9 1C 00 00 00 00 02 00 
   658)      7371.9  Rx         0485  8  00 00 00 00 00 DB A2 1C 
   659)      7371.9  Rx         0701  1  85 
   660)      7381.1  Rx         0501  6  0F 00 99 99 03 00 
   661)      7381.2  Rx         0080  0  
   662)      7381.3  Rx         0185  8  00 00 00 00 00 DF C1 78 
   663)      7381.4  Rx         0181  6  37 06 E6 8B 03 00 
   664)      7381.5  Rx         0285  8  00 00 00 82 00 DF C1 78 
   665)      7381.6  Rx         0381  2  9F 00 
   666)      7381.7  Rx         0281  4  02 06 2F 00 
   667)      7381.8  Rx         0385  8  00 00 00 00 00 DF C1 78 
   668)      7381.9  Rx         0481  8  F4 1C 00 00 00 00 02 00 
   669)      7382.0  Rx         0485  8  00 00 00 00 00 DF C1 78 
   670)      7382.1  Rx         0701  0  RTR
   671)      7382.3  Rx         0701  1  05 
   672)      7391.3  Rx         0501  6  0F 00 99 99 03 00 
   673)      7391.4  Rx         0080  0  
   674)      7391.5  Rx         0185  8  00 00 00 00 00 E3 D5 D3 
   675)      7391.6  Rx         0181  6  37 06 99 8C 03 00 
   676)      7391.7  Rx         0285  8  00 00 00 82 00 E3 D5 D3 
   677)      7391.8  Rx         0381  2  83 00 
   678)      7391.9  Rx         0281  4  67 07 2F 00 
   679)      7392.0  Rx         0385  8  00 00 00 00 00 E3 D5 D3 
   680)      7392.1  Rx         0481  8  F4 1C 00 00 00 00 02 00 
   681)      7392.2  Rx         0485  8  00 00 00 00 00 E3 D5 D3 
   682)      7392.3  Rx         0701  0  RTR
   683)      7392.4  Rx         0701  1  85 
   684)      7401.4  Rx         0501  6  0F 00 99 99 03 00 
   685)      7401.5  Rx         0080  0  
   686)      7401.6  Rx         0701  0  RTR
   687)      7401.7  Rx         0181  6  37 06 71 88 03 00 
   688)      7401.8  Rx         0185  8  00 00 00 00 00 E7 F4 CE 
   689)      7401.8  Rx         0381  2  A2 00 
   690)      7401.9  Rx         0281  4  D1 08 2F 00 
   691)      7402.1  Rx         0285  8  00 00 00 82 00 E7 F4 CE 
   692)      7402.2  Rx         0481  8  F2 1C 00 00 00 00 02 00 
   693)      7402.3  Rx         0385  8  00 00 00 00 00 E7 F4 CE 
   694)      7402.4  Rx         0701  1  05 
   695)      7402.5  Rx         0485  8  00 00 00 00 00 E7 F4 CE 
   696)      7411.6  Rx         0501  6  0F 00 99 99 03 00 
   697)      7411.7  Rx         0080  0  
   698)      7411.8  Rx         0701  0  RTR
   699)      7412.0  Rx         0185  8  00 00 00 00 00 EC 14 15 
   700)      7412.0  Rx         0181  6  37 06 A3 86 03 00 
   701)      7412.1  Rx         0285  8  00 00 00 82 00 EC 14 15 
   702)      7412.2  Rx         0381  2  AD 00 
   703)      7412.3  Rx         0281  4  3A 0A 2F 00 
   704)      7412.4  Rx         0385  8  00 00 00 00 00 EC 14 15 
   705)      7412.6  Rx         0481  8  F6 1C 00 00 00 00 00 00 
   706)      7412.6  Rx         0485  8  00 00 00 00 00 EC 14 15 
   707)      7412.7  Rx         0701  1  85 
   708)      7421.8  Rx         0501  6  0F 00 99 99 03 00 
   709)      7421.9  Rx         0080  0  
   710)      7422.0  Rx         0701  0  RTR
   711)      7422.1  Rx         0185  8  00 00 00 00 00 F0 33 33 
   712)      7422.2  Rx         0181  6  37 06 87 8A 03 00 
   713)      7422.3  Rx         0285  8  00 00 00 82 00 F0 33 33 
   714)      7422.4  Rx         0381  2  AE 00 
   715)      7422.5  Rx         0281  4  A2 0B 2F 00 
   716)      7422.6  Rx         0385  8  00 00 00 00 00 F0 33 33 
   717)      7422.6  Rx         0701  1  05 
   718)      7422.8  Rx         0481  8  F3 1C 00 00 00 00 02 00 
   719)      7422.9  Rx         0485  8  00 00 00 00 00 F0 33 33 
   720)      7432.0  Rx         0501  6  0F 00 99 99 03 00 
   721)      7432.1  Rx         0080  0  
   722)      7432.1  Rx         0701  0  RTR
   723)      7432.2  Rx         0185  8  00 00 00 00 00 F4 52 6E 
   724)      7432.4  Rx         0181  6  37 02 A8 8B 03 00 
   725)      7432.4  Rx         0285  8  00 00 00 82 00 F4 52 6E 
   726)      7432.5  Rx         0381  2  9A 00 
   727)      7432.6  Rx         0281  4  0B 0D 2F 00 
   728)      7432.7  Rx         0385  8  00 00 00 00 00 F4 52 6E 
   729)      7432.9  Rx         0481  8  F9 1C 00 00 00 00 00 00 
   730)      7433.0  Rx         0485  8  00 00 00 00 00 F4 52 6E 
   731)      7433.0  Rx         0701  1  85 
   732)      7442.1  Rx         0501  6  0F 00 99 99 03 00 
   733)      7442.2  Rx         0080  0  
   734)      7442.3  Rx         0701  0  RTR
   735)      7442.4  Rx         0185  8  00 00 00 00 00 F8 71 2F 
   736)      7442.5  Rx         0181  6  37 06 E7 88 03 00 
   737)      7442.6  Rx         0285  8  00 00 00 82 00 F8 71 2F 
   738)      7442.7  Rx         0381  2  A8 00 
   739)      7442.8  Rx         0281  4  73 0E 2F 00 
   740)      7442.9  Rx         0385  8  00 00 00 00 00 F8 71 2F 
   741)      7443.0  Rx         0481  8  F6 1C 00 00 00 00 02 00 
   742)      7443.1  Rx         0485  8  00 00 00 00 00 F8 71 2F 
   743)      7443.2  Rx         0701  1  05 
   744)      7452.3  Rx         0501  6  0F 00 99 99 03 00 
   745)      7452.4  Rx         0080  0  
   746)      7452.5  Rx         0185  8  00 00 00 00 00 FC 8F F2 
   747)      7452.7  Rx         0181  6  37 06 62 86 03 00 
   748)      7452.8  Rx         0285  8  00 00 00 82 00 FC 8F F2 
   749)      7452.8  Rx         0381  2  CF 00 
   750)      7452.9  Rx         0281  4  D7 0F 2F 00 
   751)      7453.0  Rx         0385  8  00 00 00 00 00 FC 8F F2 
   752)      7453.2  Rx         0481  8  F9 1C 00 00 00 00 02 00 
   753)      7453.3  Rx         0485  8  00 00 00 00 00 FC 8F F2 
   754)      7453.3  Rx         0701  0  RTR
   755)      7453.5  Rx         0701  1  85 
   756)      7462.5  Rx         0501  6  0F 00 99 99 03 00 
   757)      7462.6  Rx         0080  0  
   758)      7462.6  Rx         0701  0  RTR
   759)      7462.7  Rx         0181  6  37 06 77 88 03 00 
   760)      7462.9  Rx         0185  8  00 00 00 00 00 00 AF 58 
   761)      7462.9  Rx         0381  2  BE 00 
   762)      7463.0  Rx         0281  4  3C 11 2F 00 
   763)      7463.1  Rx         0285  8  00 00 00 82 00 00 AF 58 
   764)      7463.2  Rx         0481  8  F3 1C 00 00 00 00 02 00 
   765)      7463.4  Rx         0385  8  00 00 00 00 00 00 AF 58 
   766)      7463.5  Rx         0701  1  05 
   767)      7463.5  Rx         0485  8  00 00 00 00 00 00 AF 58 
   768)      7472.6  Rx         0501  6  0F 00 99 99 03 00 
   769)      7472.7  Rx         0080  0  
   770)      7472.8  Rx         0701  0  RTR
   771)      7472.9  Rx         0185  8  00 00 00 00 00 04 CE 8E 
   772)      7473.0  Rx         0181  6  37 06 C2 88 03 00 
   773)      7473.1  Rx         0285  8  00 00 00 82 00 04 CE 8E 
   774)      7473.2  Rx         0381  2  97 00 
   775)      7473.3  Rx         0281  4  A8 12 2F 00 
   776)      7473.4  Rx         0385  8  00 00 00 00 00 04 CE 8E 
   777)      7473.5  Rx         0481  8  F4 1C 00 00 00 00 02 00 
   778)      7473.7  Rx         0485  8  00 00 00 00 00 04 CE 8E 
   779)      7473.7  Rx         0701  1  85 
   780)      7482.8  Rx         0501  6  0F 00 99 99 03 00 
   781)      7482.9  Rx         0080  0  
   782)      7483.0  Rx         0701  0  RTR
   783)      7483.1  Rx         0185  8  00 00 00 00 00 08 ED 77 
   784)      7483.2  Rx         0285  8  00 00 00 82 00 08 ED 77 
   785)      7483.3  Rx         0181  6  37 06 2B 8E 03 00 
   786)      7483.4  Rx         0381  2  71 00 
   787)      7483.5  Rx         0281  4  15 14 2F 00 
   788)      7483.6  Rx         0385  8  00 00 00 00 00 08 ED 77 
   789)      7483.7  Rx         0481  8  F8 1C 00 00 00 00 02 00 
   790)      7483.8  Rx         0485  8  00 00 00 00 00 08 ED 77 
   791)      7483.9  Rx         0701  1  05 
   792)      7493.0  Rx         0501  6  0F 00 99 99 03 00 
   793)      7493.1  Rx         0080  0  
   794)      7493.2  Rx         0701  0  RTR
   795)      7493.2  Rx         0185  8  00 00 00 00 00 0D 0D 18 
   796)      7493.4  Rx         0181  6  37 06 13 8D 03 00 
   797)      7493.5  Rx         0285  8  00 00 00 82 00 0D 0D 18 
   798)      7493.5  Rx         0381  2  8D 00 
   799)      7493.6  Rx         0281  4  78 15 2F 00 
   800)      7493.8  Rx         0385  8  00 00 00 00 00 0D 0D 18 
   801)      7493.9  Rx         0481  8  F4 1C 00 00 00 00 02 00 
   802)      7494.0  Rx         0485  8  00 00 00 00 00 0D 0D 18 
   803)      7494.1  Rx         0701  1  85 
   804)      7503.1  Rx         0501  6  0F 00 99 99 03 00 
   805)      7503.2  Rx         0080  0  
   806)      7503.3  Rx         0701  0  RTR
   807)      7503.4  Rx         0185  8  00 00 00 00 00 11 2B F5 
   808)      7503.5  Rx         0181  6  37 06 3F 88 03 00 
   809)      7503.7  Rx         0285  8  00 00 00 82 00 11 2B F5 
   810)      7503.7  Rx         0381  2  97 00 
   811)      7503.8  Rx         0281  4  E1 16 2F 00 
   812)      7503.9  Rx         0385  8  00 00 00 00 00 11 2B F5 
   813)      7504.0  Rx         0481  8  F6 1C 00 00 00 00 02 00 
   814)      7504.2  Rx         0485  8  00 00 00 00 00 11 2B F5 
   815)      7504.2  Rx         0701  1  05 
   816)      7513.3  Rx         0501  6  0F 00 99 99 03 00 
   817)      7513.4  Rx         0080  0  
   818)      7513.5  Rx         0701  0  RTR
   819)      7513.6  Rx         0185  8  00 00 00 00 00 15 4A 3F 
   820)      7513.7  Rx         0181  6  37 06 D5 8B 03 00 
   821)      7513.9  Rx         0285  8  00 00 00 82 00 15 4A 3F 
   822)      7513.9  Rx         0381  2  92 00 
   823)      7514.0  Rx         0281  4  48 18 2F 00 
   824)      7514.1  Rx         0385  8  00 00 00 00 00 15 4A 3F 
   825)      7514.1  Rx         0701  1  85 
   826)      7514.3  Rx         0481  8  F9 1C 00 00 00 00 02 00 
   827)      7514.4  Rx         0485  8  00 00 00 00 00 15 4A 3F 
   828)      7523.5  Rx         0501  6  0F 00 99 99 03 00 
   829)      7523.6  Rx         0080  0  
   830)      7523.7  Rx         0701  0  RTR
   831)      7523.8  Rx         0185  8  00 00 00 00 00 19 69 D3 
   832)      7523.9  Rx         0285  8  00 00 00 82 00 19 69 D3 
   833)      7524.0  Rx         0181  6  37 02 F3 87 03 00 
   834)      7524.1  Rx         0381  2  AA 00 
   835)      7524.2  Rx         0281  4  B7 19 2F 00 
   836)      7524.3  Rx         0385  8  00 00 00 00 00 19 69 D3 
   837)      7524.4  Rx         0485  8  00 00 00 00 00 19 69 D3 
   838)      7524.5  Rx         0481  8  F7 1C 00 00 00 00 00 00 
   839)      7524.6  Rx         0701  1  05 
   840)      7533.7  Rx         0501  6  0F 00 99 99 03 00 
   841)      7533.8  Rx         0080  0  
   842)      7533.9  Rx         0701  0  RTR
   843)      7534.0  Rx         0185  8  00 00 00 00 00 1D 88 F7 
   844)      7534.1  Rx         0181  6  37 06 86 82 03 00 
   845)      7534.2  Rx         0285  8  00 00 00 82 00 1D 88 F7 
   846)      7534.3  Rx         0381  2  DD 00 
   847)      7534.3  Rx         0281  4  19 1B 2F 00 
   848)      7534.5  Rx         0385  8  00 00 00 00 00 1D 88 F7 
   849)      7534.6  Rx         0481  8  F6 1C 00 00 00 00 02 00 
   850)      7534.7  Rx         0485  8  00 00 00 00 00 1D 88 F7 
   851)      7534.8  Rx         0701  1  85 
   852)      7543.9  Rx         0501  6  0F 00 99 99 03 00 
   853)      7544.0  Rx         0080  0  
   854)      7544.1  Rx         0701  0  RTR
   855)      7544.2  Rx         0185  8  00 00 00 00 00 21 A8 16 
   856)      7544.3  Rx         0181  6  37 02 0C 86 03 00 
   857)      7544.4  Rx         0285  8  00 00 00 82 00 21 A8 16 
   858)      7544.5  Rx         0381  2  C1 00 
   859)      7544.6  Rx         0281  4  84 1C 2F 00 
   860)      7544.7  Rx         0385  8  00 00 00 00 00 21 A8 16 
   861)      7544.8  Rx         0481  8  FA 1C 00 00 00 00 00 00 
   862)      7544.9  Rx         0485  8  00 00 00 00 00 21 A8 16 
   863)      7545.0  Rx         0701  1  05 
   864)      7554.2  Rx         0501  6  0F 00 99 99 03 00 
   865)      7554.3  Rx         0080  0  
   866)      7554.3  Rx         0701  0  RTR
   867)      7554.4  Rx         0181  6  37 06 17 85 03 00 
   868)      7554.6  Rx         0185  8  00 00 00 00 00 25 C6 D1 
   869)      7554.6  Rx         0381  2  D3 00 
   870)      7554.7  Rx         0281  4  E9 1D 2F 00 
   871)      7554.9  Rx         0285  8  00 00 00 82 00 25 C6 D1 
   872)      7554.9  Rx         0481  8  F9 1C 00 00 00 00 02 00 
   873)      7555.1  Rx         0385  8  00 00 00 00 00 25 C6 D1 
   874)      7555.2  Rx         0701  1  85 
   875)      7555.2  Rx         0485  8  00 00 00 00 00 25 C6 D1 
   876)      7564.3  Rx         0501  6  0F 00 99 99 03 00 
   877)      7564.5  Rx         0080  0  
   878)      7564.6  Rx         0185  8  00 00 00 00 00 29 E6 2B 
   879)      7564.7  Rx         0181  6  37 06 97 86 03 00 
   880)      7564.8  Rx         0285  8  00 00 00 82 00 29 E6 2B 
   881)      7564.9  Rx         0381  2  CF 00 
   882)      7565.0  Rx         0281  4  54 1F 2F 00 
   883)      7565.1  Rx         0385  8  00 00 00 00 00 29 E6 2B 
   884)      7565.2  Rx         0481  8  F3 1C 00 00 00 00 00 00 
   885)      7565.4  Rx         0485  8  00 00 00 00 00 29 E6 2B 
   886)      7565.4  Rx         0701  0  RTR
   887)      7565.5  Rx         0701  1  05 
   888)      7574.6  Rx         0501  6  0F 00 99 99 03 00 
   889)      7574.7  Rx         0080  0  
   890)      7574.7  Rx         0701  0  RTR
   891)      7574.8  Rx         0181  6  37 06 3D 8A 03 00 
   892)      7575.0  Rx         0185  8  00 00 00 00 00 2E 05 12 
   893)      7575.0  Rx         0381  2  9B 00 
   894)      7575.1  Rx         0281  4  B9 20 2F 00 
   895)      7575.2  Rx         0285  8  00 00 00 82 00 2E 05 12 
   896)      7575.3  Rx         0481  8  F4 1C 00 00 00 00 02 00 
   897)      7575.5  Rx         0385  8  00 00 00 00 00 2E 05 12 
   898)      7575.5  Rx         0701  1  85 
   899)      7575.6  Rx         0485  8  00 00 00 00 00 2E 05 12 
   900)      7584.7  Rx         0501  6  0F 00 99 99 03 00 
   901)      7584.8  Rx         0080  0  
   902)      7584.9  Rx         0701  0  RTR
   903)      7585.0  Rx         0185  8  00 00 00 00 00 32 24 31 
   904)      7585.1  Rx         0181  6  37 06 71 89 03 00 
   905)      7585.2  Rx         0285  8  00 00 00 82 00 32 24 31 
   906)      7585.3  Rx         0381  2  BF 00 
   907)      7585.4  Rx         0281  4  22 22 2F 00 
   908)      7585.5  Rx         0385  8  00 00 00 00 00 32 24 31 
   909)      7585.7  Rx         0481  8  F7 1C 00 00 00 00 02 00 
   910)      7585.7  Rx         0485  8  00 00 00 00 00 32 24 31 
   911)      7585.8  Rx         0701  1  05 
   912)      7594.9  Rx         0501  6  0F 00 99 99 03 00 
   913)      7595.0  Rx         0080  0  
   914)      7595.0  Rx         0701  0  RTR
   915)      7595.2  Rx         0185  8  00 00 00 00 00 36 43 2A 
   916)      7595.3  Rx         0181  6  37 06 FA 89 03 00 
   917)      7595.4  Rx         0285  8  00 00 00 82 00 36 43 2A 
   918)      7595.5  Rx         0381  2  88 00 
   919)      7595.6  Rx         0281  4  8C 23 2F 00 
   920)      7595.7  Rx         0385  8  00 00 00 00 00 36 43 2A 
   921)      7595.7  Rx         0701  1  85 
   922)      7595.9  Rx         0481  8  F5 1C 00 00 00 00 02 00 
   923)      7596.0  Rx         0485  8  00 00 00 00 00 36 43 2A 
   924)      7605.1  Rx         0501  6  0F 00 99 99 03 00 
   925)      7605.2  Rx         0080  0  
   926)      7605.2  Rx         0701  0  RTR
   927)      7605.3  Rx         0181  6  37 06 D0 89 03 00 
   928)      7605.5  Rx         0185  8  00 00 00 00 00 3A 62 D2 
   929)      7605.5  Rx         0381  2  82 00 
   930)      7605.6  Rx         0281  4  F2 24 2F 00 
   931)      7605.7  Rx         0285  8  00 00 00 82 00 3A 62 D2 
   932)      7605.8  Rx         0481  8  FB 1C 00 00 00 00 02 00 
   933)      7606.0  Rx         0385  8  00 00 00 00 00 3A 62 D2 
   934)      7606.0  Rx         0701  1  05 
   935)      7606.1  Rx         0485  8  00 00 00 00 00 3A 62 D2 
   936)      7615.3  Rx         0501  6  0F 00 99 99 03 00 
   937)      7615.4  Rx         0080  0  
   938)      7615.5  Rx         0185  8  00 00 00 00 00 3E 81 83 
   939)      7615.6  Rx         0181  6  37 06 D8 88 03 00 
   940)      7615.7  Rx         0285  8  00 00 00 82 00 3E 81 83 
   941)      7615.8  Rx         0381  2  A4 00 
   942)      7615.9  Rx         0281  4  60 26 2F 00 
   943)      7616.0  Rx         0385  8  00 00 00 00 00 3E 81 83 
   944)      7616.2  Rx         0481  8  FB 1C 00 00 00 00 02 00 
   945)      7616.3  Rx         0485  8  00 00 00 00 00 3E 81 83 
   946)      7616.3  Rx         0701  0  RTR
   947)      7616.5  Rx         0701  1  85 
   948)      7625.5  Rx         0501  6  0F 00 99 99 03 00 
   949)      7625.5  Rx         0080  0  
   950)      7625.6  Rx         0701  0  RTR
   951)      7625.7  Rx         0185  8  00 00 00 00 00 42 A0 07 
   952)      7625.8  Rx         0181  6  37 06 89 89 03 00 
   953)      7625.9  Rx         0285  8  00 00 00 82 00 42 A0 07 
   954)      7626.0  Rx         0381  2  99 00 
   955)      7626.1  Rx         0281  4  C6 27 2F 00 
   956)      7626.2  Rx         0385  8  00 00 00 00 00 42 A0 07 
   957)      7626.3  Rx         0481  8  F8 1C 00 00 00 00 02 00 
   958)      7626.5  Rx         0485  8  00 00 00 00 00 42 A0 07 
   959)      7626.5  Rx         0701  1  05 
   960)      7635.6  Rx         0501  6  0F 00 99 99 03 00 
   961)      7635.7  Rx         0080  0  
   962)      7635.8  Rx         0701  0  RTR
   963)      7635.9  Rx         0181  6  37 06 11 87 03 00 
   964)      7636.0  Rx         0185  8  00 00 00 00 00 46 BF DE 
   965)      7636.1  Rx         0381  2  B0 00 
   966)      7636.2  Rx         0281  4  2F 29 2F 00 
   967)      7636.3  Rx         0285  8  00 00 00 82 00 46 BF DE 
   968)      7636.4  Rx         0481  8  F7 1C 00 00 00 00 02 00 
   969)      7636.6  Rx         0385  8  00 00 00 00 00 46 BF DE 
   970)      7636.6  Rx         0701  1  85 
   971)      7636.7  Rx         0485  8  00 00 00 00 00 46 BF DE 
   972)      7645.8  Rx         0501  6  0F 00 99 99 03 00 
   973)      7645.9  Rx         0080  0  
   974)      7646.0  Rx         0701  0  RTR
   975)      7646.1  Rx         0185  8  00 00 00 00 00 4A DE B9 
   976)      7646.2  Rx         0181  6  37 06 E1 85 03 00 
   977)      7646.3  Rx         0285  8  00 00 00 82 00 4A DE B9 
   978)      7646.4  Rx         0381  2  C7 00 
   979)      7646.5  Rx         0281  4  97 2A 2F 00 
   980)      7646.6  Rx         0385  8  00 00 00 00 00 4A DE B9 
   981)      7646.6  Rx         0701  1  05 
   982)      7646.8  Rx         0481  8  F1 1C 00 00 00 00 00 00 
   983)      7646.8  Rx         0485  8  00 00 00 00 00 4A DE B9 
   984)      7656.0  Rx         0501  6  0F 00 99 99 03 00 
   985)      7656.1  Rx         0080  0  
   986)      7656.2  Rx         0185  8  00 00 00 00 00 4E FD 9F 
   987)      7656.3  Rx         0181  6  37 02 A0 84 03 00 
   988)      7656.4  Rx         0285  8  00 00 00 82 00 4E FD 9F 
   989)      7656.5  Rx         0381  2  E3 00 
   990)      7656.6  Rx         0281  4  FB 2B 2F 00 
   991)      7656.7  Rx         0385  8  00 00 00 00 00 4E FD 9F 
   992)      7656.8  Rx         0481  8  F3 1C 00 00 00 00 00 00 
   993)      7657.0  Rx         0485  8  00 00 00 00 00 4E FD 9F 
   994)      7657.0  Rx         0701  0  RTR
   995)      7657.2  Rx         0701  1  85 
   996)      7666.2  Rx         0501  6  0F 00 99 99 03 00 
   997)      7666.3  Rx         0080  0  
   998)      7666.4  Rx         0185  8  00 00 00 00 00 53 1C EF 
   999)      7666.5  Rx         0701  0  RTR
  1000)      7666.6  Rx         0181  6  37 06 32 8A 03 00 
  1001)      7666.7  Rx         0285  8  00 00 00 82 00 53 1C EF 
  1002)      7666.8  Rx         0381  2  AA 00 
  1003)      7666.9  Rx         0281  4  6A 2D 2F 00 
  1004)      7667.0  Rx         0385  8  00 00 00 00 00 53 1C EF 
  1005)      7667.1  Rx         0481  8  F4 1C 00 00 00 00 02 00 
  1006)      7667.2  Rx         0485  8  00 00 00 00 00 53 1C EF 
  1007)      7667.2  Rx         0701  1  05 
  1008)      7676.4  Rx         0501  6  0F 00 99 99 03 00 
  1009)      7676.5  Rx         0080  0  
  1010)      7676.6  Rx         0185  8  00 00 00 00 00 57 31 62 
  1011)      7676.7  Rx         0181  6  37 06 54 8C 03 00 
  1012)      7676.8  Rx         0285  8  00 00 00 82 00 57 31 62 
  1013)      7676.9  Rx         0381  2  92 00 
  1014)      7677.0  Rx         0281  4  CF 2E 2F 00 
  1015)      7677.1  Rx         0385  8  00 00 00 00 00 57 31 62 
  1016)      7677.2  Rx         0481  8  F6 1C 00 00 00 00 02 00 
  1017)      7677.4  Rx         0485  8  00 00 00 00 00 57 31 62 
  1018)      7677.4  Rx         0701  0  RTR
  1019)      7677.5  Rx         0701  1  85 
  1020)      7686.6  Rx         0501  6  0F 00 99 99 03 00 
  1021)      7686.7  Rx         0080  0  
  1022)      7686.7  Rx         0701  0  RTR
  1023)      7686.9  Rx         0185  8  00 00 00 00 00 5B 50 B0 
  1024)      7687.0  Rx         0181  6  37 06 F5 86 03 00 
  1025)      7687.1  Rx         0285  8  00 00 00 82 00 5B 50 B0 
  1026)      7687.1  Rx         0381  2  B8 00 
  1027)      7687.2  Rx         0281  4  36 30 2F 00 
  1028)      7687.4  Rx         0385  8  00 00 00 00 00 5B 50 B0 
  1029)      7687.5  Rx         0481  8  F4 1C 00 00 00 00 02 00 
  1030)      7687.6  Rx         0485  8  00 00 00 00 00 5B 50 B0 
  1031)      7687.6  Rx         0701  1  05 
  1032)      7696.7  Rx         0501  6  0F 00 99 99 03 00 
  1033)      7696.9  Rx         0080  0  
  1034)      7696.9  Rx         0701  0  RTR
  1035)      7697.0  Rx         0181  6  37 06 41 89 03 00 
  1036)      7697.2  Rx         0185  8  00 00 00 00 00 5F 6F 73 
  1037)      7697.2  Rx         0381  2  AF 00 
  1038)      7697.3  Rx         0281  4  9F 31 2F 00 
  1039)      7697.4  Rx         0285  8  00 00 00 82 00 5F 6F 73 
  1040)      7697.5  Rx         0481  8  F7 1C 00 00 00 00 02 00 
  1041)      7697.7  Rx         0385  8  00 00 00 00 00 5F 6F 73 
  1042)      7697.7  Rx         0701  1  85 
  1043)      7697.8  Rx         0485  8  00 00 00 00 00 5F 6F 73 
  1044)      7706.9  Rx         0501  6  0F 00 99 99 03 00 
  1045)      7707.0  Rx         0080  0  
  1046)      7707.2  Rx         0185  8  00 00 00 00 00 63 8E EE 
  1047)      7707.2  Rx         0701  0  RTR
  1048)      7707.3  Rx         0181  6  37 06 99 8A 03 00 
  1049)      7707.4  Rx         0285  8  00 00 00 82 00 63 8E EE 
  1050)      7707.5  Rx         0381  2  98 00 
  1051)      7707.6  Rx         0281  4  08 33 2F 00 
  1052)      7707.7  Rx         0385  8  00 00 00 00 00 63 8E EE 
  1053)      7707.8  Rx         0481  8  F6 1C 00 00 00 00 02 00 
  1054)      7707.9  Rx         0485  8  00 00 00 00 00 63 8E EE 
  1055)      7708.0  Rx         0701  1  05 
  1056)      7717.2  Rx         0501  6  0F 00 99 99 03 00 
  1057)      7717.2  Rx         0080  0  
  1058)      7717.4  Rx         0701  0  RTR
  1059)      7717.5  Rx         0185  8  00 00 00 00 00 67 AE 0C 
  1060)      7717.6  Rx         0181  6  37 06 6C 88 03 00 
  1061)      7717.7  Rx         0285  8  00 00 00 82 00 67 AE 0C 
  1062)      7717.8  Rx         0381  2  AF 00 
  1063)      7717.8  Rx         0281  4  73 34 2F 00 
  1064)      7718.0  Rx         0385  8  00 00 00 00 00 67 AE 0C 
  1065)      7718.1  Rx         0481  8  F4 1C 00 00 00 00 02 00 
  1066)      7718.2  Rx         0485  8  00 00 00 00 00 67 AE 0C 
  1067)      7718.3  Rx         0701  1  85 
  1068)      7727.4  Rx         0501  6  0F 00 99 99 03 00 
  1069)      7727.5  Rx         0080  0  
  1070)      7727.6  Rx         0701  0  RTR
  1071)      7727.7  Rx         0185  8  00 00 00 00 00 6B CC 6D 
  1072)      7727.8  Rx         0181  6  37 06 EF 88 03 00 
  1073)      7728.0  Rx         0285  8  00 00 00 82 00 6B CC 6D 
  1074)      7728.0  Rx         0381  2  B3 00 
  1075)      7728.1  Rx         0281  4  DC 35 2F 00 
  1076)      7728.2  Rx         0385  8  00 00 00 00 00 6B CC 6D 
  1077)      7728.3  Rx         0701  1  05 
  1078)      7728.4  Rx         0481  8  F8 1C 00 00 00 00 02 00 
  1079)      7728.5  Rx         0485  8  00 00 00 00 00 6B CC 6D 
  1080)      7737.7  Rx         0501  6  0F 00 99 99 03 00 
  1081)      7737.8  Rx         0080  0  
  1082)      7737.9  Rx         0185  8  00 00 00 00 00 6F EC 0C 
  1083)      7738.0  Rx         0701  0  RTR
  1084)      7738.1  Rx         0181  6  37 06 18 8A 03 00 
  1085)      7738.2  Rx         0285  8  00 00 00 82 00 6F EC 0C 
  1086)      7738.3  Rx         0381  2  91 00 
  1087)      7738.4  Rx         0281  4  4D 37 2F 00 
  1088)      7738.5  Rx         0385  8  00 00 00 00 00 6F EC 0C 
  1089)      7738.6  Rx         0481  8  F3 1C 00 00 00 00 02 00 
  1090)      7738.8  Rx         0485  8  00 00 00 00 00 6F EC 0C 
  1091)      7738.8  Rx         0701  1  85 
  1092)      7747.9  Rx         0501  6  0F 00 99 99 03 00 
  1093)      7748.0  Rx         0080  0  
  1094)      7748.2  Rx         0185  8  00 00 00 00 00 74 0A E8 
  1095)      7748.3  Rx         0181  6  37 06 49 87 03 00 
  1096)      7748.4  Rx         0285  8  00 00 00 82 00 74 0A E8 
  1097)      7748.4  Rx         0381  2  C2 00 
  1098)      7748.5  Rx         0281  4  B2 38 2F 00 
  1099)      7748.7  Rx         0385  8  00 00 00 00 00 74 0A E8 
  1100)      7748.8  Rx         0481  8  FA 1C 00 00 00 00 02 00 
  1101)      7748.9  Rx         0485  8  00 00 00 00 00 74 0A E8 
  1102)      7749.0  Rx         0701  0  RTR
  1103)      7749.1  Rx         0701  1  05 
  1104)      7758.1  Rx         0501  6  0F 00 99 99 03 00 
  1105)      7758.2  Rx         0080  0  
  1106)      7758.4  Rx         0185  8  00 00 00 00 00 78 2A 43 
  1107)      7758.5  Rx         0181  6  37 06 61 87 03 00 
  1108)      7758.6  Rx         0285  8  00 00 00 82 00 78 2A 43 
  1109)      7758.7  Rx         0381  2  BE 00 
  1110)      7758.8  Rx         0281  4  1B 3A 2F 00 
  1111)      7758.9  Rx         0385  8  00 00 00 00 00 78 2A 43 
  1112)      7759.0  Rx         0481  8  FA 1C 00 00 00 00 00 00 
  1113)      7759.1  Rx         0485  8  00 00 00 00 00 78 2A 43 
  1114)      7759.2  Rx         0701  0  RTR
  1115)      7759.3  Rx         0701  1  85 
  1116)      7768.3  Rx         0501  6  0F 00 99 99 03 00 
  1117)      7768.4  Rx         0080  0  
  1118)      7768.6  Rx         0185  8  00 00 00 00 00 7C 49 51 
  1119)      7768.7  Rx         0181  6  37 02 05 85 03 00 
  1120)      7768.8  Rx         0285  8  00 00 00 82 00 7C 49 51 
  1121)      7768.9  Rx         0381  2  C4 00 
  1122)      7769.0  Rx         0281  4  83 3B 2F 00 
  1123)      7769.1  Rx         0385  8  00 00 00 00 00 7C 49 51 
  1124)      7769.2  Rx         0481  8  F0 1C 00 00 00 00 00 00 
  1125)      7769.3  Rx         0485  8  00 00 00 00 00 7C 49 51 
  1126)      7769.4  Rx         0701  0  RTR
  1127)      7769.5  Rx         0701  1  05 
  1128)      7778.5  Rx         0501  6  0F 00 99 99 03 00 
  1129)      7778.6  Rx         0080  0  
  1130)      7778.8  Rx         0185  8  00 00 00 00 00 80 68 79 
  1131)      7778.8  Rx         0701  0  RTR
  1132)      7778.9  Rx         0181  6  37 02 C8 88 03 00 
  1133)      7779.0  Rx         0285  8  00 00 00 82 00 80 68 79 
  1134)      7779.1  Rx         0381  2  C1 00 
  1135)      7779.2  Rx         0281  4  EE 3C 2F 00 
  1136)      7779.3  Rx         0385  8  00 00 00 00 00 80 68 79 
  1137)      7779.4  Rx         0481  8  F6 1C 00 00 00 00 00 00 
  1138)      7779.5  Rx         0485  8  00 00 00 00 00 80 68 79 
  1139)      7779.6  Rx         0701  1  85 
  1140)      7788.8  Rx         0501  6  0F 00 99 99 03 00 
  1141)      7788.8  Rx         0080  0  
  1142)      7788.9  Rx         0701  0  RTR
  1143)      7789.0  Rx         0185  8  00 00 00 00 00 84 87 BE 
  1144)      7789.1  Rx         0181  6  37 06 CB 8A 03 00 
  1145)      7789.2  Rx         0285  8  00 00 00 82 00 84 87 BE 
  1146)      7789.3  Rx         0381  2  9E 00 
  1147)      7789.4  Rx         0281  4  52 3E 2F 00 
  1148)      7789.5  Rx         0385  8  00 00 00 00 00 84 87 BE 
  1149)      7789.6  Rx         0701  1  05 
  1150)      7789.7  Rx         0481  8  F9 1C 00 00 00 00 02 00 
  1151)      7789.8  Rx         0485  8  00 00 00 00 00 84 87 BE 
  1152)      7799.0  Rx         0501  6  0F 00 99 99 03 00 
  1153)      7799.0  Rx         0080  0  
  1154)      7799.2  Rx         0185  8  00 00 00 00 00 88 A6 DC 
  1155)      7799.3  Rx         0181  6  37 06 0C 89 03 00 
  1156)      7799.4  Rx         0285  8  00 00 00 82 00 88 A6 DC 
  1157)      7799.5  Rx         0381  2  A3 00 
  1158)      7799.6  Rx         0281  4  BE 3F 2F 00 
  1159)      7799.7  Rx         0385  8  00 00 00 00 00 88 A6 DC 
  1160)      7799.8  Rx         0481  8  F5 1C 00 00 00 00 02 00 
  1161)      7799.9  Rx         0485  8  00 00 00 00 00 88 A6 DC 
  1162)      7800.0  Rx         0701  0  RTR
  1163)      7800.1  Rx         0701  1  85 
  1164)      7809.2  Rx         0501  6  0F 00 99 99 03 00 
  1165)      7809.2  Rx         0080  0  
  1166)      7809.3  Rx         0701  0  RTR
  1167)      7809.5  Rx         0185  8  00 00 00 00 00 8C C6 32 
  1168)      7809.5  Rx         0181  6  37 06 6D 8D 03 00 
  1169)      7809.7  Rx         0285  8  00 00 00 82 00 8C C6 32 
  1170)      7809.8  Rx         0381  2  90 00 
  1171)      7809.8  Rx         0281  4  27 41 2F 00 
  1172)      7809.9  Rx         0385  8  00 00 00 00 00 8C C6 32 
  1173)      7810.1  Rx         0481  8  F7 1C 00 00 00 00 02 00 
  1174)      7810.2  Rx         0485  8  00 00 00 00 00 8C C6 32 
  1175)      7810.3  Rx         0701  1  05 
  1176)      7819.5  Rx         0501  6  0F 00 99 99 03 00 
  1177)      7819.6  Rx         0080  0  
  1178)      7819.7  Rx         0701  0  RTR
  1179)      7819.7  Rx         0181  6  37 06 3C 8B 03 00 
  1180)      7819.9  Rx         0185  8  00 00 00 00 00 90 E5 97 
  1181)      7820.0  Rx         0381  2  80 00 
  1182)      7820.0  Rx         0281  4  90 42 2F 00 
  1183)      7820.1  Rx         0285  8  00 00 00 82 00 90 E5 97 
  1184)      7820.2  Rx         0481  8  F7 1C 00 00 00 00 02 00 
  1185)      7820.4  Rx         0385  8  00 00 00 00 00 90 E5 97 
  1186)      7820.4  Rx         0701  1  85 
  1187)      7820.5  Rx         0485  8  00 00 00 00 00 90 E5 97 
  1188)      7829.7  Rx         0501  6  0F 00 99 99 03 00 
  1189)      7829.8  Rx         0080  0  
  1190)      7829.9  Rx         0701  0  RTR
  1191)      7830.0  Rx         0185  8  00 00 00 00 00 95 04 D9 
  1192)      7830.1  Rx         0181  6  37 06 0F 84 03 00 
  1193)      7830.2  Rx         0285  8  00 00 00 82 00 95 04 D9 
  1194)      7830.3  Rx         0381  2  C9 00 
  1195)      7830.4  Rx         0281  4  00 44 2F 00 
  1196)      7830.5  Rx         0385  8  00 00 00 00 00 95 04 D9 
  1197)      7830.6  Rx         0481  8  F6 1C 00 00 00 00 02 00 
  1198)      7830.7  Rx         0485  8  00 00 00 00 00 95 04 D9 
  1199)      7830.8  Rx         0701  1  05 
  1200)      7840.0  Rx         0501  6  0F 00 99 99 03 00 
  1201)      7840.0  Rx         0080  0  
  1202)      7840.1  Rx         0701  0  RTR
  1203)      7840.2  Rx         0181  6  37 06 50 84 03 00 
  1204)      7840.3  Rx         0381  2  CF 00 
  1205)      7840.4  Rx         0281  4  65 45 2F 00 
  1206)      7840.5  Rx         0185  8  00 00 00 00 00 9D 43 92 
  1207)      7840.6  Rx         0285  8  00 00 00 82 00 9D 43 92 
  1208)      7840.7  Rx         0481  8  F9 1C 00 00 00 00 02 00 
  1209)      7840.9  Rx         0385  8  00 00 00 00 00 9D 43 92 
  1210)      7840.9  Rx         0701  1  85 
  1211)      7841.0  Rx         0485  8  00 00 00 00 00 9D 43 92 
  1212)      7850.2  Rx         0501  6  0F 00 99 99 03 00 
  1213)      7850.2  Rx         0080  0  
  1214)      7850.3  Rx         0701  0  RTR
  1215)      7850.5  Rx         0185  8  00 00 00 00 00 A1 60 FB 
  1216)      7850.6  Rx         0181  6  37 06 A7 8A 03 00 
  1217)      7850.7  Rx         0285  8  00 00 00 82 00 A1 60 FB 
  1218)      7850.8  Rx         0381  2  8F 00 
  1219)      7850.8  Rx         0281  4  D2 46 2F 00 
  1220)      7850.9  Rx         0385  8  00 00 00 00 00 A1 60 FB 
  1221)      7851.1  Rx         0481  8  F5 1C 00 00 00 00 02 00 
  1222)      7851.2  Rx         0485  8  00 00 00 00 00 A1 60 FB 
  1223)      7851.3  Rx         0701  1  05 
  1224)      7860.4  Rx         0501  6  0F 00 99 99 03 00 
  1225)      7860.5  Rx         0080  0  
  1226)      7860.7  Rx         0185  8  00 00 00 00 00 A5 80 0F 
  1227)      7860.8  Rx         0181  6  37 06 FA 84 03 00 
  1228)      7860.9  Rx         0285  8  00 00 00 82 00 A5 80 0F 
  1229)      7861.0  Rx         0381  2  B8 00 
  1230)      7861.0  Rx         0281  4  3B 48 2F 00 
  1231)      7861.2  Rx         0385  8  00 00 00 00 00 A5 80 0F 
  1232)      7861.3  Rx         0481  8  F8 1C 00 00 00 00 02 00 
  1233)      7861.4  Rx         0485  8  00 00 00 00 00 A5 80 0F 
  1234)      7861.4  Rx         0701  0  RTR
  1235)      7861.6  Rx         0701  1  85 
  1236)      7870.6  Rx         0501  6  0F 00 99 99 03 00 
  1237)      7870.7  Rx         0080  0  
  1238)      7870.8  Rx         0701  0  RTR
  1239)      7870.9  Rx         0185  8  00 00 00 00 00 A9 9E E0 
  1240)      7871.0  Rx         0181  6  37 06 51 83 03 00 
  1241)      7871.2  Rx         0285  8  00 00 00 82 00 A9 9E E0 
  1242)      7871.2  Rx         0381  2  DB 00 
  1243)      7871.3  Rx         0281  4  A3 49 2F 00 
  1244)      7871.4  Rx         0385  8  00 00 00 00 00 A9 9E E0 
  1245)      7871.5  Rx         0701  1  05 
  1246)      7871.6  Rx         0481  8  F7 1C 00 00 00 00 02 00 
  1247)      7871.7  Rx         0485  8  00 00 00 00 00 A9 9E E0 
  1248)      7880.8  Rx         0501  6  0F 00 99 99 03 00 
  1249)      7880.9  Rx         0080  0  
  1250)      7881.0  Rx         0701  0  RTR
  1251)      7881.1  Rx         0185  8  00 00 00 00 00 AD BE 5F 
  1252)      7881.3  Rx         0285  8  00 00 00 82 00 AD BE 5F 
  1253)      7881.4  Rx         0181  6  37 02 64 88 03 00 
  1254)      7881.4  Rx         0381  2  C6 00 
  1255)      7881.5  Rx         0281  4  12 4B 2F 00 
  1256)      7881.6  Rx         0385  8  00 00 00 00 00 AD BE 5F 
  1257)      7881.8  Rx         0481  8  F8 1C 00 00 00 00 00 00 
  1258)      7881.9  Rx         0485  8  00 00 00 00 00 AD BE 5F 
  1259)      7881.9  Rx         0701  1  85 
  1260)      7891.1  Rx         0501  6  0F 00 99 99 03 00 
  1261)      7891.2  Rx         0080  0  
  1262)      7891.3  Rx         0185  8  00 00 00 00 00 B1 DD 64 
  1263)      7891.5  Rx         0181  6  37 02 9E 88 03 00 
  1264)      7891.5  Rx         0285  8  00 00 00 82 00 B1 DD 64 
  1265)      7891.6  Rx         0381  2  A9 00 
  1266)      7891.7  Rx         0281  4  76 4C 2F 00 
  1267)      7891.8  Rx         0385  8  00 00 00 00 00 B1 DD 64 
  1268)      7891.9  Rx         0481  8  F7 1C 00 00 00 00 00 00 
  1269)      7892.1  Rx         0485  8  00 00 00 00 00 B1 DD 64 
  1270)      7892.1  Rx         0701  0  RTR
  1271)      7892.3  Rx         0701  1  05 
  1272)      7901.3  Rx         0501  6  0F 00 99 99 03 00 
  1273)      7901.4  Rx         0080  0  
  1274)      7901.5  Rx         0701  0  RTR
  1275)      7901.6  Rx         0185  8  00 00 00 00 00 B5 FC 17 
  1276)      7901.7  Rx         0181  6  37 02 76 8A 03 00 
  1277)      7901.8  Rx         0285  8  00 00 00 82 00 B5 FC 17 
  1278)      7901.9  Rx         0381  2  9D 00 
  1279)      7902.0  Rx         0281  4  E2 4D 2F 00 
  1280)      7902.1  Rx         0385  8  00 00 00 00 00 B5 FC 17 
  1281)      7902.2  Rx         0481  8  F6 1C 00 00 00 00 02 00 
  1282)      7902.3  Rx         0485  8  00 00 00 00 00 B5 FC 17 
  1283)      7902.4  Rx         0701  1  85 
  1284)      7911.5  Rx         0501  6  0F 00 99 99 03 00 
  1285)      7911.6  Rx         0080  0  
  1286)      7911.7  Rx         0701  0  RTR
  1287)      7911.8  Rx         0181  6  37 06 5E 89 03 00 
  1288)      7911.9  Rx         0185  8  00 00 00 00 00 BA 1B 47 
  1289)      7912.0  Rx         0381  2  AF 00 
  1290)      7912.1  Rx         0281  4  46 4F 2F 00 
  1291)      7912.2  Rx         0285  8  00 00 00 82 00 BA 1B 47 
  1292)      7912.3  Rx         0481  8  F9 1C 00 00 00 00 02 00 
  1293)      7912.5  Rx         0385  8  00 00 00 00 00 BA 1B 47 
  1294)      7912.5  Rx         0701  1  05 
  1295)      7912.6  Rx         0485  8  00 00 00 00 00 BA 1B 47 
  1296)      7921.7  Rx         0501  6  0F 00 99 99 03 00 
  1297)      7921.8  Rx         0080  0  
  1298)      7922.0  Rx         0185  8  00 00 00 00 00 BE 3A AD 
  1299)      7922.1  Rx         0181  6  37 06 86 8A 03 00 
  1300)      7922.2  Rx         0285  8  00 00 00 82 00 BE 3A AD 
  1301)      7922.2  Rx         0381  2  99 00 
  1302)      7922.3  Rx         0281  4  AE 50 2F 00 
  1303)      7922.5  Rx         0385  8  00 00 00 00 00 BE 3A AD 
  1304)      7922.6  Rx         0481  8  F7 1C 00 00 00 00 02 00 
  1305)      7922.7  Rx         0485  8  00 00 00 00 00 BE 3A AD 
  1306)      7922.7  Rx         0701  0  RTR
  1307)      7922.9  Rx         0701  1  85 
  1308)      7931.9  Rx         0501  6  0F 00 99 99 03 00 
  1309)      7932.0  Rx         0080  0  
  1310)      7932.0  Rx         0701  0  RTR
  1311)      7932.1  Rx         0181  6  37 06 2B 8C 03 00 
  1312)      7932.3  Rx         0185  8  00 00 00 00 00 C2 4E 8B 
  1313)      7932.3  Rx         0381  2  9D 00 
  1314)      7932.4  Rx         0281  4  14 52 2F 00 
  1315)      7932.5  Rx         0285  8  00 00 00 82 00 C2 4E 8B 
  1316)      7932.6  Rx         0481  8  FB 1C 00 00 00 00 02 00 
  1317)      7932.8  Rx         0385  8  00 00 00 00 00 C2 4E 8B 
  1318)      7932.8  Rx         0701  1  05 
  1319)      7932.9  Rx         0485  8  00 00 00 00 00 C2 4E 8B 
  1320)      7942.1  Rx         0501  6  0F 00 99 99 03 00 
  1321)      7942.2  Rx         0080  0  
  1322)      7942.2  Rx         0701  0  RTR
  1323)      7942.4  Rx         0185  8  00 00 00 00 00 C6 6D CD 
  1324)      7942.5  Rx         0181  6  37 06 2B 89 03 00 
  1325)      7942.6  Rx         0285  8  00 00 00 82 00 C6 6D CD 
  1326)      7942.6  Rx         0381  2  93 00 
  1327)      7942.7  Rx         0281  4  80 53 2F 00 
  1328)      7942.8  Rx         0385  8  00 00 00 00 00 C6 6D CD 
  1329)      7943.0  Rx         0481  8  F4 1C 00 00 00 00 02 00 
  1330)      7943.1  Rx         0485  8  00 00 00 00 00 C6 6D CD 
  1331)      7943.1  Rx         0701  1  85 
  1332)      7952.3  Rx         0501  6  0F 00 99 99 03 00 
  1333)      7952.3  Rx         0080  0  
  1334)      7952.4  Rx         0701  0  RTR
  1335)      7952.5  Rx         0185  8  00 00 00 00 00 CA 8D 19 
  1336)      7952.6  Rx         0181  6  37 06 75 85 03 00 
  1337)      7952.7  Rx         0285  8  00 00 00 82 00 CA 8D 19 
  1338)      7952.8  Rx         0381  2  C7 00 
  1339)      7952.9  Rx         0281  4  E6 54 2F 00 
  1340)      7953.0  Rx         0385  8  00 00 00 00 00 CA 8D 19 
  1341)      7953.1  Rx         0481  8  F9 1C 00 00 00 00 02 00 
  1342)      7953.2  Rx         0485  8  00 00 00 00 00 CA 8D 19 
  1343)      7953.3  Rx         0701  1  05 
  1344)      7962.4  Rx         0501  6  0F 00 99 99 03 00 
  1345)      7962.5  Rx         0080  0  
  1346)      7962.6  Rx         0701  0  RTR
  1347)      7962.7  Rx         0181  6  37 06 A3 88 03 00 
  1348)      7962.8  Rx         0185  8  00 00 00 00 00 CE AB F1 
  1349)      7962.9  Rx         0381  2  9F 00 
  1350)      7963.0  Rx         0281  4  4F 56 2F 00 
  1351)      7963.1  Rx         0285  8  00 00 00 82 00 CE AB F1 
  1352)      7963.2  Rx         0481  8  F5 1C 00 00 00 00 02 00 
  1353)      7963.3  Rx         0385  8  00 00 00 00 00 CE AB F1 
  1354)      7963.4  Rx         0701  1  85 
  1355)      7963.5  Rx         0485  8  00 00 00 00 00 CE AB F1 
  1356)      7972.6  Rx         0501  6  0F 00 99 99 03 00 
  1357)      7972.7  Rx         0080  0  
  1358)      7972.7  Rx         0701  0  RTR
  1359)      7972.9  Rx         0185  8  00 00 00 00 00 D2 CB 1F 
  1360)      7973.0  Rx         0181  6  37 02 8E 8A 03 00 
  1361)      7973.1  Rx         0285  8  00 00 00 82 00 D2 CB 1F 
  1362)      7973.2  Rx         0381  2  A6 00 
  1363)      7973.2  Rx         0281  4  B8 57 2F 00 
  1364)      7973.3  Rx         0385  8  00 00 00 00 00 D2 CB 1F 
  1365)      7973.5  Rx         0481  8  F8 1C 00 00 00 00 00 00 
  1366)      7973.6  Rx         0485  8  00 00 00 00 00 D2 CB 1F 
  1367)      7973.6  Rx         0701  1  05 
  1368)      7982.8  Rx         0501  6  0F 00 99 99 03 00 
  1369)      7982.9  Rx         0080  0  
  1370)      7982.9  Rx         0701  0  RTR
  1371)      7983.0  Rx         0185  8  00 00 00 00 00 D6 EA 70 
  1372)      7983.1  Rx         0181  6  37 06 A6 86 03 00 
  1373)      7983.2  Rx         0285  8  00 00 00 82 00 D6 EA 70 
  1374)      7983.3  Rx         0381  2  AB 00 
  1375)      7983.4  Rx         0281  4  20 59 2F 00 
  1376)      7983.5  Rx         0385  8  00 00 00 00 00 D6 EA 70 
  1377)      7983.7  Rx         0481  8  F7 1C 00 00 00 00 02 00 
  1378)      7983.8  Rx         0485  8  00 00 00 00 00 D6 EA 70 
  1379)      7983.8  Rx         0701  1  85 
  1380)      7992.9  Rx         0501  6  0F 00 99 99 03 00 
  1381)      7993.0  Rx         0080  0  
  1382)      7993.1  Rx         0701  0  RTR
  1383)      7993.2  Rx         0185  8  00 00 00 00 00 DB 09 A6 
  1384)      7993.3  Rx         0181  6  37 06 7F 83 03 00 
  1385)      7993.4  Rx         0285  8  00 00 00 82 00 DB 09 A6 
  1386)      7993.5  Rx         0381  2  C8 00 
  1387)      7993.6  Rx         0281  4  84 5A 2F 00 
  1388)      7993.7  Rx         0385  8  00 00 00 00 00 DB 09 A6 
  1389)      7993.8  Rx         0481  8  F4 1C 00 00 00 00 02 00 
  1390)      7994.0  Rx         0485  8  00 00 00 00 00 DB 09 A6 
  1391)      7994.0  Rx         0701  1  05 
  1392)      8003.1  Rx         0501  6  0F 00 99 99 03 00 
  1393)      8003.2  Rx         0080  0  
  1394)      8003.3  Rx         0701  0  RTR
  1395)      8003.4  Rx         0185  8  00 00 00 00 00 DF 28 DF 
  1396)      8003.5  Rx         0285  8  00 00 00 82 00 DF 28 DF 
  1397)      8003.6  Rx         0181  6  37 02 D4 84 03 00 
  1398)      8003.7  Rx         0381  2  B3 00 
  1399)      8003.7  Rx         0281  4  EF 5B 2F 00 
  1400)      8003.9  Rx         0385  8  00 00 00 00 00 DF 28 DF 
  1401)      8004.0  Rx         0481  8  FB 1C 00 00 00 00 00 00 
  1402)      8004.1  Rx         0485  8  00 00 00 00 00 DF 28 DF 
  1403)      8004.2  Rx         0701  1  85 
  1404)      8013.3  Rx         0501  6  0F 00 99 99 03 00 
  1405)      8013.4  Rx         0080  0  
  1406)      8013.5  Rx         0701  0  RTR
  1407)      8013.6  Rx         0185  8  00 00 00 00 00 E3 47 87 
  1408)      8013.7  Rx         0181  6  37 02 43 87 03 00 
  1409)      8013.8  Rx         0285  8  00 00 00 82 00 E3 47 87 
  1410)      8013.9  Rx         0381  2  C3 00 
  1411)      8013.9  Rx         0281  4  54 5D 2F 00 
  1412)      8014.1  Rx         0385  8  00 00 00 00 00 E3 47 87 
  1413)      8014.2  Rx         0481  8  FD 1C 00 00 00 00 00 00 
  1414)      8014.3  Rx         0485  8  00 00 00 00 00 E3 47 87 
  1415)      8014.3  Rx         0701  1  05 
  1416)      8023.5  Rx         0501  6  0F 00 99 99 03 00 
  1417)      8023.6  Rx         0080  0  
  1418)      8023.7  Rx         0701  0  RTR
  1419)      8023.8  Rx         0185  8  00 00 00 00 00 E7 66 C1 
  1420)      8023.9  Rx         0181  6  37 02 27 8A 03 00 
  1421)      8024.0  Rx         0285  8  00 00 00 82 00 E7 66 C1 
  1422)      8024.1  Rx         0381  2  A8 00 
  1423)      8024.2  Rx         0281  4  BC 5E 2F 00 
  1424)      8024.3  Rx         0385  8  00 00 00 00 00 E7 66 C1 
  1425)      8024.4  Rx         0481  8  FA 1C 00 00 00 00 00 00 
  1426)      8024.5  Rx         0485  8  00 00 00 00 00 E7 66 C1 
  1427)      8024.6  Rx         0701  1  85 
  1428)      8033.7  Rx         0501  6  0F 00 99 99 03 00 
  1429)      8033.8  Rx         0080  0  
  1430)      8034.0  Rx         0185  8  00 00 00 00 00 EB 85 B5 
  1431)      8034.0  Rx         0701  0  RTR
  1432)      8034.1  Rx         0285  8  00 00 00 82 00 EB 85 B5 
  1433)      8034.2  Rx         0181  6  37 06 C6 88 03 00 
  1434)      8034.3  Rx         0381  2  AA 00 
  1435)      8034.4  Rx         0281  4  28 60 2F 00 
  1436)      8034.5  Rx         0385  8  00 00 00 00 00 EB 85 B5 
  1437)      8034.7  Rx         0481  8  F8 1C 00 00 00 00 02 00 
  1438)      8034.7  Rx         0485  8  00 00 00 00 00 EB 85 B5 
  1439)      8034.8  Rx         0701  1  05 
  1440)      8043.9  Rx         0501  6  0F 00 99 99 03 00 
  1441)      8044.0  Rx         0080  0  
  1442)      8044.0  Rx         0701  0  RTR
  1443)      8044.2  Rx         0185  8  00 00 00 00 00 EF A4 88 
  1444)      8044.3  Rx         0181  6  37 06 DB 8D 03 00 
  1445)      8044.4  Rx         0285  8  00 00 00 82 00 EF A4 88 
  1446)      8044.5  Rx         0381  2  78 00 
  1447)      8044.6  Rx         0281  4  8E 61 2F 00 
  1448)      8044.7  Rx         0385  8  00 00 00 00 00 EF A4 88 
  1449)      8044.8  Rx         0481  8  F6 1C 00 00 00 00 02 00 
  1450)      8044.9  Rx         0485  8  00 00 00 00 00 EF A4 88 
  1451)      8045.0  Rx         0701  1  85 
  1452)      8054.1  Rx         0501  6  0F 00 99 99 03 00 
  1453)      8054.2  Rx         0080  0  
  1454)      8054.3  Rx         0701  0  RTR
  1455)      8054.4  Rx         0185  8  00 00 00 00 00 F3 C3 C0 
  1456)      8054.5  Rx         0181  6  37 06 8C 90 03 00 
  1457)      8054.6  Rx         0285  8  00 00 00 82 00 F3 C3 C0 
  1458)      8054.7  Rx         0381  2  5A 00 
  1459)      8054.8  Rx         0281  4  F8 62 2F 00 
  1460)      8054.9  Rx         0385  8  00 00 00 00 00 F3 C3 C0 
  1461)      8055.1  Rx         0481  8  F8 1C 00 00 00 00 02 00 
  1462)      8055.1  Rx         0485  8  00 00 00 00 00 F3 C3 C0 
  1463)      8055.2  Rx         0701  1  05 
  1464)      8064.3  Rx         0501  6  0F 00 99 99 03 00 
  1465)      8064.4  Rx         0080  0  
  1466)      8064.5  Rx         0701  0  RTR
  1467)      8064.6  Rx         0181  6  37 06 74 8A 03 00 
  1468)      8064.7  Rx         0185  8  00 00 00 00 00 F7 E2 C7 
  1469)      8064.8  Rx         0381  2  83 00 
  1470)      8064.8  Rx         0281  4  62 64 2F 00 
  1471)      8065.0  Rx         0285  8  00 00 00 82 00 F7 E2 C7 
  1472)      8065.1  Rx         0481  8  F9 1C 00 00 00 00 02 00 
  1473)      8065.2  Rx         0385  8  00 00 00 00 00 F7 E2 C7 
  1474)      8065.2  Rx         0701  1  85 
  1475)      8065.4  Rx         0485  8  00 00 00 00 00 F7 E2 C7 
  1476)      8074.5  Rx         0501  6  0F 00 99 99 03 00 
  1477)      8074.6  Rx         0080  0  
  1478)      8074.7  Rx         0185  8  00 00 00 00 00 FC 01 99 
  1479)      8074.8  Rx         0181  6  37 06 F2 8B 03 00 
  1480)      8074.9  Rx         0285  8  00 00 00 82 00 FC 01 99 
  1481)      8075.0  Rx         0381  2  7B 00 
  1482)      8075.1  Rx         0281  4  C8 65 2F 00 
  1483)      8075.2  Rx         0385  8  00 00 00 00 00 FC 01 99 
  1484)      8075.4  Rx         0481  8  F6 1C 00 00 00 00 02 00 
  1485)      8075.4  Rx         0485  8  00 00 00 00 00 FC 01 99 
  1486)      8075.5  Rx         0701  0  RTR
  1487)      8075.7  Rx         0701  1  05 
  1488)      8084.7  Rx         0501  6  0F 00 99 99 03 00 
  1489)      8085.2  Rx         0080  0  
  1490)      8085.3  Rx         0701  0  RTR
  1491)      8085.4  Rx         0185  8  00 00 00 00 00 00 21 0D 
  1492)      8085.6  Rx         0181  6  37 06 26 8D 03 00 
  1493)      8085.7  Rx         0285  8  00 00 00 82 00 00 21 0D 
  1494)      8085.7  Rx         0381  2  7B 00 
  1495)      8085.8  Rx         0281  4  43 67 2F 00 
  1496)      8085.9  Rx         0385  8  00 00 00 00 00 00 21 0D 
  1497)      8086.0  Rx         0701  1  85 
  1498)      8086.2  Rx         0481  8  F9 1C 00 00 00 00 02 00 
  1499)      8086.2  Rx         0485  8  00 00 00 00 00 00 21 0D 
  1500)      8095.5  Rx         0501  6  0F 00 99 99 03 00 
  1501)      8095.6  Rx         0080  0  
  1502)      8095.7  Rx         0701  0  RTR
  1503)      8095.8  Rx         0185  8  00 00 00 00 00 04 40 71 
  1504)      8095.9  Rx         0181  6  37 06 AB 8A 03 00 
  1505)      8096.1  Rx         0285  8  00 00 00 82 00 04 40 71 
  1506)      8096.1  Rx         0381  2  BD 00 
  1507)      8096.2  Rx         0281  4  B6 68 2F 00 
  1508)      8096.3  Rx         0385  8  00 00 00 00 00 04 40 71 
  1509)      8096.4  Rx         0481  8  F9 1C 00 00 00 00 02 00 
  1510)      8096.6  Rx         0485  8  00 00 00 00 00 04 40 71 
  1511)      8096.6  Rx         0701  1  05 
  1512)      8105.7  Rx         0501  6  0F 00 99 99 03 00 
  1513)      8105.8  Rx         0080  0  
  1514)      8105.9  Rx         0701  0  RTR
  1515)      8106.0  Rx         0185  8  00 00 00 00 00 08 5F 6F 
  1516)      8106.1  Rx         0181  6  37 06 11 87 03 00 
  1517)      8106.3  Rx         0285  8  00 00 00 82 00 08 5F 6F 
  1518)      8106.3  Rx         0381  2  C6 00 
  1519)      8106.4  Rx         0281  4  1A 6A 2F 00 
  1520)      8106.5  Rx         0385  8  00 00 00 00 00 08 5F 6F 
  1521)      8106.6  Rx         0701  1  85 
  1522)      8106.7  Rx         0481  8  F5 1C 00 00 00 00 02 00 
  1523)      8106.8  Rx         0485  8  00 00 00 00 00 08 5F 6F 
  1524)      8116.0  Rx         0501  6  0F 00 99 99 03 00 
  1525)      8116.1  Rx         0080  0  
  1526)      8116.2  Rx         0701  0  RTR
  1527)      8116.3  Rx         0185  8  00 00 00 00 00 0C 7E 74 
  1528)      8116.4  Rx         0181  6  37 06 3F 84 03 00 
  1529)      8116.5  Rx         0285  8  00 00 00 82 00 0C 7E 74 
  1530)      8116.6  Rx         0381  2  EA 00 
  1531)      8116.7  Rx         0281  4  85 6B 2F 00 
  1532)      8116.8  Rx         0385  8  00 00 00 00 00 0C 7E 74 
  1533)      8116.8  Rx         0701  1  05 
  1534)      8117.0  Rx         0481  8  F6 1C 00 00 00 00 00 00 
  1535)      8117.0  Rx         0485  8  00 00 00 00 00 0C 7E 74 
  1536)      8126.3  Rx         0501  6  0F 00 99 99 03 00 
  1537)      8126.4  Rx         0080  0  
  1538)      8126.5  Rx         0701  0  RTR
  1539)      8126.6  Rx         0185  8  00 00 00 00 00 10 9D 68 
  1540)      8126.7  Rx         0181  6  37 02 73 83 03 00 
  1541)      8126.8  Rx         0285  8  00 00 00 82 00 10 9D 68 
  1542)      8126.9  Rx         0381  2  E1 00 
  1543)      8126.9  Rx         0281  4  F0 6C 2F 00 
  1544)      8127.1  Rx         0385  8  00 00 00 00 00 10 9D 68 
  1545)      8127.2  Rx         0481  8  F4 1C 00 00 00 00 00 00 
  1546)      8127.3  Rx         0485  8  00 00 00 00 00 10 9D 68 
  1547)      8127.4  Rx         0701  1  85 
  1548)      8136.6  Rx         0501  6  0F 00 99 99 03 00 
  1549)      8136.7  Rx         0080  0  
  1550)      8136.7  Rx         0701  0  RTR
  1551)      8136.8  Rx         0185  8  00 00 00 00 00 14 BC D5 
  1552)      8137.0  Rx         0181  6  37 02 D4 86 03 00 
  1553)      8137.1  Rx         0285  8  00 00 00 82 00 14 BC D5 
  1554)      8137.1  Rx         0381  2  C4 00 
  1555)      8137.2  Rx         0281  4  5C 6E 2F 00 
  1556)      8137.4  Rx         0385  8  00 00 00 00 00 14 BC D5 
  1557)      8137.5  Rx         0481  8  F6 1C 00 00 00 00 00 00 
  1558)      8137.6  Rx         0485  8  00 00 00 00 00 14 BC D5 
  1559)      8137.7  Rx         0701  1  05 
  1560)      8146.8  Rx         0501  6  0F 00 99 99 03 00 
  1561)      8146.9  Rx         0080  0  
  1562)      8147.0  Rx         0185  8  00 00 00 00 00 18 DB 56 
  1563)      8147.2  Rx         0181  6  37 06 B8 89 03 00 
  1564)      8147.3  Rx         0285  8  00 00 00 82 00 18 DB 56 
  1565)      8147.3  Rx         0381  2  AB 00 
  1566)      8147.4  Rx         0281  4  C8 6F 2F 00 
  1567)      8147.6  Rx         0385  8  00 00 00 00 00 18 DB 56 
  1568)      8147.6  Rx         0481  8  F8 1C 00 00 00 00 02 00 
  1569)      8147.8  Rx         0485  8  00 00 00 00 00 18 DB 56 
  1570)      8147.9  Rx         0701  0  RTR
  1571)      8148.0  Rx         0701  1  85 
  1572)      8157.0  Rx         0501  6  0F 00 99 99 03 00 
  1573)      8157.1  Rx         0080  0  
  1574)      8157.2  Rx         0701  0  RTR
  1575)      8157.3  Rx         0181  6  37 06 B3 8A 03 00 
  1576)      8157.5  Rx         0185  8  00 00 00 00 00 1C FA 82 
  1577)      8157.5  Rx         0381  2  90 00 
  1578)      8157.6  Rx         0281  4  2E 71 2F 00 
  1579)      8157.7  Rx         0285  8  00 00 00 82 00 1C FA 82 
  1580)      8157.8  Rx         0481  8  F9 1C 00 00 00 00 02 00 
  1581)      8158.0  Rx         0385  8  00 00 00 00 00 1C FA 82 
  1582)      8158.0  Rx         0701  1  05 
  1583)      8158.1  Rx         0485  8  00 00 00 00 00 1C FA 82 
  1584)      8167.2  Rx         0501  6  0F 00 99 99 03 00 
  1585)      8167.4  Rx         0080  0  
  1586)      8167.4  Rx         0701  0  RTR
  1587)      8167.6  Rx         0185  8  00 00 00 00 00 21 19 D1 
  1588)      8167.7  Rx         0181  6  37 06 D3 8F 03 00 
  1589)      8167.8  Rx         0285  8  00 00 00 82 00 21 19 D1 
  1590)      8167.8  Rx         0381  2  7B 00 
  1591)      8167.9  Rx         0281  4  9B 72 2F 00 
  1592)      8168.0  Rx         0385  8  00 00 00 00 00 21 19 D1 
  1593)      8168.2  Rx         0481  8  FB 1C 00 00 00 00 02 00 
  1594)      8168.3  Rx         0485  8  00 00 00 00 00 21 19 D1 
  1595)      8168.3  Rx         0701  1  85 
  1596)      8177.5  Rx         0501  6  0F 00 99 99 03 00 
  1597)      8177.6  Rx         0080  0  
  1598)      8177.6  Rx         0701  0  RTR
  1599)      8177.7  Rx         0181  6  37 06 17 8B 03 00 
  1600)      8177.9  Rx         0185  8  00 00 00 00 00 25 38 B9 
  1601)      8177.9  Rx         0381  2  82 00 
  1602)      8178.0  Rx         0281  4  01 74 2F 00 
  1603)      8178.1  Rx         0285  8  00 00 00 82 00 25 38 B9 
  1604)      8178.2  Rx         0481  8  FD 1C 00 00 00 00 02 00 
  1605)      8178.4  Rx         0385  8  00 00 00 00 00 25 38 B9 
  1606)      8178.4  Rx         0701  1  05 
  1607)      8178.5  Rx         0485  8  00 00 00 00 00 25 38 B9 
  1608)      8187.7  Rx         0501  6  0F 00 99 99 03 00 
  1609)      8187.7  Rx         0080  0  
  1610)      8187.8  Rx         0701  0  RTR
  1611)      8187.9  Rx         0185  8  00 00 00 00 00 29 57 D4 
  1612)      8188.0  Rx         0181  6  37 06 C8 8A 03 00 
  1613)      8188.2  Rx         0285  8  00 00 00 82 00 29 57 D4 
  1614)      8188.3  Rx         0381  2  99 00 
  1615)      8188.3  Rx         0281  4  6E 75 2F 00 
  1616)      8188.4  Rx         0385  8  00 00 00 00 00 29 57 D4 
  1617)      8188.5  Rx         0481  8  FB 1C 00 00 00 00 02 00 
  1618)      8188.7  Rx         0485  8  00 00 00 00 00 29 57 D4 
  1619)      8188.7  Rx         0701  1  85 
  1620)      8197.9  Rx         0501  6  0F 00 99 99 03 00 
  1621)      8198.0  Rx         0080  0  
  1622)      8198.1  Rx         0185  8  00 00 00 00 00 2D 77 19 
  1623)      8198.2  Rx         0701  0  RTR
  1624)      8198.3  Rx         0285  8  00 00 00 82 00 2D 77 19 
  1625)      8198.4  Rx         0181  6  37 06 88 8B 03 00 
  1626)      8198.5  Rx         0381  2  A1 00 
  1627)      8198.6  Rx         0281  4  DA 76 2F 00 
  1628)      8198.7  Rx         0385  8  00 00 00 00 00 2D 77 19 
  1629)      8198.8  Rx         0481  8  F9 1C 00 00 00 00 02 00 
  1630)      8198.9  Rx         0485  8  00 00 00 00 00 2D 77 19 
  1631)      8199.0  Rx         0701  1  05 
  1632)      8208.1  Rx         0501  6  0F 00 99 99 03 00 
  1633)      8208.2  Rx         0080  0  
  1634)      8208.4  Rx         0185  8  00 00 00 00 00 31 8B 91 
  1635)      8208.5  Rx         0181  6  37 06 62 89 03 00 
  1636)      8208.6  Rx         0285  8  00 00 00 82 00 31 8B 91 
  1637)      8208.6  Rx         0381  2  B2 00 
  1638)      8208.7  Rx         0281  4  40 78 2F 00 
  1639)      8208.9  Rx         0385  8  00 00 00 00 00 31 8B 91 
  1640)      8209.0  Rx         0481  8  FC 1C 00 00 00 00 02 00 
  1641)      8209.1  Rx         0485  8  00 00 00 00 00 31 8B 91 
  1642)      8209.2  Rx         0701  0  RTR
  1643)      8209.3  Rx         0701  1  85 
  1644)      8218.4  Rx         0501  6  0F 00 99 99 03 00 
  1645)      8218.5  Rx         0080  0  
  1646)      8218.5  Rx         0701  0  RTR
  1647)      8218.7  Rx         0185  8  00 00 00 00 00 35 AA ED 
  1648)      8218.8  Rx         0181  6  37 06 C0 86 03 00 
  1649)      8218.9  Rx         0285  8  00 00 00 82 00 35 AA ED 
  1650)      8219.0  Rx         0381  2  D5 00 
  1651)      8219.0  Rx         0281  4  AB 79 2F 00 
  1652)      8219.2  Rx         0385  8  00 00 00 00 00 35 AA ED 
  1653)      8219.3  Rx         0481  8  F8 1C 00 00 00 00 02 00 
  1654)      8219.4  Rx         0485  8  00 00 00 00 00 35 AA ED 
  1655)      8219.5  Rx         0701  1  05 
  1656)      8228.6  Rx         0501  6  0F 00 99 99 03 00 
  1657)      8228.7  Rx         0080  0  
  1658)      8228.7  Rx         0701  0  RTR
  1659)      8228.9  Rx         0185  8  00 00 00 00 00 39 C9 C4 
  1660)      8229.0  Rx         0181  6  37 06 14 86 03 00 
  1661)      8229.1  Rx         0285  8  00 00 00 82 00 39 C9 C4 
  1662)      8229.2  Rx         0381  2  CB 00 
  1663)      8229.3  Rx         0281  4  12 7B 2F 00 
  1664)      8229.3  Rx         0385  8  00 00 00 00 00 39 C9 C4 
  1665)      8229.4  Rx         0701  1  85 
  1666)      8229.6  Rx         0481  8  F6 1C 00 00 00 00 02 00 
  1667)      8229.7  Rx         0485  8  00 00 00 00 00 39 C9 C4 
  1668)      8238.8  Rx         0501  6  0F 00 99 99 03 00 
  1669)      8238.9  Rx         0080  0  
  1670)      8238.9  Rx         0701  0  RTR
  1671)      8239.1  Rx         0185  8  00 00 00 00 00 3D E9 15 
  1672)      8239.2  Rx         0181  6  37 06 0C 86 03 00 
  1673)      8239.3  Rx         0285  8  00 00 00 82 00 3D E9 15 
  1674)      8239.4  Rx         0381  2  CE 00 
  1675)      8239.4  Rx         0281  4  7A 7C 2F 00 
  1676)      8239.6  Rx         0385  8  00 00 00 00 00 3D E9 15 
  1677)      8239.7  Rx         0481  8  F6 1C 00 00 00 00 00 00 
  1678)      8239.8  Rx         0485  8  00 00 00 00 00 3D E9 15 
  1679)      8239.9  Rx         0701  1  05 
  1680)      8249.1  Rx         0501  6  0F 00 99 99 03 00 
  1681)      8249.1  Rx         0080  0  
